time	I(Ls1)	I(Ls2)	I(Ls3)	I(Ls4)
0.000000000000000e+000	-1.066481e+001	-5.235873e-001	-1.066481e+001	-5.235873e-001
3.000000000003868e-008	-1.070237e+001	-5.408655e-001	-1.070237e+001	-5.408655e-001
7.000000000001797e-008	-1.073305e+001	-5.600388e-001	-1.073305e+001	-5.600388e-001
1.499999999999765e-007	-1.073679e+001	-5.857127e-001	-1.073679e+001	-5.857127e-001
2.500000000000332e-007	-1.064225e+001	-5.936955e-001	-1.064225e+001	-5.936955e-001
3.500000000000898e-007	-1.042609e+001	-5.690579e-001	-1.042609e+001	-5.690579e-001
4.500000000001465e-007	-1.007824e+001	-5.055951e-001	-1.007824e+001	-5.055951e-001
5.500000000002031e-007	-9.596273e+000	-3.991850e-001	-9.596273e+000	-3.991850e-001
6.500000000002598e-007	-8.979539e+000	-2.466077e-001	-8.979539e+000	-2.466077e-001
7.500000000003164e-007	-8.244501e+000	-7.687839e-002	-8.244501e+000	-7.687839e-002
8.086428613842799e-007	-7.761326e+000	-9.773577e-003	-7.761326e+000	-9.773577e-003
8.383738758872480e-007	-7.498147e+000	1.541132e-007	-7.498147e+000	1.541132e-007
8.618735249231891e-007	-7.281165e+000	-2.974735e-008	-7.281165e+000	-2.974735e-008
8.800055697135052e-007	-7.108950e+000	1.940944e-007	-7.108950e+000	1.940944e-007
8.945927654124743e-007	-6.967383e+000	-6.359782e-008	-6.967383e+000	-6.359782e-008
9.062743363465620e-007	-6.852107e+000	2.330811e-007	-6.852107e+000	2.330811e-007
9.158965293260251e-007	-6.755885e+000	-9.118535e-008	-6.755885e+000	-9.118535e-008
9.238730821767641e-007	-6.675258e+000	2.494882e-007	-6.675258e+000	2.494882e-007
9.306669093202009e-007	-6.605975e+000	-8.074223e-008	-6.605975e+000	-8.074223e-008
9.365437741112349e-007	-6.545585e+000	1.014360e-007	-6.545585e+000	1.014360e-007
9.422121094661458e-007	-6.486943e+000	2.033006e-008	-6.486943e+000	2.033006e-008
9.474665474745389e-007	-6.432245e+000	7.092208e-008	-6.432245e+000	7.092208e-008
9.525763166064443e-007	-6.378734e+000	1.581797e-007	-6.378734e+000	1.581797e-007
9.577629246806767e-007	-6.324101e+000	-1.398104e-008	-6.324101e+000	-1.398060e-008
9.631413503755071e-007	-6.267110e+000	2.286460e-007	-6.267110e+000	2.286470e-007
9.690773516634558e-007	-6.203807e+000	-6.575099e-008	-6.203807e+000	-6.575051e-008
9.759608926810260e-007	-6.129867e+000	2.328364e-007	-6.129867e+000	2.328364e-007
9.845573105651991e-007	-6.036710e+000	-4.182275e-008	-6.036710e+000	-4.182275e-008
9.961937605042388e-007	-5.909131e+000	1.869065e-007	-5.909131e+000	1.869065e-007
1.013641490987295e-006	-5.714543e+000	1.474186e-008	-5.714543e+000	1.474186e-008
1.042901508241899e-006	-5.378951e+000	1.350536e-007	-5.378951e+000	1.350536e-007
1.099373702877736e-006	-4.700923e+000	6.909988e-008	-4.700923e+000	6.909988e-008
1.199373702877793e-006	-3.428840e+000	9.363976e-008	-3.428840e+000	9.363976e-008
1.299373702877849e-006	-2.074822e+000	9.554969e-008	-2.074822e+000	9.554969e-008
1.399373702877906e-006	-6.537156e-001	1.456790e-005	-6.537156e-001	1.456790e-005
1.411873702877832e-006	-4.702880e-001	1.094706e-005	-4.702880e-001	1.094706e-005
1.436873702877900e-006	-1.205320e-001	-5.768871e-007	-1.205320e-001	-5.768871e-007
1.449529573077819e-006	2.162372e-002	-2.019855e-006	2.162372e-002	-2.019855e-006
1.449552367018816e-006	2.177394e-002	-1.999092e-006	2.177394e-002	-1.999092e-006
1.449597954900810e-006	2.194674e-002	-1.775909e-006	2.194674e-002	-1.775909e-006
1.449689130664580e-006	2.229241e-002	-8.571866e-007	2.229241e-002	-8.571860e-007
1.449871482192338e-006	2.298391e-002	6.053000e-007	2.298391e-002	6.053003e-007
1.450236185247854e-006	2.436747e-002	6.990523e-007	2.436747e-002	6.990520e-007
1.450923545668389e-006	2.697716e-002	-1.422754e-007	2.697716e-002	-1.422753e-007
1.451704710878597e-006	2.994680e-002	1.960617e-007	2.994680e-002	1.960618e-007
1.452889919338401e-006	3.446178e-002	1.685873e-007	3.446178e-002	1.685872e-007
1.455260336258009e-006	4.352135e-002	5.039344e-008	4.352135e-002	5.039352e-008
1.458794487032558e-006	5.709133e-002	1.043445e-007	5.709133e-002	1.043445e-007
1.462827294981036e-006	7.267898e-002	5.801812e-008	7.267898e-002	5.801813e-008
1.468833697811436e-006	9.609461e-002	1.058721e-007	9.609461e-002	1.058721e-007
1.475951809965393e-006	1.241462e-001	7.881503e-008	1.241462e-001	7.881506e-008
1.485178577549304e-006	1.610131e-001	1.061299e-007	1.610131e-001	1.061300e-007
1.496901883787840e-006	2.086491e-001	8.752167e-008	2.086491e-001	8.752168e-008
1.511063504512026e-006	2.673924e-001	1.029011e-007	2.673924e-001	1.029011e-007
1.529003074460071e-006	3.436580e-001	9.123567e-008	3.436580e-001	9.123568e-008
1.550225142050738e-006	4.365191e-001	1.004781e-007	4.365191e-001	1.004781e-007
1.576079117391119e-006	5.534503e-001	9.393817e-008	5.534503e-001	9.393818e-008
1.605810464946032e-006	6.929647e-001	9.936846e-008	6.929647e-001	9.936846e-008
1.640196122952966e-006	8.608486e-001	9.630813e-008	8.608486e-001	9.630813e-008
1.677239352668820e-006	1.049296e+000	9.858128e-008	1.049296e+000	9.858129e-008
1.716785550386806e-006	1.258758e+000	9.863206e-008	1.258758e+000	9.863207e-008
1.754140244117396e-006	1.464398e+000	9.857644e-008	1.464398e+000	9.857644e-008
1.793492229254252e-006	1.688976e+000	9.795581e-008	1.688976e+000	9.795581e-008
1.832153390949904e-006	1.917022e+000	9.762616e-008	1.917022e+000	9.762616e-008
1.871394299801871e-006	2.155704e+000	9.687984e-008	2.155704e+000	9.687984e-008
1.910879344535705e-006	2.402765e+000	9.691421e-008	2.402765e+000	9.691421e-008
1.952124715402879e-006	2.667856e+000	9.396786e-008	2.667856e+000	9.396787e-008
1.999129831394475e-006	2.977930e+000	9.606739e-008	2.977930e+000	9.606740e-008
2.054617684461120e-006	3.353456e+000	9.110072e-008	3.353456e+000	9.110073e-008
2.121595322624424e-006	3.818248e+000	9.214995e-008	3.818248e+000	9.214995e-008
2.209492955269682e-006	4.441627e+000	8.576141e-008	4.441627e+000	8.576141e-008
2.309492955269738e-006	5.160544e+000	1.640084e-007	5.160544e+000	1.640079e-007
2.321992955269664e-006	5.251014e+000	1.422542e-007	5.251014e+000	1.422537e-007
2.346992955269732e-006	5.432318e+000	7.933341e-008	5.432318e+000	7.933340e-008
2.396992955269652e-006	5.794568e+000	6.749890e-008	5.794568e+000	6.749891e-008
2.406152936800313e-006	5.860803e+000	7.242335e-008	5.860803e+000	7.242338e-008
2.424472899861850e-006	5.992856e+000	9.137910e-008	5.992856e+000	9.137914e-008
2.461112825984709e-006	6.255194e+000	9.548116e-008	6.255194e+000	9.548116e-008
2.534392678230643e-006	6.771710e+000	2.851323e-003	6.771710e+000	2.851323e-003
2.634392678230700e-006	7.456317e+000	1.996217e-002	7.456317e+000	1.996217e-002
2.734392678230757e-006	8.108395e+000	5.832335e-002	8.108395e+000	5.832335e-002
2.834392678230813e-006	8.714740e+000	1.178951e-001	8.714740e+000	1.178951e-001
2.934392678230870e-006	9.263129e+000	1.927559e-001	9.263129e+000	1.927559e-001
3.034392678230927e-006	9.741596e+000	2.761797e-001	9.741596e+000	2.761797e-001
3.134392678230983e-006	1.013866e+001	3.612266e-001	1.013866e+001	3.612266e-001
3.234392678231040e-006	1.044350e+001	4.408956e-001	1.044350e+001	4.408956e-001
3.334392678231097e-006	1.064617e+001	5.082683e-001	1.064617e+001	5.082683e-001
3.434392678231153e-006	1.073775e+001	5.566491e-001	1.073775e+001	5.566491e-001
3.534392678231210e-006	1.071054e+001	5.797023e-001	1.071054e+001	5.797023e-001
3.634392678231267e-006	1.055819e+001	5.715821e-001	1.055819e+001	5.715821e-001
3.734392678231323e-006	1.027584e+001	5.270557e-001	1.027584e+001	5.270557e-001
3.834392678231380e-006	9.860241e+000	4.416174e-001	9.860241e+000	4.416174e-001
3.934392678231436e-006	9.309868e+000	3.115998e-001	9.309868e+000	3.115998e-001
4.034392678231493e-006	8.635398e+000	1.390768e-001	8.635398e+000	1.390768e-001
4.102935294000637e-006	8.103654e+000	2.938191e-002	8.103654e+000	2.938191e-002
4.148795401580580e-006	7.719434e+000	5.514800e-005	7.719434e+000	5.514800e-005
4.149044092156742e-006	7.717271e+000	5.283020e-005	7.717271e+000	5.283020e-005
4.149541473309065e-006	7.712865e+000	-2.928275e-005	7.712865e+000	-2.928275e-005
4.149817269732741e-006	7.710422e+000	-7.628096e-005	7.710422e+000	-7.628096e-005
4.149967961267946e-006	7.709092e+000	-2.333969e-005	7.709092e+000	-2.333969e-005
4.150049707007464e-006	7.708373e+000	3.898886e-005	7.708373e+000	3.898886e-005
4.150157806511855e-006	7.707420e+000	1.060936e-004	7.707420e+000	1.060936e-004
4.150226435090153e-006	7.706813e+000	1.161693e-004	7.706813e+000	1.161693e-004
4.150302699134061e-006	7.706135e+000	8.582798e-005	7.706135e+000	8.582797e-005
4.150394704528684e-006	7.705316e+000	1.654144e-005	7.705316e+000	1.654144e-005
4.150496257101241e-006	7.704410e+000	-6.110730e-005	7.704410e+000	-6.110730e-005
4.150611663504642e-006	7.703384e+000	-1.112219e-004	7.703384e+000	-1.112219e-004
4.150684064889876e-006	7.702743e+000	-1.035635e-004	7.702743e+000	-1.035635e-004
4.150757845595380e-006	7.702092e+000	-5.868742e-005	7.702092e+000	-5.868742e-005
4.150848176678055e-006	7.701297e+000	1.582115e-005	7.701297e+000	1.582115e-005
4.150947888192924e-006	7.700418e+000	8.899003e-005	7.700418e+000	8.899003e-005
4.151017996833605e-006	7.699799e+000	1.142591e-004	7.699799e+000	1.142591e-004
4.151089858262956e-006	7.699161e+000	1.021753e-004	7.699161e+000	1.021753e-004
4.151187237327403e-006	7.698293e+000	4.246325e-005	7.698293e+000	4.246325e-005
4.151277677040197e-006	7.697485e+000	-2.740572e-005	7.697485e+000	-2.740572e-005
4.151402470283644e-006	7.696373e+000	-1.020354e-004	7.696373e+000	-1.020354e-004
4.151475034781457e-006	7.695729e+000	-1.119530e-004	7.695729e+000	-1.119530e-004
4.151543792577789e-006	7.695120e+000	-8.470159e-005	7.695120e+000	-8.470159e-005
4.151629649329185e-006	7.694363e+000	-2.108512e-005	7.694363e+000	-2.108512e-005
4.151719934880139e-006	7.693567e+000	4.658057e-005	7.693567e+000	4.658057e-005
4.151852639154357e-006	7.692393e+000	1.027568e-004	7.692393e+000	1.027568e-004
4.151941265247800e-006	7.691606e+000	9.085949e-005	7.691606e+000	9.085949e-005
4.152032027953745e-006	7.690795e+000	3.290280e-005	7.690795e+000	3.290280e-005
4.152129043211768e-006	7.689929e+000	-4.025647e-005	7.689929e+000	-4.025647e-005
4.152252611434480e-006	7.688827e+000	-1.038611e-004	7.688827e+000	-1.038611e-004
4.152324602249265e-006	7.688187e+000	-1.058045e-004	7.688187e+000	-1.058045e-004
4.152395657015286e-006	7.687559e+000	-7.113266e-005	7.687559e+000	-7.113266e-005
4.152490033464650e-006	7.686725e+000	1.263409e-006	7.686725e+000	1.263412e-006
4.152582545488082e-006	7.685908e+000	6.990267e-005	7.685908e+000	6.990268e-005
4.152667331952173e-006	7.685158e+000	1.065104e-004	7.685158e+000	1.065104e-004
4.152739007415264e-006	7.684520e+000	1.022402e-004	7.684520e+000	1.022402e-004
4.152824215918928e-006	7.683760e+000	5.752168e-005	7.683760e+000	5.752168e-005
4.152917489714733e-006	7.682926e+000	-1.251123e-005	7.682926e+000	-1.251123e-005
4.153031071633994e-006	7.681910e+000	-8.845150e-005	7.681910e+000	-8.845150e-005
4.153101953822784e-006	7.681278e+000	-1.094717e-004	7.681278e+000	-1.094717e-004
4.153170450330295e-006	7.680670e+000	-9.588792e-005	7.680670e+000	-9.588792e-005
4.153251451662022e-006	7.679953e+000	-4.739027e-005	7.679953e+000	-4.739027e-005
4.153341863569150e-006	7.679154e+000	2.164681e-005	7.679154e+000	2.164681e-005
4.153450876029450e-006	7.678189e+000	9.099257e-005	7.678189e+000	9.099257e-005
4.153520696920923e-006	7.677569e+000	1.077301e-004	7.677569e+000	1.077301e-004
4.153594618653807e-006	7.676910e+000	8.797846e-005	7.676910e+000	8.797846e-005
4.153691027969017e-006	7.676047e+000	2.601058e-005	7.676047e+000	2.601058e-005
4.153786950693208e-006	7.675189e+000	-4.104450e-005	7.675189e+000	-4.104450e-005
4.153923295709214e-006	7.673971e+000	-9.959699e-005	7.673971e+000	-9.959699e-005
4.153999518547152e-006	7.673293e+000	-9.414223e-005	7.673293e+000	-9.414223e-005
4.154074229687855e-006	7.672631e+000	-5.241270e-005	7.672631e+000	-5.241270e-005
4.154168945496618e-006	7.671793e+000	1.886783e-005	7.671793e+000	1.886783e-005
4.154271262993108e-006	7.670886e+000	8.517031e-005	7.670886e+000	8.517031e-005
4.154342416081954e-006	7.670254e+000	1.052337e-004	7.670254e+000	1.052337e-004
4.154415679783700e-006	7.669600e+000	8.972677e-005	7.669600e+000	8.972677e-005
4.154514998827791e-006	7.668710e+000	2.996558e-005	7.668710e+000	2.996558e-005
4.154608005549907e-006	7.667877e+000	-3.457669e-005	7.667877e+000	-3.457669e-005
4.154740438192016e-006	7.666692e+000	-9.713901e-005	7.666692e+000	-9.713901e-005
4.154813685130479e-006	7.666039e+000	-9.757324e-005	7.666039e+000	-9.757323e-005
4.154886298480924e-006	7.665395e+000	-6.253870e-005	7.665395e+000	-6.253870e-005
4.154983027001517e-006	7.664537e+000	7.548752e-006	7.664537e+000	7.548754e-006
4.155079632528480e-006	7.663681e+000	7.297008e-005	7.663681e+000	7.297008e-005
4.155157527559834e-006	7.662988e+000	1.013107e-004	7.662988e+000	1.013107e-004
4.155229327668661e-006	7.662347e+000	9.397798e-005	7.662347e+000	9.397798e-005
4.155316758488840e-006	7.661564e+000	4.844876e-005	7.661564e+000	4.844876e-005
4.155411350649767e-006	7.660715e+000	-1.810241e-005	7.660715e+000	-1.810241e-005
4.155528776870858e-006	7.659663e+000	-8.735516e-005	7.659663e+000	-8.735516e-005
4.155600343229817e-006	7.659023e+000	-1.022795e-004	7.659023e+000	-1.022795e-004
4.155670419744720e-006	7.658399e+000	-8.352831e-005	7.658399e+000	-8.352831e-005
4.155756186880735e-006	7.657637e+000	-3.069822e-005	7.657637e+000	-3.069822e-005
4.155849029277049e-006	7.656813e+000	3.373548e-005	7.656813e+000	3.373548e-005
4.155972303325570e-006	7.655717e+000	9.275895e-005	7.655717e+000	9.275895e-005
4.156047979756621e-006	7.655041e+000	9.484457e-005	7.655041e+000	9.484457e-005
4.156128545553276e-006	7.654319e+000	5.862289e-005	7.654319e+000	5.862289e-005
4.156225576319294e-006	7.653448e+000	-8.010079e-006	7.653448e+000	-8.010083e-006
4.156334203713700e-006	7.652472e+000	-7.686893e-005	7.652472e+000	-7.686893e-005
4.156407515507185e-006	7.651816e+000	-9.956433e-005	7.651816e+000	-9.956433e-005
4.156478517392329e-006	7.651183e+000	-8.932660e-005	7.651183e+000	-8.932660e-005
4.156561187723196e-006	7.650447e+000	-4.563468e-005	7.650447e+000	-4.563468e-005
4.156654480643894e-006	7.649618e+000	1.916809e-005	7.649618e+000	1.916810e-005
4.156764598605952e-006	7.648639e+000	8.327705e-005	7.648639e+000	8.327705e-005
4.156835699746118e-006	7.648004e+000	9.860795e-005	7.648004e+000	9.860795e-005
4.156910517476688e-006	7.647334e+000	7.954988e-005	7.647334e+000	7.954988e-005
4.157010758958470e-006	7.646433e+000	1.972304e-005	7.646433e+000	1.972304e-005
4.157106868632075e-006	7.645570e+000	-4.045565e-005	7.645570e+000	-4.045564e-005
4.157249800668507e-006	7.644288e+000	-8.967466e-005	7.644288e+000	-8.967466e-005
4.157334401913137e-006	7.643532e+000	-7.774326e-005	7.643532e+000	-7.774326e-005
4.157415773839695e-006	7.642807e+000	-3.107268e-005	7.642807e+000	-3.107268e-005
4.157512651279793e-006	7.641945e+000	3.390143e-005	7.641945e+000	3.390143e-005
4.157630240419390e-006	7.640897e+000	8.899986e-005	7.640897e+000	8.899986e-005
4.157703911724341e-006	7.640238e+000	9.225277e-005	7.640238e+000	9.225277e-005
4.157783254714201e-006	7.639525e+000	5.969367e-005	7.639525e+000	5.969367e-005
4.157880436908784e-006	7.638651e+000	-3.684692e-006	7.638651e+000	-3.684693e-006
4.157987982473469e-006	7.637683e+000	-6.983530e-005	7.637683e+000	-6.983530e-005
4.158067606775413e-006	7.636969e+000	-9.476871e-005	7.636969e+000	-9.476871e-005
4.158138388299718e-006	7.636335e+000	-8.600023e-005	7.636335e+000	-8.600023e-005
4.158220565497924e-006	7.635602e+000	-4.473690e-005	7.635602e+000	-4.473690e-005
4.158315551297531e-006	7.634756e+000	1.827736e-005	7.634756e+000	1.827736e-005
4.158426608897496e-006	7.633766e+000	7.992040e-005	7.633766e+000	7.992040e-005
4.158498329323752e-006	7.633124e+000	9.433764e-005	7.633124e+000	9.433764e-005
4.158573646756815e-006	7.632448e+000	7.534619e-005	7.632448e+000	7.534619e-005
4.158675724381597e-006	7.631529e+000	1.646563e-005	7.631529e+000	1.646562e-005
4.158772153748476e-006	7.630661e+000	-4.046443e-005	7.630661e+000	-4.046444e-005
4.158919197366643e-006	7.629339e+000	-8.455502e-005	7.629339e+000	-8.455502e-005
4.159008899986541e-006	7.628536e+000	-6.866323e-005	7.628536e+000	-6.866323e-005
4.159094353032872e-006	7.627773e+000	-1.931131e-005	7.627773e+000	-1.931131e-005
4.159192609303180e-006	7.626897e+000	4.101593e-005	7.626897e+000	4.101593e-005
4.159322269474018e-006	7.625737e+000	8.540472e-005	7.625737e+000	8.540472e-005
4.159408790815108e-006	7.624960e+000	7.515921e-005	7.624960e+000	7.515921e-005
4.159498096948560e-006	7.624156e+000	2.794622e-005	7.624156e+000	2.794622e-005
4.159598285119253e-006	7.623252e+000	-3.394606e-005	7.623252e+000	-3.394606e-005
4.159724307696610e-006	7.622118e+000	-8.574973e-005	7.622118e+000	-8.574973e-005
4.159797978639870e-006	7.621456e+000	-8.542305e-005	7.621456e+000	-8.542305e-005
4.159873978898257e-006	7.620776e+000	-5.265482e-005	7.620776e+000	-5.265482e-005
4.159974574557013e-006	7.619878e+000	1.100109e-005	7.619878e+000	1.100109e-005
4.160077641143529e-006	7.618957e+000	6.945276e-005	7.618957e+000	6.945276e-005
4.160155919783175e-006	7.618255e+000	8.982483e-005	7.618255e+000	8.982483e-005
4.160229879854533e-006	7.617590e+000	7.766154e-005	7.617590e+000	7.766154e-005
4.160321006258698e-006	7.616768e+000	3.111985e-005	7.616768e+000	3.111985e-005
4.160419020479787e-006	7.615883e+000	-2.838581e-005	7.615883e+000	-2.838581e-005
4.160545940876288e-006	7.614739e+000	-8.294645e-005	7.614739e+000	-8.294645e-005
4.160619078089805e-006	7.614081e+000	-8.553477e-005	7.614081e+000	-8.553477e-005
4.160694157423830e-006	7.613409e+000	-5.624744e-005	7.613409e+000	-5.624744e-005
4.160796754513725e-006	7.612492e+000	6.462588e-006	7.612492e+000	6.462589e-006
4.160897098397318e-006	7.611594e+000	6.357422e-005	7.611594e+000	6.357422e-005
4.160980046239923e-006	7.610850e+000	8.730579e-005	7.610850e+000	8.730579e-005
4.161053381615022e-006	7.610190e+000	7.802476e-005	7.610190e+000	7.802476e-005
4.161142050226755e-006	7.609389e+000	3.542719e-005	7.609389e+000	3.542719e-005
4.161239998083611e-006	7.608504e+000	-2.339744e-005	7.608504e+000	-2.339744e-005
4.161363083108206e-006	7.607393e+000	-7.942801e-005	7.607393e+000	-7.942801e-005
4.161435814552771e-006	7.606738e+000	-8.574682e-005	7.606738e+000	-8.574682e-005
4.161510827859535e-006	7.606065e+000	-6.060037e-005	7.606065e+000	-6.060036e-005
4.161615186686670e-006	7.605130e+000	1.904098e-007	7.605130e+000	1.904105e-007
4.161712567418621e-006	7.604258e+000	5.523265e-005	7.604258e+000	5.523265e-005
4.161808450659421e-006	7.603397e+000	8.404210e-005	7.603397e+000	8.404210e-005
4.161884252208703e-006	7.602715e+000	7.574544e-005	7.602715e+000	7.574544e-005
4.161971957588337e-006	7.601922e+000	3.445720e-005	7.601922e+000	3.445720e-005
4.162070747293052e-006	7.601028e+000	-2.367604e-005	7.601028e+000	-2.367604e-005
4.162193243615383e-006	7.599921e+000	-7.793832e-005	7.599921e+000	-7.793832e-005
4.162265902408211e-006	7.599266e+000	-8.377354e-005	7.599266e+000	-8.377354e-005
4.162341731175304e-006	7.598585e+000	-5.856066e-005	7.598585e+000	-5.856066e-005
4.162446485255497e-006	7.597646e+000	1.257424e-006	7.597646e+000	1.257425e-006
4.162545280579416e-006	7.596759e+000	5.558519e-005	7.596759e+000	5.558519e-005
4.162639360203932e-006	7.595913e+000	8.251343e-005	7.595913e+000	8.251343e-005
4.162714940075070e-006	7.595232e+000	7.377077e-005	7.595232e+000	7.377077e-005
4.162803016059726e-006	7.594435e+000	3.279634e-005	7.594435e+000	3.279634e-005
4.162902198769731e-006	7.593537e+000	-2.417194e-005	7.593537e+000	-2.417194e-005
4.163025839233267e-006	7.592419e+000	-7.674646e-005	7.592419e+000	-7.674646e-005
4.163098721725626e-006	7.591761e+000	-8.146337e-005	7.591761e+000	-8.146337e-005
4.163175351712487e-006	7.591072e+000	-5.550264e-005	7.591072e+000	-5.550263e-005
4.163280492858060e-006	7.590128e+000	3.662797e-006	7.590128e+000	3.662798e-006
4.163381379032691e-006	7.589222e+000	5.743170e-005	7.589222e+000	5.743170e-005
4.163470519796906e-006	7.588419e+000	8.133093e-005	7.588419e+000	8.133093e-005
4.163545241233626e-006	7.587745e+000	7.204191e-005	7.587745e+000	7.204191e-005
