time	I(Ls1)	I(Ls2)	I(Ls3)	I(Ls4)
0.000000000000000e+000	-5.890942e+000	-5.890942e+000	-5.890941e+000	-5.890941e+000
7.000000000001797e-008	-5.951087e+000	-5.951087e+000	-5.951085e+000	-5.951086e+000
1.499999999999765e-007	-5.964411e+000	-5.964411e+000	-5.964410e+000	-5.964410e+000
2.500000000000332e-007	-5.906359e+000	-5.906359e+000	-5.906358e+000	-5.906358e+000
3.500000000000898e-007	-5.756082e+000	-5.756082e+000	-5.756080e+000	-5.756081e+000
4.500000000001465e-007	-5.505378e+000	-5.505378e+000	-5.505377e+000	-5.505378e+000
5.500000000002031e-007	-5.152053e+000	-5.152053e+000	-5.152052e+000	-5.152053e+000
6.500000000002598e-007	-4.695524e+000	-4.695524e+000	-4.695523e+000	-4.695524e+000
7.500000000003164e-007	-4.136872e+000	-4.136872e+000	-4.136871e+000	-4.136871e+000
8.500000000003730e-007	-3.478870e+000	-3.478870e+000	-3.478869e+000	-3.478869e+000
9.500000000004297e-007	-2.725982e+000	-2.725982e+000	-2.725982e+000	-2.725982e+000
1.050000000000486e-006	-1.884348e+000	-1.884348e+000	-1.884348e+000	-1.884348e+000
1.150000000000543e-006	-9.660425e-001	-9.660425e-001	-9.660424e-001	-9.660425e-001
1.250000000000600e-006	-9.735148e-002	-9.735148e-002	-9.735148e-002	-9.735147e-002
1.306989815595986e-006	2.523947e-001	2.523947e-001	2.523946e-001	2.523947e-001
1.307309060493865e-006	2.523401e-001	2.523401e-001	2.523400e-001	2.523400e-001
1.322815241242877e-006	2.364298e-001	2.364298e-001	2.364297e-001	2.364297e-001
1.338321421991890e-006	2.223933e-001	2.223933e-001	2.223932e-001	2.223932e-001
1.353827602740902e-006	2.102306e-001	2.102306e-001	2.102305e-001	2.102306e-001
1.369333783489915e-006	1.999418e-001	1.999418e-001	1.999416e-001	1.999417e-001
1.384839964238927e-006	1.915268e-001	1.915268e-001	1.915266e-001	1.915267e-001
1.400346144987939e-006	1.849856e-001	1.849856e-001	1.849854e-001	1.849854e-001
1.415852325736952e-006	1.803182e-001	1.803182e-001	1.803180e-001	1.803180e-001
1.515852325737008e-006	1.805373e-001	1.805373e-001	1.805369e-001	1.805370e-001
1.615852325737065e-006	2.379757e-001	2.379757e-001	2.379751e-001	2.379753e-001
1.715852325737122e-006	3.589823e-001	3.589823e-001	3.589816e-001	3.589818e-001
1.815852325737178e-006	5.412812e-001	5.412812e-001	5.412804e-001	5.412806e-001
1.915852325737235e-006	7.812749e-001	7.812749e-001	7.812739e-001	7.812741e-001
2.015852325737292e-006	1.074081e+000	1.074081e+000	1.074080e+000	1.074080e+000
2.115852325737348e-006	1.413601e+000	1.413601e+000	1.413600e+000	1.413600e+000
2.215852325737405e-006	1.792614e+000	1.792614e+000	1.792612e+000	1.792613e+000
2.315852325737462e-006	2.202890e+000	2.202890e+000	2.202889e+000	2.202889e+000
2.415852325737518e-006	2.635328e+000	2.635328e+000	2.635327e+000	2.635327e+000
2.515852325737575e-006	3.080103e+000	3.080103e+000	3.080101e+000	3.080101e+000
2.615852325737631e-006	3.526828e+000	3.526827e+000	3.526826e+000	3.526826e+000
2.715852325737688e-006	3.964733e+000	3.964733e+000	3.964731e+000	3.964731e+000
2.815852325737745e-006	4.382846e+000	4.382846e+000	4.382845e+000	4.382845e+000
2.915852325737801e-006	4.770185e+000	4.770185e+000	4.770184e+000	4.770185e+000
3.015852325737858e-006	5.115945e+000	5.115945e+000	5.115943e+000	5.115944e+000
3.115852325737915e-006	5.409693e+000	5.409693e+000	5.409691e+000	5.409692e+000
3.215852325737971e-006	5.641555e+000	5.641555e+000	5.641553e+000	5.641553e+000
3.315852325738028e-006	5.802399e+000	5.802399e+000	5.802398e+000	5.802398e+000
3.415852325738085e-006	5.884007e+000	5.884007e+000	5.884006e+000	5.884006e+000
3.515852325738141e-006	5.879236e+000	5.879236e+000	5.879235e+000	5.879235e+000
3.615852325738198e-006	5.782163e+000	5.782163e+000	5.782162e+000	5.782162e+000
3.715852325738255e-006	5.588214e+000	5.588214e+000	5.588213e+000	5.588213e+000
3.815852325738311e-006	5.294274e+000	5.294274e+000	5.294273e+000	5.294273e+000
3.915852325738368e-006	4.898777e+000	4.898777e+000	4.898776e+000	4.898776e+000
4.015852325738424e-006	4.401767e+000	4.401767e+000	4.401766e+000	4.401767e+000
4.115852325738481e-006	3.804944e+000	3.804944e+000	3.804944e+000	3.804944e+000
4.215852325738538e-006	3.111681e+000	3.111681e+000	3.111680e+000	3.111680e+000
4.315852325738594e-006	2.327013e+000	2.327013e+000	2.327013e+000	2.327013e+000
4.415852325738651e-006	1.457626e+000	1.457626e+000	1.457626e+000	1.457626e+000
4.515852325738708e-006	5.260872e-001	5.260872e-001	5.260872e-001	5.260872e-001
4.528352325738633e-006	4.041398e-001	4.041398e-001	4.041398e-001	4.041398e-001
4.553352325738702e-006	1.540227e-001	1.540228e-001	1.540228e-001	1.540228e-001
4.559602325738665e-006	9.100378e-002	9.100378e-002	9.100387e-002	9.100384e-002
4.567299474360050e-006	2.073518e-002	2.073519e-002	2.073529e-002	2.073526e-002
4.571383098691531e-006	-4.621038e-003	-4.621033e-003	-4.620927e-003	-4.620959e-003
4.571390739160301e-006	-4.631537e-003	-4.631532e-003	-4.631426e-003	-4.631458e-003
4.571406020097840e-006	-4.607881e-003	-4.607876e-003	-4.607770e-003	-4.607802e-003
4.573331418226100e-006	-1.643821e-003	-1.643816e-003	-1.643708e-003	-1.643740e-003
4.574318978757498e-006	-3.247647e-004	-3.247612e-004	-3.246823e-004	-3.247061e-004
4.574869650613486e-006	2.961349e-006	2.961946e-006	2.975005e-006	2.970893e-006
4.575149000305085e-006	-4.863807e-005	-4.863906e-005	-4.865976e-005	-4.865289e-005
4.575377415624296e-006	-6.478800e-005	-6.478855e-005	-6.479375e-005	-6.479029e-005
4.575494338662604e-006	1.637709e-006	1.638303e-006	1.660098e-006	1.654697e-006
4.575634076819197e-006	9.092371e-005	9.092544e-005	9.096822e-005	9.095307e-005
4.575759427461607e-006	9.909524e-005	9.909684e-005	9.912698e-005	9.911205e-005
4.575834824782589e-006	5.436071e-005	5.436153e-005	5.436754e-005	5.435899e-005
4.575910144307077e-006	-1.613559e-005	-1.613590e-005	-1.615808e-005	-1.615682e-005
4.575994398851391e-006	-8.379007e-005	-8.379147e-005	-8.383419e-005	-8.382294e-005
4.576089048327365e-006	-1.126600e-004	-1.126619e-004	-1.127052e-004	-1.126883e-004
4.576189200668646e-006	-7.764133e-005	-7.764286e-005	-7.766294e-005	-7.764867e-005
4.576302311157937e-006	1.049319e-005	1.049296e-005	1.050975e-005	1.051293e-005
4.576419264444619e-006	9.389804e-005	9.389933e-005	9.394166e-005	9.393133e-005
4.576511180733002e-006	1.146192e-004	1.146212e-004	1.146622e-004	1.146450e-004
4.576581709832706e-006	8.697282e-005	8.697473e-005	8.699860e-005	8.698137e-005
4.576655908009823e-006	2.599840e-005	2.599962e-005	2.599720e-005	2.598539e-005
4.576743795891040e-006	-5.020223e-005	-5.020221e-005	-5.023129e-005	-5.023280e-005
4.576853096105752e-006	-1.061389e-004	-1.061403e-004	-1.061821e-004	-1.061711e-004
4.576949441825349e-006	-9.418805e-005	-9.418995e-005	-9.421930e-005	-9.420286e-005
4.577055744046715e-006	-2.171599e-005	-2.171718e-005	-2.171192e-005	-2.170019e-005
4.577169854778863e-006	5.924205e-005	5.924322e-005	5.929058e-005	5.928475e-005
4.577326110959601e-006	9.964804e-005	9.965329e-005	9.973680e-005	9.970040e-005
4.577410607005828e-006	6.630497e-005	6.631127e-005	6.638477e-005	6.634014e-005
4.577482744625491e-006	4.553650e-006	4.558918e-006	4.595870e-006	4.558023e-006
4.577570837342422e-006	-6.574672e-005	-6.574466e-005	-6.576370e-005	-6.577923e-005
4.577686424957423e-006	-1.039417e-004	-1.039445e-004	-1.040145e-004	-1.039958e-004
4.577794609804788e-006	-6.885695e-005	-6.886243e-005	-6.893199e-005	-6.889348e-005
4.577912777891866e-006	1.964439e-005	1.963962e-005	1.962115e-005	1.965537e-005
4.578030116546283e-006	9.652274e-005	9.652186e-005	9.656923e-005	9.657630e-005
4.578115707788927e-006	1.101750e-004	1.101778e-004	1.102558e-004	1.102366e-004
4.578186379981634e-006	7.966345e-005	7.966869e-005	7.974467e-005	7.970810e-005
4.578264304767616e-006	1.630247e-005	1.630856e-005	1.635408e-005	1.631090e-005
4.578353614702064e-006	-5.443660e-005	-5.443202e-005	-5.443627e-005	-5.446930e-005
4.578478785698028e-006	-1.003314e-004	-1.003314e-004	-1.003905e-004	-1.003912e-004
4.578587686847411e-006	-6.950623e-005	-6.951015e-005	-6.957447e-005	-6.954739e-005
4.578710526139751e-006	1.974562e-005	1.974016e-005	1.972016e-005	1.975901e-005
4.578825706140922e-006	9.367404e-005	9.367066e-005	9.370865e-005	9.373338e-005
4.578913668595516e-006	1.074915e-004	1.074916e-004	1.075596e-004	1.075599e-004
4.578985330696032e-006	7.706703e-005	7.707020e-005	7.713801e-005	7.711645e-005
4.579064237784144e-006	1.400213e-005	1.400752e-005	1.404900e-005	1.401119e-005
4.579154462266760e-006	-5.480427e-005	-5.479878e-005	-5.480120e-005	-5.484033e-005
4.579284565082867e-006	-9.695903e-005	-9.695693e-005	-9.700843e-005	-9.702417e-005
4.579397081807320e-006	-6.149976e-005	-6.150184e-005	-6.155629e-005	-6.154233e-005
4.579520057579247e-006	2.677884e-005	2.677369e-005	2.675971e-005	2.679593e-005
4.579638154314546e-006	9.652205e-005	9.651732e-005	9.655467e-005	9.658880e-005
4.579722162151474e-006	1.037062e-004	1.037040e-004	1.037639e-004	1.037804e-004
4.579794197601128e-006	6.915260e-005	6.915351e-005	6.921022e-005	6.920475e-005
4.579876588561719e-006	2.754778e-006	2.758804e-006	2.788958e-006	2.761135e-006
4.579967636650058e-006	-6.466699e-005	-6.466145e-005	-6.467097e-005	-6.471005e-005
4.580080885514121e-006	-9.859850e-005	-9.859431e-005	-9.864038e-005	-9.867064e-005
4.580187107936689e-006	-6.485904e-005	-6.485842e-005	-6.490602e-005	-6.491134e-005
4.580308448726752e-006	2.079069e-005	2.078705e-005	2.077427e-005	2.079950e-005
4.580427145956965e-006	9.203116e-005	9.202565e-005	9.205753e-005	9.209671e-005
4.580513923047687e-006	1.022341e-004	1.022296e-004	1.022813e-004	1.023135e-004
4.580586811868100e-006	6.989590e-005	6.989398e-005	6.994200e-005	6.995653e-005
4.580669210771989e-006	5.553319e-006	5.554866e-006	5.578672e-006	5.568643e-006
4.580761333424378e-006	-6.106880e-005	-6.106439e-005	-6.107554e-005	-6.110619e-005
4.580880367677969e-006	-9.532860e-005	-9.532348e-005	-9.536529e-005	-9.540175e-005
4.580989203502002e-006	-6.037657e-005	-6.037386e-005	-6.041258e-005	-6.043255e-005
4.581112070915511e-006	2.463155e-005	2.462980e-005	2.462572e-005	2.463730e-005
4.581232010814453e-006	9.246116e-005	9.245605e-005	9.249058e-005	9.252645e-005
4.581317336371403e-006	9.892281e-005	9.891733e-005	9.896469e-005	9.900377e-005
4.581390892385764e-006	6.424122e-005	6.423733e-005	6.427631e-005	6.430456e-005
4.581476078301811e-006	-1.898668e-006	-1.899338e-006	-1.887110e-006	-1.881427e-006
4.581569306220685e-006	-6.725032e-005	-6.724745e-005	-6.726803e-005	-6.728759e-005
4.581676352155952e-006	-9.590275e-005	-9.589759e-005	-9.593969e-005	-9.597604e-005
4.581780697408876e-006	-6.228560e-005	-6.228129e-005	-6.231161e-005	-6.234171e-005
4.581902802834473e-006	2.068418e-005	2.068403e-005	2.070701e-005	2.071210e-005
4.582023623351259e-006	8.918405e-005	8.917840e-005	8.926371e-005	8.931448e-005
4.582110983362411e-006	9.733527e-005	9.732715e-005	9.743019e-005	9.750178e-005
4.582185135996314e-006	6.404493e-005	6.403735e-005	6.411511e-005	6.418165e-005
4.582270685246290e-006	-7.684585e-007	-7.725980e-007	-7.584933e-007	-7.225896e-007
4.582364847673928e-006	-6.534333e-005	-6.534221e-005	-6.539970e-005	-6.541026e-005
4.582474333511642e-006	-9.354714e-005	-9.354095e-005	-9.363831e-005	-9.369326e-005
4.582579915829704e-006	-5.942817e-005	-5.942078e-005	-5.948999e-005	-5.955503e-005
4.582703105803767e-006	2.268140e-005	2.268512e-005	2.270207e-005	2.266976e-005
4.582824793660824e-006	8.864835e-005	8.864571e-005	8.873929e-005	8.876311e-005
4.582911521524864e-006	9.443956e-005	9.443288e-005	9.453834e-005	9.459756e-005
4.582986603139400e-006	5.965762e-005	5.964961e-005	5.972002e-005	5.979061e-005
4.583074608601693e-006	-6.149719e-006	-6.156100e-006	-6.158592e-006	-6.102770e-006
4.583170045501395e-006	-6.912320e-005	-6.912513e-005	-6.920116e-005	-6.918480e-005
4.583273092395547e-006	-9.278700e-005	-9.278338e-005	-9.289017e-005	-9.292267e-005
4.583376810319987e-006	-5.809275e-005	-5.808579e-005	-5.815457e-005	-5.821604e-005
4.583499675014967e-006	2.240145e-005	2.240743e-005	2.243367e-005	2.238141e-005
4.583623132246167e-006	8.727212e-005	8.727285e-005	8.737884e-005	8.737322e-005
4.583709859756324e-006	9.196548e-005	9.196150e-005	9.207490e-005	9.211075e-005
4.583785663139859e-006	5.664298e-005	5.663604e-005	5.670675e-005	5.676833e-005
4.583875635575611e-006	-9.420130e-006	-9.427624e-006	-9.439574e-006	-9.373617e-006
4.583972358006457e-006	-7.052060e-005	-7.052528e-005	-7.061562e-005	-7.057491e-005
4.584074886468306e-006	-9.058633e-005	-9.058578e-005	-9.070323e-005	-9.070889e-005
4.584179439370015e-006	-5.354438e-005	-5.353909e-005	-5.360912e-005	-5.365626e-005
4.584302486398961e-006	2.561356e-005	2.562041e-005	2.565518e-005	2.559490e-005
4.584428734086179e-006	8.744309e-005	8.744660e-005	8.756576e-005	8.753557e-005
4.584513658834836e-006	8.840528e-005	8.840440e-005	8.852653e-005	8.853518e-005
4.584590164180731e-006	5.071153e-005	5.070675e-005	5.077842e-005	5.082127e-005
4.584684064230576e-006	-1.719115e-005	-1.719841e-005	-1.722086e-005	-1.715661e-005
4.584782730451820e-006	-7.479687e-005	-7.480320e-005	-7.490836e-005	-7.485286e-005
4.584883410252471e-006	-8.771633e-005	-8.771853e-005	-8.784539e-005	-8.782673e-005
4.584989202736185e-006	-4.540445e-005	-4.540136e-005	-4.547043e-005	-4.549832e-005
4.585111754038191e-006	3.167081e-005	3.167736e-005	3.172043e-005	3.166251e-005
4.585243813707380e-006	8.817778e-005	8.818311e-005	8.831437e-005	8.826785e-005
4.585325137639127e-006	8.271074e-005	8.271263e-005	8.284087e-005	8.282493e-005
4.585402369403080e-006	4.074946e-005	4.074720e-005	4.081644e-005	4.083709e-005
4.585508803123858e-006	-3.367895e-005	-3.368530e-005	-3.372833e-005	-3.367205e-005
4.585610460365727e-006	-8.255513e-005	-8.256205e-005	-8.268539e-005	-8.262463e-005
4.585708364733066e-006	-8.101440e-005	-8.101834e-005	-8.114844e-005	-8.111438e-005
4.585816950903937e-006	-2.740754e-005	-2.740618e-005	-2.746068e-005	-2.747336e-005
4.585938944564336e-006	4.365411e-005	4.365972e-005	4.371807e-005	4.366826e-005
4.586090237191200e-006	8.238857e-005	8.239423e-005	8.252874e-005	8.247921e-005
4.586176831430575e-006	5.829024e-005	5.829284e-005	5.840004e-005	5.837779e-005
4.586259701041704e-006	3.415759e-006	3.414015e-006	3.439319e-006	3.455428e-006
4.586360446501205e-006	-5.767277e-005	-5.767844e-005	-5.775601e-005	-5.770553e-005
4.586481708216501e-006	-8.151733e-005	-8.152374e-005	-8.165755e-005	-8.160119e-005
4.586594573294028e-006	-4.380183e-005	-4.380486e-005	-4.389426e-005	-4.386817e-005
4.586722691537473e-006	3.240645e-005	3.240924e-005	3.244010e-005	3.241487e-005
4.586851721091875e-006	8.462591e-005	8.463272e-005	8.476555e-005	8.470544e-005
4.586935335331105e-006	7.823406e-005	7.824068e-005	7.838168e-005	7.832361e-005
4.587014897671328e-006	3.608014e-005	3.608396e-005	3.617028e-005	3.613724e-005
4.587122703702358e-006	-3.542051e-005	-3.542203e-005	-3.545030e-005	-3.543621e-005
4.587229283482082e-006	-8.118155e-005	-8.118733e-005	-8.130737e-005	-8.125592e-005
4.587326992161554e-006	-7.500064e-005	-7.500737e-005	-7.514237e-005	-7.508306e-005
4.587437404994293e-006	-1.912503e-005	-1.912889e-005	-1.919271e-005	-1.915925e-005
4.587561063820094e-006	4.635973e-005	4.636110e-005	4.640895e-005	4.639618e-005
4.587725397087574e-006	7.196639e-005	7.197275e-005	7.210077e-005	7.204460e-005
4.587820645414594e-006	3.732503e-005	3.733101e-005	3.742665e-005	3.737426e-005
4.587912663578083e-006	-2.296563e-005	-2.296312e-005	-2.295773e-005	-2.297920e-005
4.588014701693887e-006	-7.378509e-005	-7.378756e-005	-7.388068e-005	-7.385824e-005
4.588115261045748e-006	-7.846336e-005	-7.846931e-005	-7.860170e-005	-7.854894e-005
4.588224956377993e-006	-3.177363e-005	-3.177971e-005	-3.186692e-005	-3.181350e-005
4.588349583751735e-006	3.786953e-005	3.786740e-005	3.788853e-005	3.790675e-005
4.588495079171267e-006	8.028180e-005	8.028609e-005	8.041012e-005	8.037185e-005
4.588577872126701e-006	6.331798e-005	6.332466e-005	6.345120e-005	6.339214e-005
4.588661014722807e-006	1.382587e-005	1.383227e-005	1.390106e-005	1.384485e-005
4.588766209673864e-006	-4.591233e-005	-4.590938e-005	-4.593814e-005	-4.596355e-005
4.588909808686103e-006	-7.228580e-005	-7.228900e-005	-7.239977e-005	-7.237099e-005
4.589031702952268e-006	-3.299493e-005	-3.300094e-005	-3.308790e-005	-3.303474e-005
4.589165791459276e-006	3.951240e-005	3.950824e-005	3.952469e-005	3.956093e-005
4.589299800392133e-006	8.018308e-005	8.018439e-005	8.029602e-005	8.028363e-005
4.589381825860365e-006	6.553677e-005	6.554159e-005	6.566333e-005	6.562015e-005
4.589465550573942e-006	1.809184e-005	1.809837e-005	1.817318e-005	1.811541e-005
4.589572257773658e-006	-4.302641e-005	-4.302130e-005	-4.303753e-005	-4.308223e-005
4.589708510072598e-006	-7.369021e-005	-7.369035e-005	-7.378960e-005	-7.378773e-005
4.589824203402081e-006	-4.159005e-005	-4.159449e-005	-4.168521e-005	-4.164555e-005
4.589961724312105e-006	3.267183e-005	3.266614e-005	3.266774e-005	3.271814e-005
4.590089668896503e-006	7.809228e-005	7.808984e-005	7.818316e-005	7.820458e-005
4.590176860189100e-006	6.918675e-005	6.918827e-005	6.930271e-005	6.928916e-005
4.590260967420913e-006	2.622909e-005	2.623393e-005	2.631384e-005	2.627124e-005
4.590371417871131e-006	-3.859419e-005	-3.858808e-005	-3.859415e-005	-3.864788e-005
4.590492519267620e-006	-7.609306e-005	-7.608955e-005	-7.617614e-005	-7.620699e-005
4.590594496428494e-006	-5.823511e-005	-5.823586e-005	-5.833376e-005	-5.832704e-005
4.590712239421150e-006	3.632425e-006	3.627517e-006	3.588732e-006	3.632012e-006
4.590840606665285e-006	6.457490e-005	6.456922e-005	6.462181e-005	6.467183e-005
4.590948123306491e-006	7.453100e-005	7.452821e-005	7.462641e-005	7.465090e-005
4.591033771986263e-006	4.292486e-005	4.292592e-005	4.301056e-005	4.300118e-005
4.591133164519963e-006	-1.675605e-005	-1.675120e-005	-1.672923e-005	-1.677203e-005
4.591239885380627e-006	-6.650705e-005	-6.650093e-005	-6.655385e-005	-6.660771e-005
4.591344999178284e-006	-7.164612e-005	-7.164219e-005	-7.173093e-005	-7.176551e-005
4.591456714045459e-006	-2.779603e-005	-2.779662e-005	-2.785877e-005	-2.785351e-005
4.591585906757543e-006	3.741052e-005	3.740582e-005	3.741891e-005	3.746037e-005
4.591735748315107e-006	7.209124e-005	7.208613e-005	7.216834e-005	7.221336e-005
4.591823993456120e-006	5.092305e-005	5.092052e-005	5.099953e-005	5.102181e-005
4.591913934922287e-006	-3.710649e-007	-3.695732e-007	-3.382181e-007	-3.514079e-007
4.592022195600053e-006	-5.521683e-005	-5.521175e-005	-5.524983e-005	-5.529465e-005
4.592140236781483e-006	-7.048026e-005	-7.047472e-005	-7.055284e-005	-7.060169e-005
4.592254385037868e-006	-3.299929e-005	-3.299687e-005	-3.305259e-005	-3.307394e-005
4.592387973627495e-006	3.422849e-005	3.422579e-005	3.424204e-005	3.426586e-005
4.592527669276857e-006	7.323441e-005	7.322848e-005	7.330567e-005	7.335796e-005
4.592612978109555e-006	5.851048e-005	5.850521e-005	5.858078e-005	5.862710e-005
4.592700953534460e-006	1.198221e-005	1.198007e-005	1.201303e-005	1.203187e-005
4.592811635186454e-006	-4.275473e-005	-4.275247e-005	-4.278309e-005	-4.280302e-005
4.592964863616832e-006	-6.201508e-005	-6.200976e-005	-6.207894e-005	-6.212591e-005
4.593093389324921e-006	-2.028615e-005	-2.028258e-005	-2.031716e-005	-2.034862e-005
4.593231978386372e-006	4.305405e-005	4.305271e-005	4.308953e-005	4.310139e-005
4.593379453473852e-006	6.699000e-005	6.698443e-005	6.706060e-005	6.710969e-005
4.593469097895079e-006	4.049369e-005	4.048812e-005	4.054222e-005	4.059136e-005
4.593565421128539e-006	-1.366232e-005	-1.366503e-005	-1.366970e-005	-1.364585e-005
4.593675230007543e-006	-6.215456e-005	-6.215273e-005	-6.221717e-005	-6.223341e-005
4.593782345802943e-006	-6.703653e-005	-6.703144e-005	-6.710913e-005	-6.715398e-005
4.593896072261966e-006	-2.470374e-005	-2.469856e-005	-2.473272e-005	-2.477839e-005
4.594028102505475e-006	3.682031e-005	3.682183e-005	3.686015e-005	3.684686e-005
4.594182511134153e-006	6.585915e-005	6.585506e-005	6.593403e-005	6.597022e-005
4.594275450707725e-006	4.146160e-005	4.145575e-005	4.150913e-005	4.156073e-005
4.594371583900494e-006	-1.086481e-005	-1.086952e-005	-1.087863e-005	-1.083708e-005
4.594482882142167e-006	-5.985098e-005	-5.985182e-005	-5.992338e-005	-5.991609e-005
