time	V(N003,N006)	-I(Ls1)
0.000000000000000e+000	7.252781e+001	8.875348e+000
9.999999999940612e-009	7.253152e+001	8.790266e+000
3.000000000003868e-008	7.253825e+001	8.616405e+000
7.000000000001797e-008	7.254814e+001	8.250950e+000
1.499999999999765e-007	7.255547e+001	7.463846e+000
2.500000000000332e-007	7.254219e+001	6.390808e+000
3.500000000000898e-007	7.249963e+001	5.219167e+000
4.500000000001465e-007	7.242248e+001	3.953945e+000
5.500000000002031e-007	7.230362e+001	2.607549e+000
6.500000000002598e-007	7.212857e+001	1.198440e+000
7.111091308441460e-007	2.879285e+001	3.527869e-001
7.516944679490829e-007	-7.174468e+001	-1.487013e-001
7.517679161423568e-007	-7.187464e+001	-1.494136e-001
7.519148125291215e-007	-7.187473e+001	-1.505909e-001
7.522086053026508e-007	-7.187492e+001	-1.529441e-001
7.527961908497093e-007	-7.187547e+001	-1.576505e-001
7.534985570652446e-007	-7.187607e+001	-1.632783e-001
7.547277608521783e-007	-7.187699e+001	-1.731316e-001
7.559502477156536e-007	-7.187775e+001	-1.829375e-001
7.578313086077735e-007	-7.187863e+001	-1.980374e-001
7.597852376192010e-007	-7.187926e+001	-2.137357e-001
7.617779859509996e-007	-7.187961e+001	-2.297626e-001
7.644684918276835e-007	-7.187964e+001	-2.514314e-001
7.694336898319502e-007	-7.187886e+001	-2.914896e-001
7.741766395010299e-007	-7.187735e+001	-3.298358e-001
7.795254309136360e-007	-7.187483e+001	-3.731872e-001
7.853564341334021e-007	-7.187138e+001	-4.205689e-001
7.915092793480631e-007	-7.186711e+001	-4.707060e-001
7.984575061809312e-007	-7.186167e+001	-5.274980e-001
8.064409171841709e-007	-7.185483e+001	-5.929750e-001
8.160195646975729e-007	-7.184598e+001	-6.718544e-001
8.285849568375522e-007	-7.183363e+001	-7.758523e-001
8.459612580217178e-007	-7.181568e+001	-9.206232e-001
8.714474801399096e-007	-7.178846e+001	-1.134812e+000
9.063695463600464e-007	-7.175084e+001	-1.431630e+000
9.573483302728267e-007	-7.169763e+001	-1.871311e+000
1.043361956006234e-006	-7.161538e+001	-2.624828e+000
1.143361956006291e-006	-7.153367e+001	-3.511842e+000
1.243361956006347e-006	-7.147004e+001	-4.403385e+000
1.343361956006404e-006	-7.142212e+001	-5.293224e+000
1.355861956006330e-006	-7.141768e+001	-5.403719e+000
1.380861956006398e-006	-7.141120e+001	-5.622886e+000
1.430861956006318e-006	-7.140289e+001	-6.055321e+000
1.530861956006374e-006	-7.140007e+001	-6.898422e+000
1.630861956006431e-006	-7.141431e+001	-7.706583e+000
1.730861956006488e-006	-7.144719e+001	-8.465303e+000
1.830861956006544e-006	-7.149743e+001	-9.163138e+000
1.930861956006601e-006	-7.156338e+001	-9.788929e+000
2.030861956006658e-006	-7.164314e+001	-1.033198e+001
2.130861956006714e-006	-7.173452e+001	-1.078221e+001
2.230861956006771e-006	-7.183508e+001	-1.113036e+001
2.330861956006828e-006	-7.194215e+001	-1.136810e+001
2.430861956006884e-006	-7.205287e+001	-1.148822e+001
2.530861956006941e-006	-7.216422e+001	-1.148474e+001
2.630861956006998e-006	-7.227301e+001	-1.135308e+001
2.730861956007054e-006	-7.237598e+001	-1.109013e+001
2.830861956007111e-006	-7.247254e+001	-1.072299e+001
2.868361956007105e-006	-7.250492e+001	-1.053958e+001
2.918361956007025e-006	-7.254552e+001	-1.026950e+001
2.925592217858713e-006	-7.255112e+001	-1.022808e+001
2.940052741562090e-006	-7.256177e+001	-1.014047e+001
2.968973788968626e-006	-7.258176e+001	-9.955235e+000
3.026815883781699e-006	-7.261631e+001	-9.547330e+000
3.126815883781756e-006	-7.266134e+001	-8.751886e+000
3.226815883781813e-006	-7.268586e+001	-7.847761e+000
3.326815883781869e-006	-7.268468e+001	-6.828287e+000
3.426815883781926e-006	-7.265448e+001	-5.702070e+000
3.526815883781983e-006	-7.259162e+001	-4.479321e+000
3.626815883782039e-006	-7.249122e+001	-3.171767e+000
3.726815883782096e-006	-7.233695e+001	-1.792569e+000
3.826815883782152e-006	-2.527687e+001	-4.210821e-001
3.880515706502618e-006	7.187936e+001	2.392873e-001
3.880616410505480e-006	7.201418e+001	2.402546e-001
3.880817818510988e-006	7.201392e+001	2.418512e-001
3.881220634522221e-006	7.201370e+001	2.450436e-001
3.882026266544469e-006	7.201365e+001	2.514301e-001
3.883367099246715e-006	7.201351e+001	2.620642e-001
3.884706496550070e-006	7.201330e+001	2.726937e-001
3.886659172762418e-006	7.201285e+001	2.882025e-001
3.888643630676819e-006	7.201227e+001	3.039777e-001
3.891126358371473e-006	7.201132e+001	3.237395e-001
3.895761933106956e-006	7.200909e+001	3.607002e-001
3.901450813733514e-006	7.200578e+001	4.061556e-001
3.907183183419214e-006	7.200186e+001	4.520799e-001
3.914532015755930e-006	7.199617e+001	5.111274e-001
3.922054549722115e-006	7.198977e+001	5.717677e-001
3.931124830909918e-006	7.198145e+001	6.451542e-001
3.941389719690908e-006	7.197147e+001	7.285491e-001
3.953741079570005e-006	7.195887e+001	8.293759e-001
3.968868830740669e-006	7.194290e+001	9.535619e-001
3.988157377141392e-006	7.192204e+001	1.112978e+000
4.013461781296555e-006	7.189441e+001	1.323857e+000
4.048413862830710e-006	7.185664e+001	1.618131e+000
4.097918206897666e-006	7.180537e+001	2.040141e+000
4.173754748210004e-006	7.173380e+001	2.695187e+000
4.273754748210061e-006	7.165322e+001	3.567728e+000
4.373754748210118e-006	7.159021e+001	4.442852e+000
4.473754748210174e-006	7.154691e+001	5.311303e+000
4.573754748210231e-006	7.152363e+001	6.162362e+000
4.673754748210288e-006	7.152011e+001	6.985001e+000
4.773754748210344e-006	7.153565e+001	7.768026e+000
4.873754748210401e-006	7.156924e+001	8.500233e+000
4.973754748210458e-006	7.161952e+001	9.170559e+000
5.073754748210514e-006	7.168485e+001	9.768251e+000
5.173754748210571e-006	7.176330e+001	1.028302e+001
5.273754748210627e-006	7.185268e+001	1.070522e+001
5.373754748210684e-006	7.195057e+001	1.102597e+001
5.473754748210741e-006	7.205430e+001	1.123737e+001
5.573754748210797e-006	7.216106e+001	1.133259e+001
5.673754748210854e-006	7.226785e+001	1.130602e+001
5.773754748210911e-006	7.237155e+001	1.115342e+001
5.873754748210967e-006	7.246895e+001	1.087197e+001
5.973754748211024e-006	7.255958e+001	1.048844e+001
5.986254748210950e-006	7.257008e+001	1.043063e+001
6.011254748211018e-006	7.258961e+001	1.029986e+001
6.061254748210938e-006	7.262698e+001	1.002318e+001
6.069979502596476e-006	7.263315e+001	9.971967e+000
6.087429011367553e-006	7.264473e+001	9.863376e+000
6.122328028909706e-006	7.266592e+001	9.632017e+000
6.192126063994229e-006	7.270085e+001	9.120897e+000
6.292126063994286e-006	7.273475e+001	8.295938e+000
6.392126063994343e-006	7.274680e+001	7.362943e+000
6.492126063994399e-006	7.273233e+001	6.319818e+000
6.592126063994456e-006	7.268801e+001	5.175519e+000
6.692126063994512e-006	7.260996e+001	3.940547e+000
6.792126063994569e-006	7.249151e+001	2.626851e+000
6.892126063994626e-006	7.231822e+001	1.251667e+000
6.958048296505951e-006	2.830754e+001	3.613572e-001
7.000430594011897e-006	-7.192032e+001	-1.479803e-001
7.000507698478155e-006	-7.205129e+001	-1.487006e-001
7.000661907410888e-006	-7.205134e+001	-1.498808e-001
7.000970325276353e-006	-7.205149e+001	-1.522399e-001
7.001587161007284e-006	-7.205201e+001	-1.569583e-001
7.002347253078599e-006	-7.205257e+001	-1.627747e-001
7.003608361018246e-006	-7.205339e+001	-1.724291e-001
7.004840549172924e-006	-7.205403e+001	-1.818683e-001
7.006477784386430e-006	-7.205468e+001	-1.944192e-001
7.008186822626567e-006	-7.205514e+001	-2.075305e-001
7.009970739625063e-006	-7.205541e+001	-2.212287e-001
7.012143607426765e-006	-7.205545e+001	-2.379316e-001
7.015485536042768e-006	-7.205507e+001	-2.636541e-001
7.018755522739117e-006	-7.205429e+001	-2.888598e-001
7.022139574046305e-006	-7.205308e+001	-3.149877e-001
7.025873746170381e-006	-7.205136e+001	-3.438684e-001
7.029957436813835e-006	-7.204908e+001	-3.755143e-001
7.035338067958247e-006	-7.204554e+001	-4.173187e-001
7.044359215827977e-006	-7.203865e+001	-4.876502e-001
7.055934188617257e-006	-7.202863e+001	-5.783094e-001
7.071000775384084e-006	-7.201421e+001	-6.970088e-001
7.088855881915617e-006	-7.199587e+001	-8.386575e-001
7.110320653820178e-006	-7.197281e+001	-1.010322e+000
7.136402006737395e-006	-7.194417e+001	-1.220806e+000
7.167151808071086e-006	-7.191036e+001	-1.471489e+000
7.205487423020060e-006	-7.186905e+001	-1.787469e+000
7.251832117724337e-006	-7.182135e+001	-2.173921e+000
7.311362407785502e-006	-7.176476e+001	-2.676041e+000
7.386633508799307e-006	-7.170210e+001	-3.316940e+000
7.486633508799363e-006	-7.163414e+001	-4.172000e+000
7.586633508799420e-006	-7.157993e+001	-5.026192e+000
7.599133508799346e-006	-7.157462e+001	-5.132409e+000
7.624133508799414e-006	-7.156631e+001	-5.343338e+000
7.674133508799334e-006	-7.155353e+001	-5.761076e+000
7.746576707342570e-006	-7.154371e+001	-6.354249e+000
7.846576707342626e-006	-7.154546e+001	-7.145596e+000
7.946576707342683e-006	-7.156423e+001	-7.896873e+000
8.046576707342740e-006	-7.160026e+001	-8.595232e+000
8.146576707342796e-006	-7.165215e+001	-9.229849e+000
8.246576707342853e-006	-7.171820e+001	-9.790227e+000
8.346576707342910e-006	-7.179643e+001	-1.026636e+001
8.446576707342966e-006	-7.188463e+001	-1.064891e+001
8.546576707343023e-006	-7.198033e+001	-1.092933e+001
8.646576707343080e-006	-7.208089e+001	-1.110005e+001
8.746576707343136e-006	-7.218346e+001	-1.115460e+001
8.846576707343193e-006	-7.228505e+001	-1.108775e+001
8.946576707343249e-006	-7.238256e+001	-1.089563e+001
9.046576707343306e-006	-7.247279e+001	-1.057582e+001
9.146576707343363e-006	-7.255551e+001	-1.015504e+001
9.159076707343289e-006	-7.256495e+001	-1.009271e+001
9.184076707343357e-006	-7.258267e+001	-9.956501e+000
9.190326707343320e-006	-7.258697e+001	-9.921364e+000
9.202826707343246e-006	-7.259525e+001	-9.848397e+000
9.227826707343314e-006	-7.261135e+001	-9.698666e+000
9.233010607864181e-006	-7.261456e+001	-9.666717e+000
9.243378408905698e-006	-7.262075e+001	-9.600835e+000
9.264114010988948e-006	-7.263242e+001	-9.464119e+000
9.305585215155449e-006	-7.265273e+001	-9.170682e+000
9.388527623488451e-006	-7.268296e+001	-8.522011e+000
9.488527623488507e-006	-7.270114e+001	-7.644447e+000
9.588527623488564e-006	-7.269534e+001	-6.659407e+000
9.688527623488621e-006	-7.266145e+001	-5.569786e+000
9.788527623488677e-006	-7.259586e+001	-4.385239e+000
9.888527623488734e-006	-7.249381e+001	-3.116916e+000
9.988527623488791e-006	-7.233985e+001	-1.777384e+000
1.008852762348885e-005	-2.526126e+001	-4.454644e-001
1.014215685853624e-005	7.187035e+001	1.929645e-001
1.014225745744630e-005	7.200519e+001	1.938915e-001
1.014245865526620e-005	7.200503e+001	1.954080e-001
1.014286105090623e-005	7.200513e+001	1.984404e-001
1.014366584218608e-005	7.200529e+001	2.045069e-001
1.014500483406677e-005	7.200549e+001	2.146049e-001
1.014627141365690e-005	7.200559e+001	2.241632e-001
1.014805874076808e-005	7.200557e+001	2.376622e-001
1.014988297527459e-005	7.200539e+001	2.514521e-001
1.015215741360931e-005	7.200492e+001	2.686680e-001
1.015670629027875e-005	7.200345e+001	3.031550e-001
1.016090272526514e-005	7.200161e+001	3.350328e-001
1.016572896660466e-005	7.199893e+001	3.717810e-001
1.017121640158308e-005	7.199535e+001	4.136670e-001
1.017695598478459e-005	7.199111e+001	4.576002e-001
1.018404153639140e-005	7.198531e+001	5.120080e-001
1.019233555012134e-005	7.197792e+001	5.759354e-001
1.020344071257068e-005	7.196727e+001	6.619453e-001
1.021930992116198e-005	7.195106e+001	7.856774e-001
1.024469251560863e-005	7.192384e+001	9.856536e-001
1.029288445563554e-005	7.187161e+001	1.371769e+000
1.038926833568936e-005	7.177167e+001	2.159851e+000
1.048926833568942e-005	7.167889e+001	2.993257e+000
1.058926833568947e-005	7.160231e+001	3.837424e+000
1.068926833568953e-005	7.154027e+001	4.684957e+000
1.070176833568946e-005	7.153399e+001	4.790699e+000
1.072676833568952e-005	7.152372e+001	5.001241e+000
1.077676833568944e-005	7.150764e+001	5.418309e+000
1.087676833568950e-005	7.148876e+001	6.236562e+000
1.097676833568956e-005	7.148647e+001	7.027725e+000
1.107676833568961e-005	7.150253e+001	7.778817e+000
1.117676833568967e-005	7.153586e+001	8.478754e+000
1.127676833568973e-005	7.158511e+001	9.116596e+000
1.137676833568978e-005	7.164862e+001	9.681700e+000
1.147676833568984e-005	7.172445e+001	1.016389e+001
1.157676833568990e-005	7.181041e+001	1.055364e+001
1.167676833568995e-005	7.190407e+001	1.084218e+001
1.177676833569001e-005	7.200280e+001	1.102174e+001
1.187676833569007e-005	7.210378e+001	1.108562e+001
1.197676833569012e-005	7.220401e+001	1.102834e+001
1.207676833569018e-005	7.230039e+001	1.084583e+001
1.217676833569024e-005	7.238974e+001	1.053543e+001
1.227676833569029e-005	7.247176e+001	1.012378e+001
1.228926833569022e-005	7.248113e+001	1.006256e+001
1.231426833569029e-005	7.249832e+001	9.925099e+000
1.236426833569021e-005	7.253095e+001	9.635484e+000
1.237162541871720e-005	7.253547e+001	9.590529e+000
1.238633958477119e-005	7.254387e+001	9.495911e+000
1.241576791687917e-005	7.255927e+001	9.296694e+000
1.247462458109513e-005	7.258421e+001	8.861338e+000
1.257462458109518e-005	7.261118e+001	8.034734e+000
1.267462458109524e-005	7.261683e+001	7.104114e+000
1.277462458109530e-005	7.259596e+001	6.063984e+000
1.287462458109535e-005	7.254515e+001	4.923240e+000
1.297462458109541e-005	7.246033e+001	3.692342e+000
1.307462458109547e-005	7.233366e+001	2.383230e+000
1.317462458109552e-005	7.214092e+001	1.013589e+000
1.323670959943392e-005	2.864111e+001	1.797059e-001
1.327763534728185e-005	-7.180725e+001	-3.089403e-001
1.327770950680109e-005	-7.193735e+001	-3.096281e-001
1.327785782583957e-005	-7.193719e+001	-3.107536e-001
1.327815446391652e-005	-7.193695e+001	-3.130034e-001
1.327874774007041e-005	-7.193669e+001	-3.175028e-001
1.327946084078127e-005	-7.193637e+001	-3.229131e-001
1.328069510925537e-005	-7.193578e+001	-3.322815e-001
1.328191300385695e-005	-7.193516e+001	-3.415319e-001
1.328373637862518e-005	-7.193417e+001	-3.553917e-001
1.328562289085091e-005	-7.193308e+001	-3.697436e-001
1.328755788931185e-005	-7.193188e+001	-3.844798e-001
1.329012461000331e-005	-7.193017e+001	-4.040524e-001
1.329440156070945e-005	-7.192711e+001	-4.367190e-001
1.329862774993138e-005	-7.192387e+001	-4.690598e-001
1.330320049035033e-005	-7.192012e+001	-5.041293e-001
1.330820105940704e-005	-7.191580e+001	-5.425680e-001
1.331349604833851e-005	-7.191100e+001	-5.833713e-001
1.331959177969656e-005	-7.190523e+001	-6.304761e-001
1.332696360134252e-005	-7.189797e+001	-6.876292e-001
1.333667862229776e-005	-7.188804e+001	-7.632739e-001
1.335170028851900e-005	-7.187214e+001	-8.809078e-001
1.337178332609114e-005	-7.185031e+001	-1.039415e+000
1.340197421697024e-005	-7.181707e+001	-1.280242e+000
1.344551880042922e-005	-7.176984e+001	-1.632557e+000
1.351567803752388e-005	-7.169822e+001	-2.210107e+000
1.361567803752394e-005	-7.160755e+001	-3.046902e+000
1.371567803752400e-005	-7.153266e+001	-3.892936e+000
1.381567803752405e-005	-7.147220e+001	-4.742270e+000
1.382817803752398e-005	-7.146610e+001	-4.848226e+000
1.385317803752405e-005	-7.145622e+001	-5.059167e+000
1.390317803752397e-005	-7.144091e+001	-5.476962e+000
1.400317803752402e-005	-7.142362e+001	-6.296407e+000
1.410317803752408e-005	-7.142296e+001	-7.088361e+000
1.420317803752414e-005	-7.144064e+001	-7.839695e+000
1.430317803752419e-005	-7.147561e+001	-8.539225e+000
1.440317803752425e-005	-7.152647e+001	-9.175911e+000
1.450317803752431e-005	-7.159155e+001	-9.739031e+000
1.460317803752436e-005	-7.166889e+001	-1.021834e+001
1.470317803752442e-005	-7.175628e+001	-1.060424e+001
1.480317803752448e-005	-7.185125e+001	-1.088795e+001
1.490317803752453e-005	-7.195115e+001	-1.106165e+001
1.500317803752459e-005	-7.205313e+001	-1.111865e+001
1.510317803752465e-005	-7.215418e+001	-1.105350e+001
1.520317803752470e-005	-7.225117e+001	-1.086215e+001
1.530317803752476e-005	-7.234089e+001	-1.054202e+001
1.540317803752482e-005	-7.242307e+001	-1.011998e+001
1.544067803752481e-005	-7.245001e+001	-9.920550e+000
1.546255303752479e-005	-7.246463e+001	-9.794374e+000
1.546880303752475e-005	-7.246863e+001	-9.756910e+000
1.548130303752468e-005	-7.247645e+001	-9.680402e+000
1.549984615571384e-005	-7.248759e+001	-9.563526e+000
1.551949046109868e-005	-7.249863e+001	-9.434082e+000
1.555877907186837e-005	-7.251914e+001	-9.164076e+000
1.556860122456090e-005	-7.252384e+001	-9.093739e+000
1.558824552994574e-005	-7.253224e+001	-8.946556e+000
1.562753414071543e-005	-7.254603e+001	-8.634879e+000
1.570611136225480e-005	-7.256306e+001	-7.955822e+000
1.580611136225486e-005	-7.256505e+001	-7.000303e+000
1.590611136225491e-005	-7.254118e+001	-5.941952e+000
1.600611136225497e-005	-7.248677e+001	-4.783516e+000
1.610611136225503e-005	-7.239755e+001	-3.535717e+000
1.620611136225508e-005	-7.226433e+001	-2.210757e+000
1.630611136225514e-005	-7.204338e+001	-8.272333e-001
1.636163558023504e-005	-2.952728e+001	-7.612429e-002
1.640030413490169e-005	7.176464e+001	3.887702e-001
1.640037353596927e-005	7.189328e+001	3.894206e-001
1.640051233810442e-005	7.189296e+001	3.904874e-001
1.640078994237472e-005	7.189269e+001	3.926197e-001
1.640134515091510e-005	7.189232e+001	3.968838e-001
1.640199073249375e-005	7.189189e+001	4.018439e-001
1.640320024641180e-005	7.189107e+001	4.111402e-001
1.640431071382145e-005	7.189030e+001	4.196806e-001
1.640605088152670e-005	7.188905e+001	4.330735e-001
1.640777288913265e-005	7.188778e+001	4.463367e-001
1.640960435176763e-005	7.188638e+001	4.604579e-001
1.641275815429904e-005	7.188387e+001	4.848042e-001
1.641614916792823e-005	7.188106e+001	5.110189e-001
1.641956471200930e-005	7.187812e+001	5.374672e-001
1.642344359202097e-005	7.187467e+001	5.675561e-001
1.642750795505677e-005	7.187093e+001	5.991448e-001
1.643255990007642e-005	7.186611e+001	6.385007e-001
1.643959161816834e-005	7.185918e+001	6.934490e-001
1.645037145532775e-005	7.184816e+001	7.780454e-001
1.646539050392738e-005	7.183229e+001	8.965774e-001
1.648435864288925e-005	7.181171e+001	1.047362e+000
1.650854860237158e-005	7.178510e+001	1.241345e+000
1.653849454468621e-005	7.175224e+001	1.483958e+000
1.657664192618118e-005	7.171129e+001	1.796631e+000
1.662451025515651e-005	7.166236e+001	2.194057e+000
1.668971331862147e-005	7.160153e+001	2.742630e+000
1.678006365562470e-005	7.152888e+001	3.511023e+000
1.688006365562476e-005	7.146489e+001	4.365414e+000
1.698006365562482e-005	7.141546e+001	5.218723e+000
1.699256365562474e-005	7.141077e+001	5.324760e+000
1.701756365562481e-005	7.140370e+001	5.535205e+000
1.706756365562473e-005	7.139346e+001	5.951596e+000
1.714362293913350e-005	7.138713e+001	6.571415e+000
1.724362293913356e-005	7.139421e+001	7.357101e+000
1.734362293913361e-005	7.141835e+001	8.100456e+000
1.744362293913367e-005	7.145954e+001	8.788564e+000
1.754362293913373e-005	7.151630e+001	9.410411e+000
1.764362293913378e-005	7.158687e+001	9.955347e+000
1.774362293913384e-005	7.166920e+001	1.041326e+001
1.784362293913390e-005	7.176099e+001	1.077472e+001
1.794362293913395e-005	7.185972e+001	1.103118e+001
1.804362293913401e-005	7.196266e+001	1.117510e+001
1.814362293913407e-005	7.206689e+001	1.120010e+001
1.824362293913412e-005	7.216936e+001	1.110109e+001
1.834362293913418e-005	7.226690e+001	1.087441e+001
1.844362293913424e-005	7.235625e+001	1.051792e+001
1.854362293913429e-005	7.243733e+001	1.005894e+001
1.855612293913422e-005	7.244649e+001	9.991714e+000
1.858112293913429e-005	7.246356e+001	9.845558e+000
1.858737293913425e-005	7.246769e+001	9.807925e+000
1.859987293913418e-005	7.247561e+001	9.729938e+000
1.862487293913424e-005	7.249045e+001	9.566632e+000
1.867487293913416e-005	7.251569e+001	9.210481e+000
1.877487293913422e-005	7.255195e+001	8.413329e+000
1.887487293913428e-005	7.256810e+001	7.511892e+000
1.897487293913433e-005	7.255857e+001	6.497134e+000
1.907487293913439e-005	7.252001e+001	5.377508e+000
1.917487293913445e-005	7.244864e+001	4.163067e+000
1.927487293913450e-005	7.233858e+001	2.865389e+000
1.937487293913456e-005	7.215773e+001	1.497526e+000
