Freq.	V(N012,N016)
1.00000000000000e+005	(-2.53398995571394e+001dB,-1.60447806829965e+002°)
1.00100100100100e+005	(-2.52700154779730e+001dB,-1.60583736077430e+002°)
1.00200200200200e+005	(-2.52001132841444e+001dB,-1.60720099425708e+002°)
1.00300300300300e+005	(-2.51301927598539e+001dB,-1.60856899693009e+002°)
1.00400400400400e+005	(-2.50602536900346e+001dB,-1.60994139720230e+002°)
1.00500500500500e+005	(-2.49902958603720e+001dB,-1.61131822371155e+002°)
1.00600600600601e+005	(-2.49203190573230e+001dB,-1.61269950532664e+002°)
1.00700700700701e+005	(-2.48503230681364e+001dB,-1.61408527114943e+002°)
1.00800800800801e+005	(-2.47803076808727e+001dB,-1.61547555051691e+002°)
1.00900900900901e+005	(-2.47102726844256e+001dB,-1.61687037300338e+002°)
1.01001001001001e+005	(-2.46402178685428e+001dB,-1.61826976842253e+002°)
1.01101101101101e+005	(-2.45701430238483e+001dB,-1.61967376682966e+002°)
1.01201201201201e+005	(-2.45000479418643e+001dB,-1.62108239852382e+002°)
1.01301301301301e+005	(-2.44299324150342e+001dB,-1.62249569404999e+002°)
1.01401401401401e+005	(-2.43597962367459e+001dB,-1.62391368420136e+002°)
1.01501501501501e+005	(-2.42896392013556e+001dB,-1.62533640002151e+002°)
1.01601601601602e+005	(-2.42194611042120e+001dB,-1.62676387280665e+002°)
1.01701701701702e+005	(-2.41492617416813e+001dB,-1.62819613410795e+002°)
1.01801801801802e+005	(-2.40790409111727e+001dB,-1.62963321573376e+002°)
1.01901901901902e+005	(-2.40087984111641e+001dB,-1.63107514975196e+002°)
1.02002002002002e+005	(-2.39385340412290e+001dB,-1.63252196849226e+002°)
1.02102102102102e+005	(-2.38682476020631e+001dB,-1.63397370454857e+002°)
1.02202202202202e+005	(-2.37979388955126e+001dB,-1.63543039078132e+002°)
1.02302302302302e+005	(-2.37276077246018e+001dB,-1.63689206031987e+002°)
1.02402402402402e+005	(-2.36572538935627e+001dB,-1.63835874656488e+002°)
1.02502502502502e+005	(-2.35868772078639e+001dB,-1.63983048319077e+002°)
1.02602602602603e+005	(-2.35164774742411e+001dB,-1.64130730414810e+002°)
1.02702702702703e+005	(-2.34460545007279e+001dB,-1.64278924366606e+002°)
1.02802802802803e+005	(-2.33756080966869e+001dB,-1.64427633625490e+002°)
1.02902902902903e+005	(-2.33051380728423e+001dB,-1.64576861670848e+002°)
1.03003003003003e+005	(-2.32346442413122e+001dB,-1.64726612010669e+002°)
1.03103103103103e+005	(-2.31641264156424e+001dB,-1.64876888181806e+002°)
1.03203203203203e+005	(-2.30935844108406e+001dB,-1.65027693750223e+002°)
1.03303303303303e+005	(-2.30230180434111e+001dB,-1.65179032311256e+002°)
1.03403403403403e+005	(-2.29524271313905e+001dB,-1.65330907489869e+002°)
1.03503503503503e+005	(-2.28818114943841e+001dB,-1.65483322940909e+002°)
1.03603603603604e+005	(-2.28111709536033e+001dB,-1.65636282349375e+002°)
1.03703703703704e+005	(-2.27405053319030e+001dB,-1.65789789430675e+002°)
1.03803803803804e+005	(-2.26698144538208e+001dB,-1.65943847930893e+002°)
1.03903903903904e+005	(-2.25990981456162e+001dB,-1.66098461627054e+002°)
1.04004004004004e+005	(-2.25283562353111e+001dB,-1.66253634327392e+002°)
1.04104104104104e+005	(-2.24575885527308e+001dB,-1.66409369871622e+002°)
1.04204204204204e+005	(-2.23867949295462e+001dB,-1.66565672131206e+002°)
1.04304304304304e+005	(-2.23159751993167e+001dB,-1.66722545009632e+002°)
1.04404404404404e+005	(-2.22451291975335e+001dB,-1.66879992442684e+002°)
1.04504504504504e+005	(-2.21742567616650e+001dB,-1.67038018398720e+002°)
1.04604604604605e+005	(-2.21033577312017e+001dB,-1.67196626878948e+002°)
1.04704704704705e+005	(-2.20324319477031e+001dB,-1.67355821917708e+002°)
1.04804804804805e+005	(-2.19614792548451e+001dB,-1.67515607582749e+002°)
1.04904904904905e+005	(-2.18904994984682e+001dB,-1.67675987975512e+002°)
1.05005005005005e+005	(-2.18194925266271e+001dB,-1.67836967231415e+002°)
1.05105105105105e+005	(-2.17484581896411e+001dB,-1.67998549520137e+002°)
1.05205205205205e+005	(-2.16773963401452e+001dB,-1.68160739045904e+002°)
1.05305305305305e+005	(-2.16063068331432e+001dB,-1.68323540047775e+002°)
1.05405405405405e+005	(-2.15351895260605e+001dB,-1.68486956799934e+002°)
1.05505505505505e+005	(-2.14640442787992e+001dB,-1.68650993611976e+002°)
1.05605605605606e+005	(-2.13928709537934e+001dB,-1.68815654829204e+002°)
1.05705705705706e+005	(-2.13216694160665e+001dB,-1.68980944832914e+002°)
1.05805805805806e+005	(-2.12504395332884e+001dB,-1.69146868040694e+002°)
1.05905905905906e+005	(-2.11791811758354e+001dB,-1.69313428906716e+002°)
1.06006006006006e+005	(-2.11078942168499e+001dB,-1.69480631922033e+002°)
1.06106106106106e+005	(-2.10365785323020e+001dB,-1.69648481614874e+002°)
1.06206206206206e+005	(-2.09652340010523e+001dB,-1.69816982550941e+002°)
1.06306306306306e+005	(-2.08938605049158e+001dB,-1.69986139333709e+002°)
1.06406406406406e+005	(-2.08224579287268e+001dB,-1.70155956604723e+002°)
1.06506506506506e+005	(-2.07510261604059e+001dB,-1.70326439043898e+002°)
1.06606606606607e+005	(-2.06795650910272e+001dB,-1.70497591369821e+002°)
1.06706706706707e+005	(-2.06080746148879e+001dB,-1.70669418340047e+002°)
1.06806806806807e+005	(-2.05365546295784e+001dB,-1.70841924751406e+002°)
1.06906906906907e+005	(-2.04650050360542e+001dB,-1.71015115440299e+002°)
1.07007007007007e+005	(-2.03934257387096e+001dB,-1.71188995283005e+002°)
1.07107107107107e+005	(-2.03218166454515e+001dB,-1.71363569195977e+002°)
1.07207207207207e+005	(-2.02501776677763e+001dB,-1.71538842136152e+002°)
1.07307307307307e+005	(-2.01785087208471e+001dB,-1.71714819101243e+002°)
1.07407407407407e+005	(-2.01068097235730e+001dB,-1.71891505130052e+002°)
1.07507507507507e+005	(-2.00350805986894e+001dB,-1.72068905302762e+002°)
1.07607607607608e+005	(-1.99633212728404e+001dB,-1.72247024741246e+002°)
1.07707707707708e+005	(-1.98915316766627e+001dB,-1.72425868609365e+002°)
1.07807807807808e+005	(-1.98197117448708e+001dB,-1.72605442113266e+002°)
1.07907907907908e+005	(-1.97478614163436e+001dB,-1.72785750501688e+002°)
1.08008008008008e+005	(-1.96759806342138e+001dB,-1.72966799066257e+002°)
1.08108108108108e+005	(-1.96040693459576e+001dB,-1.73148593141787e+002°)
1.08208208208208e+005	(-1.95321275034872e+001dB,-1.73331138106572e+002°)
1.08308308308308e+005	(-1.94601550632442e+001dB,-1.73514439382691e+002°)
1.08408408408408e+005	(-1.93881519862955e+001dB,-1.73698502436296e+002°)
1.08508508508508e+005	(-1.93161182384304e+001dB,-1.73883332777905e+002°)
1.08608608608608e+005	(-1.92440537902599e+001dB,-1.74068935962700e+002°)
1.08708708708709e+005	(-1.91719586173180e+001dB,-1.74255317590813e+002°)
1.08808808808809e+005	(-1.90998327001641e+001dB,-1.74442483307610e+002°)
1.08908908908909e+005	(-1.90276760244884e+001dB,-1.74630438803988e+002°)
1.09009009009009e+005	(-1.89554885812183e+001dB,-1.74819189816647e+002°)
1.09109109109109e+005	(-1.88832703666277e+001dB,-1.75008742128379e+002°)
1.09209209209209e+005	(-1.88110213824471e+001dB,-1.75199101568343e+002°)
1.09309309309309e+005	(-1.87387416359772e+001dB,-1.75390274012342e+002°)
1.09409409409409e+005	(-1.86664311402032e+001dB,-1.75582265383094e+002°)
1.09509509509509e+005	(-1.85940899139122e+001dB,-1.75775081650504e+002°)
1.09609609609609e+005	(-1.85217179818124e+001dB,-1.75968728831929e+002°)
1.09709709709710e+005	(-1.84493153746540e+001dB,-1.76163212992437e+002°)
1.09809809809810e+005	(-1.83768821293532e+001dB,-1.76358540245069e+002°)
1.09909909909910e+005	(-1.83044182891179e+001dB,-1.76554716751092e+002°)
1.10010010010010e+005	(-1.82319239035754e+001dB,-1.76751748720246e+002°)
1.10110110110110e+005	(-1.81593990289033e+001dB,-1.76949642410992e+002°)
1.10210210210210e+005	(-1.80868437279615e+001dB,-1.77148404130750e+002°)
1.10310310310310e+005	(-1.80142580704279e+001dB,-1.77348040236134e+002°)
1.10410410410410e+005	(-1.79416421329353e+001dB,-1.77548557133178e+002°)
1.10510510510510e+005	(-1.78689959992117e+001dB,-1.77749961277565e+002°)
1.10610610610610e+005	(-1.77963197602222e+001dB,-1.77952259174838e+002°)
1.10710710710711e+005	(-1.77236135143143e+001dB,-1.78155457380613e+002°)
1.10810810810811e+005	(-1.76508773673650e+001dB,-1.78359562500782e+002°)
1.10910910910911e+005	(-1.75781114329305e+001dB,-1.78564581191711e+002°)
1.11011011011011e+005	(-1.75053158323994e+001dB,-1.78770520160426e+002°)
1.11111111111111e+005	(-1.74324906951471e+001dB,-1.78977386164796e+002°)
1.11211211211211e+005	(-1.73596361586942e+001dB,-1.79185186013706e+002°)
1.11311311311311e+005	(-1.72867523688667e+001dB,-1.79393926567219e+002°)
1.11411411411411e+005	(-1.72138394799596e+001dB,-1.79603614736735e+002°)
1.11511511511511e+005	(-1.71408976549024e+001dB,-1.79814257485136e+002°)
1.11611611611611e+005	(-1.70679270654284e+001dB,1.79974138173084e+002°)
1.11711711711712e+005	(-1.69949278922461e+001dB,1.79761565171682e+002°)
1.11811811811812e+005	(-1.69219003252139e+001dB,1.79548016392560e+002°)
1.11911911911912e+005	(-1.68488445635172e+001dB,1.79333484665657e+002°)
1.12012012012012e+005	(-1.67757608158491e+001dB,1.79117962768858e+002°)
1.12112112112112e+005	(-1.67026493005933e+001dB,1.78901443427911e+002°)
1.12212212212212e+005	(-1.66295102460107e+001dB,1.78683919316362e+002°)
1.12312312312312e+005	(-1.65563438904286e+001dB,1.78465383055497e+002°)
1.12412412412412e+005	(-1.64831504824327e+001dB,1.78245827214305e+002°)
1.12512512512512e+005	(-1.64099302810631e+001dB,1.78025244309447e+002°)
1.12612612612612e+005	(-1.63366835560122e+001dB,1.77803626805245e+002°)
1.12712712712713e+005	(-1.62634105878266e+001dB,1.77580967113683e+002°)
1.12812812812813e+005	(-1.61901116681121e+001dB,1.77357257594430e+002°)
1.12912912912913e+005	(-1.61167870997411e+001dB,1.77132490554870e+002°)
1.13013013013013e+005	(-1.60434371970642e+001dB,1.76906658250157e+002°)
1.13113113113113e+005	(-1.59700622861245e+001dB,1.76679752883284e+002°)
1.13213213213213e+005	(-1.58966627048752e+001dB,1.76451766605169e+002°)
1.13313313313313e+005	(-1.58232388034004e+001dB,1.76222691514764e+002°)
1.13413413413413e+005	(-1.57497909441393e+001dB,1.75992519659183e+002°)
1.13513513513513e+005	(-1.56763195021140e+001dB,1.75761243033845e+002°)
1.13613613613613e+005	(-1.56028248651598e+001dB,1.75528853582644e+002°)
1.13713713713714e+005	(-1.55293074341600e+001dB,1.75295343198140e+002°)
1.13813813813814e+005	(-1.54557676232829e+001dB,1.75060703721769e+002°)
1.13913913913914e+005	(-1.53822058602226e+001dB,1.74824926944080e+002°)
1.14014014014014e+005	(-1.53086225864440e+001dB,1.74588004604994e+002°)
1.14114114114114e+005	(-1.52350182574296e+001dB,1.74349928394090e+002°)
1.14214214214214e+005	(-1.51613933429309e+001dB,1.74110689950914e+002°)
1.14314314314314e+005	(-1.50877483272230e+001dB,1.73870280865315e+002°)
1.14414414414414e+005	(-1.50140837093619e+001dB,1.73628692677814e+002°)
1.14514514514514e+005	(-1.49404000034463e+001dB,1.73385916879992e+002°)
1.14614614614614e+005	(-1.48666977388820e+001dB,1.73141944914914e+002°)
1.14714714714715e+005	(-1.47929774606495e+001dB,1.72896768177582e+002°)
1.14814814814815e+005	(-1.47192397295761e+001dB,1.72650378015415e+002°)
1.14914914914915e+005	(-1.46454851226100e+001dB,1.72402765728771e+002°)
1.15015015015015e+005	(-1.45717142330987e+001dB,1.72153922571488e+002°)
1.15115115115115e+005	(-1.44979276710705e+001dB,1.71903839751473e+002°)
1.15215215215215e+005	(-1.44241260635189e+001dB,1.71652508431316e+002°)
1.15315315315315e+005	(-1.43503100546910e+001dB,1.71399919728946e+002°)
1.15415415415415e+005	(-1.42764803063787e+001dB,1.71146064718320e+002°)
1.15515515515515e+005	(-1.42026374982130e+001dB,1.70890934430157e+002°)
1.15615615615615e+005	(-1.41287823279618e+001dB,1.70634519852702e+002°)
1.15715715715715e+005	(-1.40549155118310e+001dB,1.70376811932538e+002°)
1.15815815815816e+005	(-1.39810377847681e+001dB,1.70117801575438e+002°)
1.15915915915916e+005	(-1.39071499007696e+001dB,1.69857479647261e+002°)
1.16016016016016e+005	(-1.38332526331905e+001dB,1.69595836974884e+002°)
1.16116116116116e+005	(-1.37593467750579e+001dB,1.69332864347195e+002°)
1.16216216216216e+005	(-1.36854331393863e+001dB,1.69068552516115e+002°)
1.16316316316316e+005	(-1.36115125594966e+001dB,1.68802892197682e+002°)
1.16416416416416e+005	(-1.35375858893371e+001dB,1.68535874073176e+002°)
1.16516516516516e+005	(-1.34636540038081e+001dB,1.68267488790299e+002°)
1.16616616616616e+005	(-1.33897177990879e+001dB,1.67997726964399e+002°)
1.16716716716716e+005	(-1.33157781929622e+001dB,1.67726579179761e+002°)
1.16816816816817e+005	(-1.32418361251555e+001dB,1.67454035990937e+002°)
1.16916916916917e+005	(-1.31678925576647e+001dB,1.67180087924141e+002°)
1.17017017017017e+005	(-1.30939484750949e+001dB,1.66904725478701e+002°)
1.17117117117117e+005	(-1.30200048849974e+001dB,1.66627939128565e+002°)
1.17217217217217e+005	(-1.29460628182094e+001dB,1.66349719323870e+002°)
1.17317317317317e+005	(-1.28721233291956e+001dB,1.66070056492572e+002°)
1.17417417417417e+005	(-1.27981874963910e+001dB,1.65788941042139e+002°)
1.17517517517517e+005	(-1.27242564225461e+001dB,1.65506363361308e+002°)
1.17617617617617e+005	(-1.26503312350722e+001dB,1.65222313821907e+002°)
1.17717717717717e+005	(-1.25764130863887e+001dB,1.64936782780744e+002°)
1.17817817817818e+005	(-1.25025031542711e+001dB,1.64649760581569e+002°)
1.17917917917918e+005	(-1.24286026421997e+001dB,1.64361237557099e+002°)
1.18018018018018e+005	(-1.23547127797089e+001dB,1.64071204031119e+002°)
1.18118118118118e+005	(-1.22808348227369e+001dB,1.63779650320659e+002°)
1.18218218218218e+005	(-1.22069700539752e+001dB,1.63486566738237e+002°)
1.18318318318318e+005	(-1.21331197832189e+001dB,1.63191943594185e+002°)
1.18418418418418e+005	(-1.20592853477156e+001dB,1.62895771199056e+002°)
1.18518518518518e+005	(-1.19854681125142e+001dB,1.62598039866095e+002°)
1.18618618618618e+005	(-1.19116694708130e+001dB,1.62298739913811e+002°)
1.18718718718718e+005	(-1.18378908443065e+001dB,1.61997861668613e+002°)
1.18818818818819e+005	(-1.17641336835308e+001dB,1.61695395467542e+002°)
1.18918918918919e+005	(-1.16903994682071e+001dB,1.61391331661080e+002°)
1.19019019019019e+005	(-1.16166897075839e+001dB,1.61085660616054e+002°)
1.19119119119119e+005	(-1.15430059407757e+001dB,1.60778372718614e+002°)
1.19219219219219e+005	(-1.14693497371002e+001dB,1.60469458377318e+002°)
1.19319319319319e+005	(-1.13957226964116e+001dB,1.60158908026292e+002°)
1.19419419419419e+005	(-1.13221264494313e+001dB,1.59846712128491e+002°)
1.19519519519519e+005	(-1.12485626580740e+001dB,1.59532861179051e+002°)
1.19619619619619e+005	(-1.11750330157701e+001dB,1.59217345708735e+002°)
1.19719719719719e+005	(-1.11015392477838e+001dB,1.58900156287476e+002°)
1.19819819819820e+005	(-1.10280831115258e+001dB,1.58581283528012e+002°)
1.19919919919920e+005	(-1.09546663968604e+001dB,1.58260718089630e+002°)
1.20020020020020e+005	(-1.08812909264078e+001dB,1.57938450681998e+002°)
1.20120120120120e+005	(-1.08079585558384e+001dB,1.57614472069103e+002°)
1.20220220220220e+005	(-1.07346711741621e+001dB,1.57288773073291e+002°)
1.20320320320320e+005	(-1.06614307040090e+001dB,1.56961344579404e+002°)
1.20420420420420e+005	(-1.05882391019030e+001dB,1.56632177539029e+002°)
1.20520520520520e+005	(-1.05150983585266e+001dB,1.56301262974839e+002°)
1.20620620620620e+005	(-1.04420104989776e+001dB,1.55968591985052e+002°)
1.20720720720720e+005	(-1.03689775830151e+001dB,1.55634155747985e+002°)
1.20820820820821e+005	(-1.02960017052973e+001dB,1.55297945526717e+002°)
1.20920920920921e+005	(-1.02230849956071e+001dB,1.54959952673860e+002°)
1.21021021021021e+005	(-1.01502296190671e+001dB,1.54620168636434e+002°)
1.21121121121121e+005	(-1.00774377763436e+001dB,1.54278584960853e+002°)
1.21221221221221e+005	(-1.00047117038370e+001dB,1.53935193298009e+002°)
1.21321321321321e+005	(-9.93205367385971e+000dB,1.53589985408478e+002°)
1.21421421421421e+005	(-9.85946599480064e+000dB,1.53242953167814e+002°)
1.21521521521521e+005	(-9.78695101127468e+000dB,1.52894088571966e+002°)
1.21621621621621e+005	(-9.71451110425766e+000dB,1.52543383742795e+002°)
1.21721721721721e+005	(-9.64214869120527e+000dB,1.52190830933691e+002°)
1.21821821821822e+005	(-9.56986622615554e+000dB,1.51836422535308e+002°)
1.21921921921922e+005	(-9.49766619981420e+000dB,1.51480151081388e+002°)
1.22022022022022e+005	(-9.42555113962202e+000dB,1.51122009254703e+002°)
1.22122122122122e+005	(-9.35352360980358e+000dB,1.50761989893087e+002°)
1.22222222222222e+005	(-9.28158621139635e+000dB,1.50400085995578e+002°)
1.22322322322322e+005	(-9.20974158225988e+000dB,1.50036290728651e+002°)
1.22422422422422e+005	(-9.13799239706370e+000dB,1.49670597432555e+002°)
1.22522522522522e+005	(-9.06634136725355e+000dB,1.49302999627743e+002°)
1.22622622622622e+005	(-8.99479124099517e+000dB,1.48933491021393e+002°)
1.22722722722722e+005	(-8.92334480309430e+000dB,1.48562065514028e+002°)
1.22822822822822e+005	(-8.85200487489295e+000dB,1.48188717206212e+002°)
1.22922922922923e+005	(-8.78077431414025e+000dB,1.47813440405345e+002°)
1.23023023023023e+005	(-8.70965601483779e+000dB,1.47436229632531e+002°)
1.23123123123123e+005	(-8.63865290705798e+000dB,1.47057079629530e+002°)
1.23223223223223e+005	(-8.56776795673519e+000dB,1.46675985365784e+002°)
1.23323323323323e+005	(-8.49700416542851e+000dB,1.46292942045520e+002°)
1.23423423423423e+005	(-8.42636457005522e+000dB,1.45907945114912e+002°)
1.23523523523523e+005	(-8.35585224259454e+000dB,1.45520990269317e+002°)
1.23623623623623e+005	(-8.28547028976053e+000dB,1.45132073460561e+002°)
1.23723723723723e+005	(-8.21522185264335e+000dB,1.44741190904288e+002°)
1.23823823823823e+005	(-8.14511010631819e+000dB,1.44348339087352e+002°)
1.23923923923924e+005	(-8.07513825942120e+000dB,1.43953514775258e+002°)
1.24024024024024e+005	(-8.00530955369118e+000dB,1.43556715019633e+002°)
1.24124124124124e+005	(-7.93562726347680e+000dB,1.43157937165743e+002°)
1.24224224224224e+005	(-7.86609469520835e+000dB,1.42757178860020e+002°)
1.24324324324324e+005	(-7.79671518683324e+000dB,1.42354438057624e+002°)
1.24424424424424e+005	(-7.72749210721462e+000dB,1.41949713030002e+002°)
1.24524524524524e+005	(-7.65842885549251e+000dB,1.41543002372466e+002°)
1.24624624624624e+005	(-7.58952886040659e+000dB,1.41134305011763e+002°)
1.24724724724724e+005	(-7.52079557958033e+000dB,1.40723620213632e+002°)
1.24824824824824e+005	(-7.45223249876526e+000dB,1.40310947590348e+002°)
1.24924924924925e+005	(-7.38384313104574e+000dB,1.39896287108237e+002°)
1.25025025025025e+005	(-7.31563101600261e+000dB,1.39479639095161e+002°)
1.25125125125125e+005	(-7.24759971883630e+000dB,1.39061004247946e+002°)
1.25225225225225e+005	(-7.17975282944791e+000dB,1.38640383639776e+002°)
1.25325325325325e+005	(-7.11209396147876e+000dB,1.38217778727503e+002°)
1.25425425425425e+005	(-7.04462675130742e+000dB,1.37793191358902e+002°)
1.25525525525525e+005	(-6.97735485700415e+000dB,1.37366623779833e+002°)
1.25625625625625e+005	(-6.91028195724256e+000dB,1.36938078641311e+002°)
1.25725725725725e+005	(-6.84341175016799e+000dB,1.36507559006477e+002°)
1.25825825825825e+005	(-6.77674795222280e+000dB,1.36075068357446e+002°)
1.25925925925926e+005	(-6.71029429692836e+000dB,1.35640610602038e+002°)
1.26026026026026e+005	(-6.64405453362337e+000dB,1.35204190080363e+002°)
1.26126126126126e+005	(-6.57803242615916e+000dB,1.34765811571267e+002°)
1.26226226226226e+005	(-6.51223175155169e+000dB,1.34325480298605e+002°)
1.26326326326326e+005	(-6.44665629859028e+000dB,1.33883201937357e+002°)
1.26426426426426e+005	(-6.38130986640393e+000dB,1.33438982619540e+002°)
1.26526526526526e+005	(-6.31619626298467e+000dB,1.32992828939946e+002°)
1.26626626626626e+005	(-6.25131930366930e+000dB,1.32544747961648e+002°)
1.26726726726726e+005	(-6.18668280957913e+000dB,1.32094747221301e+002°)
1.26826826826826e+005	(-6.12229060601906e+000dB,1.31642834734203e+002°)
1.26926926926927e+005	(-6.05814652083602e+000dB,1.31189018999108e+002°)
1.27027027027027e+005	(-5.99425438273789e+000dB,1.30733309002780e+002°)
1.27127127127127e+005	(-5.93061801957361e+000dB,1.30275714224278e+002°)
