Freq.	V(N002,N003)
1.00000000000000e+05	(-2.23315898356329e+01dB,-1.22043930602639e+02°)
1.00150150150150e+05	(-2.22573289022389e+01dB,-1.22156851770496e+02°)
1.00300300300300e+05	(-2.21830121792627e+01dB,-1.22270322770657e+02°)
1.00450450450450e+05	(-2.21086390377700e+01dB,-1.22384347904241e+02°)
1.00600600600601e+05	(-2.20342088472061e+01dB,-1.22498931516515e+02°)
1.00750750750751e+05	(-2.19597209753835e+01dB,-1.22614077997468e+02°)
1.00900900900901e+05	(-2.18851747884707e+01dB,-1.22729791782388e+02°)
1.01051051051051e+05	(-2.18105696509808e+01dB,-1.22846077352449e+02°)
1.01201201201201e+05	(-2.17359049257600e+01dB,-1.22962939235308e+02°)
1.01351351351351e+05	(-2.16611799739773e+01dB,-1.23080382005713e+02°)
1.01501501501501e+05	(-2.15863941551139e+01dB,-1.23198410286114e+02°)
1.01651651651652e+05	(-2.15115468269528e+01dB,-1.23317028747292e+02°)
1.01801801801802e+05	(-2.14366373455691e+01dB,-1.23436242108990e+02°)
1.01951951951952e+05	(-2.13616650653207e+01dB,-1.23556055140563e+02°)
1.02102102102102e+05	(-2.12866293388388e+01dB,-1.23676472661625e+02°)
1.02252252252252e+05	(-2.12115295170194e+01dB,-1.23797499542720e+02°)
1.02402402402402e+05	(-2.11363649490147e+01dB,-1.23919140705997e+02°)
1.02552552552553e+05	(-2.10611349822254e+01dB,-1.24041401125892e+02°)
1.02702702702703e+05	(-2.09858389622926e+01dB,-1.24164285829829e+02°)
1.02852852852853e+05	(-2.09104762330912e+01dB,-1.24287799898927e+02°)
1.03003003003003e+05	(-2.08350461367228e+01dB,-1.24411948468720e+02°)
1.03153153153153e+05	(-2.07595480135095e+01dB,-1.24536736729885e+02°)
1.03303303303303e+05	(-2.06839812019884e+01dB,-1.24662169928986e+02°)
1.03453453453453e+05	(-2.06083450389058e+01dB,-1.24788253369231e+02°)
1.03603603603604e+05	(-2.05326388592128e+01dB,-1.24914992411235e+02°)
1.03753753753754e+05	(-2.04568619960609e+01dB,-1.25042392473798e+02°)
1.03903903903904e+05	(-2.03810137807984e+01dB,-1.25170459034700e+02°)
1.04054054054054e+05	(-2.03050935429670e+01dB,-1.25299197631503e+02°)
1.04204204204204e+05	(-2.02291006102996e+01dB,-1.25428613862368e+02°)
1.04354354354354e+05	(-2.01530343087183e+01dB,-1.25558713386884e+02°)
1.04504504504504e+05	(-2.00768939623327e+01dB,-1.25689501926915e+02°)
1.04654654654655e+05	(-2.00006788934400e+01dB,-1.25820985267455e+02°)
1.04804804804805e+05	(-1.99243884225244e+01dB,-1.25953169257499e+02°)
1.04954954954955e+05	(-1.98480218682580e+01dB,-1.26086059810932e+02°)
1.05105105105105e+05	(-1.97715785475027e+01dB,-1.26219662907424e+02°)
1.05255255255255e+05	(-1.96950577753121e+01dB,-1.26353984593352e+02°)
1.05405405405405e+05	(-1.96184588649343e+01dB,-1.26489030982723e+02°)
1.05555555555555e+05	(-1.95417811278163e+01dB,-1.26624808258123e+02°)
1.05705705705706e+05	(-1.94650238736085e+01dB,-1.26761322671677e+02°)
1.05855855855856e+05	(-1.93881864101702e+01dB,-1.26898580546027e+02°)
1.06006006006006e+05	(-1.93112680435761e+01dB,-1.27036588275323e+02°)
1.06156156156156e+05	(-1.92342680781239e+01dB,-1.27175352326234e+02°)
1.06306306306306e+05	(-1.91571858163424e+01dB,-1.27314879238975e+02°)
1.06456456456456e+05	(-1.90800205590015e+01dB,-1.27455175628346e+02°)
1.06606606606607e+05	(-1.90027716051220e+01dB,-1.27596248184798e+02°)
1.06756756756757e+05	(-1.89254382519875e+01dB,-1.27738103675510e+02°)
1.06906906906907e+05	(-1.88480197951572e+01dB,-1.27880748945482e+02°)
1.07057057057057e+05	(-1.87705155284796e+01dB,-1.28024190918656e+02°)
1.07207207207207e+05	(-1.86929247441074e+01dB,-1.28168436599043e+02°)
1.07357357357357e+05	(-1.86152467325143e+01dB,-1.28313493071883e+02°)
1.07507507507507e+05	(-1.85374807825118e+01dB,-1.28459367504809e+02°)
1.07657657657658e+05	(-1.84596261812691e+01dB,-1.28606067149048e+02°)
1.07807807807808e+05	(-1.83816822143327e+01dB,-1.28753599340624e+02°)
1.07957957957958e+05	(-1.83036481656484e+01dB,-1.28901971501600e+02°)
1.08108108108108e+05	(-1.82255233175848e+01dB,-1.29051191141322e+02°)
1.08258258258258e+05	(-1.81473069509577e+01dB,-1.29201265857702e+02°)
1.08408408408408e+05	(-1.80689983450567e+01dB,-1.29352203338510e+02°)
1.08558558558558e+05	(-1.79905967776734e+01dB,-1.29504011362696e+02°)
1.08708708708709e+05	(-1.79121015251307e+01dB,-1.29656697801726e+02°)
1.08858858858859e+05	(-1.78335118623150e+01dB,-1.29810270620954e+02°)
1.09009009009009e+05	(-1.77548270627089e+01dB,-1.29964737881003e+02°)
1.09159159159159e+05	(-1.76760463984271e+01dB,-1.30120107739177e+02°)
1.09309309309309e+05	(-1.75971691402530e+01dB,-1.30276388450902e+02°)
1.09459459459459e+05	(-1.75181945576785e+01dB,-1.30433588371179e+02°)
1.09609609609609e+05	(-1.74391219189453e+01dB,-1.30591715956077e+02°)
1.09759759759760e+05	(-1.73599504910881e+01dB,-1.30750779764235e+02°)
1.09909909909910e+05	(-1.72806795399812e+01dB,-1.30910788458410e+02°)
1.10060060060060e+05	(-1.72013083303857e+01dB,-1.31071750807030e+02°)
1.10210210210210e+05	(-1.71218361260008e+01dB,-1.31233675685792e+02°)
1.10360360360360e+05	(-1.70422621895170e+01dB,-1.31396572079278e+02°)
1.10510510510510e+05	(-1.69625857826712e+01dB,-1.31560449082600e+02°)
1.10660660660661e+05	(-1.68828061663056e+01dB,-1.31725315903078e+02°)
1.10810810810811e+05	(-1.68029226004287e+01dB,-1.31891181861939e+02°)
1.10960960960961e+05	(-1.67229343442795e+01dB,-1.32058056396056e+02°)
1.11111111111111e+05	(-1.66428406563945e+01dB,-1.32225949059709e+02°)
1.11261261261261e+05	(-1.65626407946778e+01dB,-1.32394869526380e+02°)
1.11411411411411e+05	(-1.64823340164744e+01dB,-1.32564827590576e+02°)
1.11561561561561e+05	(-1.64019195786472e+01dB,-1.32735833169692e+02°)
1.11711711711712e+05	(-1.63213967376567e+01dB,-1.32907896305896e+02°)
1.11861861861862e+05	(-1.62407647496448e+01dB,-1.33081027168054e+02°)
1.12012012012012e+05	(-1.61600228705222e+01dB,-1.33255236053683e+02°)
1.12162162162162e+05	(-1.60791703560595e+01dB,-1.33430533390950e+02°)
1.12312312312312e+05	(-1.59982064619820e+01dB,-1.33606929740685e+02°)
1.12462462462462e+05	(-1.59171304440693e+01dB,-1.33784435798453e+02°)
1.12612612612612e+05	(-1.58359415582584e+01dB,-1.33963062396643e+02°)
1.12762762762763e+05	(-1.57546390607513e+01dB,-1.34142820506605e+02°)
1.12912912912913e+05	(-1.56732222081276e+01dB,-1.34323721240818e+02°)
1.13063063063063e+05	(-1.55916902574613e+01dB,-1.34505775855101e+02°)
1.13213213213213e+05	(-1.55100424664423e+01dB,-1.34688995750857e+02°)
1.13363363363363e+05	(-1.54282780935037e+01dB,-1.34873392477361e+02°)
1.13513513513513e+05	(-1.53463963979537e+01dB,-1.35058977734086e+02°)
1.13663663663663e+05	(-1.52643966401124e+01dB,-1.35245763373067e+02°)
1.13813813813814e+05	(-1.51822780814558e+01dB,-1.35433761401311e+02°)
1.13963963963964e+05	(-1.51000399847634e+01dB,-1.35622983983247e+02°)
1.14114114114114e+05	(-1.50176816142739e+01dB,-1.35813443443215e+02°)
1.14264264264264e+05	(-1.49352022358452e+01dB,-1.36005152268003e+02°)
1.14414414414414e+05	(-1.48526011171224e+01dB,-1.36198123109428e+02°)
1.14564564564564e+05	(-1.47698775277111e+01dB,-1.36392368786959e+02°)
1.14714714714715e+05	(-1.46870307393585e+01dB,-1.36587902290382e+02°)
1.14864864864865e+05	(-1.46040600261411e+01dB,-1.36784736782523e+02°)
1.15015015015015e+05	(-1.45209646646600e+01dB,-1.36982885602006e+02°)
1.15165165165165e+05	(-1.44377439342434e+01dB,-1.37182362266060e+02°)
1.15315315315315e+05	(-1.43543971171577e+01dB,-1.37383180473383e+02°)
1.15465465465465e+05	(-1.42709234988259e+01dB,-1.37585354107045e+02°)
1.15615615615615e+05	(-1.41873223680553e+01dB,-1.37788897237445e+02°)
1.15765765765766e+05	(-1.41035930172728e+01dB,-1.37993824125320e+02°)
1.15915915915916e+05	(-1.40197347427708e+01dB,-1.38200149224797e+02°)
1.16066066066066e+05	(-1.39357468449609e+01dB,-1.38407887186512e+02°)
1.16216216216216e+05	(-1.38516286286385e+01dB,-1.38617052860763e+02°)
1.16366366366366e+05	(-1.37673794032563e+01dB,-1.38827661300732e+02°)
1.16516516516516e+05	(-1.36829984832098e+01dB,-1.39039727765749e+02°)
1.16666666666666e+05	(-1.35984851881313e+01dB,-1.39253267724619e+02°)
1.16816816816817e+05	(-1.35138388431976e+01dB,-1.39468296859001e+02°)
1.16966966966967e+05	(-1.34290587794470e+01dB,-1.39684831066842e+02°)
1.17117117117117e+05	(-1.33441443341094e+01dB,-1.39902886465864e+02°)
1.17267267267267e+05	(-1.32590948509489e+01dB,-1.40122479397121e+02°)
1.17417417417417e+05	(-1.31739096806183e+01dB,-1.40343626428597e+02°)
1.17567567567567e+05	(-1.30885881810276e+01dB,-1.40566344358873e+02°)
1.17717717717717e+05	(-1.30031297177258e+01dB,-1.40790650220853e+02°)
1.17867867867868e+05	(-1.29175336642972e+01dB,-1.41016561285541e+02°)
1.18018018018018e+05	(-1.28317994027721e+01dB,-1.41244095065888e+02°)
1.18168168168168e+05	(-1.27459263240528e+01dB,-1.41473269320691e+02°)
1.18318318318318e+05	(-1.26599138283553e+01dB,-1.41704102058560e+02°)
1.18468468468468e+05	(-1.25737613256675e+01dB,-1.41936611541940e+02°)
1.18618618618618e+05	(-1.24874682362237e+01dB,-1.42170816291199e+02°)
1.18768768768768e+05	(-1.24010339909975e+01dB,-1.42406735088775e+02°)
1.18918918918919e+05	(-1.23144580322117e+01dB,-1.42644386983386e+02°)
1.19069069069069e+05	(-1.22277398138674e+01dB,-1.42883791294304e+02°)
1.19219219219219e+05	(-1.21408788022926e+01dB,-1.43124967615688e+02°)
1.19369369369369e+05	(-1.20538744767107e+01dB,-1.43367935820985e+02°)
1.19519519519519e+05	(-1.19667263298292e+01dB,-1.43612716067388e+02°)
1.19669669669669e+05	(-1.18794338684509e+01dB,-1.43859328800359e+02°)
1.19819819819820e+05	(-1.17919966141061e+01dB,-1.44107794758213e+02°)
1.19969969969970e+05	(-1.17044141037085e+01dB,-1.44358134976772e+02°)
1.20120120120120e+05	(-1.16166858902349e+01dB,-1.44610370794066e+02°)
1.20270270270270e+05	(-1.15288115434290e+01dB,-1.44864523855111e+02°)
1.20420420420420e+05	(-1.14407906505308e+01dB,-1.45120616116738e+02°)
1.20570570570570e+05	(-1.13526228170328e+01dB,-1.45378669852487e+02°)
1.20720720720720e+05	(-1.12643076674623e+01dB,-1.45638707657558e+02°)
1.20870870870871e+05	(-1.11758448461933e+01dB,-1.45900752453825e+02°)
1.21021021021021e+05	(-1.10872340182863e+01dB,-1.46164827494902e+02°)
1.21171171171171e+05	(-1.09984748703586e+01dB,-1.46430956371271e+02°)
1.21321321321321e+05	(-1.09095671114861e+01dB,-1.46699163015463e+02°)
1.21471471471471e+05	(-1.08205104741370e+01dB,-1.46969471707292e+02°)
1.21621621621621e+05	(-1.07313047151384e+01dB,-1.47241907079145e+02°)
1.21771771771771e+05	(-1.06419496166785e+01dB,-1.47516494121316e+02°)
1.21921921921922e+05	(-1.05524449873429e+01dB,-1.47793258187397e+02°)
1.22072072072072e+05	(-1.04627906631891e+01dB,-1.48072224999704e+02°)
1.22222222222222e+05	(-1.03729865088579e+01dB,-1.48353420654760e+02°)
1.22372372372372e+05	(-1.02830324187248e+01dB,-1.48636871628807e+02°)
1.22522522522522e+05	(-1.01929283180921e+01dB,-1.48922604783360e+02°)
1.22672672672672e+05	(-1.01026741644223e+01dB,-1.49210647370799e+02°)
1.22822822822822e+05	(-1.00122699486156e+01dB,-1.49501027039989e+02°)
1.22972972972973e+05	(-9.92171569633147e+00dB,-1.49793771841921e+02°)
1.23123123123123e+05	(-9.83101146935759e+00dB,-1.50088910235391e+02°)
1.23273273273273e+05	(-9.74015736702522e+00dB,-1.50386471092678e+02°)
1.23423423423423e+05	(-9.64915352767492e+00dB,-1.50686483705254e+02°)
1.23573573573573e+05	(-9.55800013017277e+00dB,-1.50988977789485e+02°)
1.23723723723723e+05	(-9.46669739547917e+00dB,-1.51293983492348e+02°)
1.23873873873874e+05	(-9.37524558827201e+00dB,-1.51601531397133e+02°)
1.24024024024024e+05	(-9.28364501862568e+00dB,-1.51911652529141e+02°)
1.24174174174174e+05	(-9.19189604374784e+00dB,-1.52224378361362e+02°)
1.24324324324324e+05	(-9.09999906977584e+00dB,-1.52539740820124e+02°)
1.24474474474474e+05	(-9.00795455363423e+00dB,-1.52857772290711e+02°)
1.24624624624624e+05	(-8.91576300495587e+00dB,-1.53178505622941e+02°)
1.24774774774774e+05	(-8.82342498806796e+00dB,-1.53501974136680e+02°)
1.24924924924925e+05	(-8.73094112404539e+00dB,-1.53828211627308e+02°)
1.25075075075075e+05	(-8.63831209283317e+00dB,-1.54157252371100e+02°)
1.25225225225225e+05	(-8.54553863544020e+00dB,-1.54489131130523e+02°)
1.25375375375375e+05	(-8.45262155620614e+00dB,-1.54823883159445e+02°)
1.25525525525525e+05	(-8.35956172514385e+00dB,-1.55161544208220e+02°)
1.25675675675675e+05	(-8.26636008035937e+00dB,-1.55502150528655e+02°)
1.25825825825825e+05	(-8.17301763055156e+00dB,-1.55845738878837e+02°)
1.25975975975976e+05	(-8.07953545759391e+00dB,-1.56192346527801e+02°)
1.26126126126126e+05	(-7.98591471920017e+00dB,-1.56542011260029e+02°)
1.26276276276276e+05	(-7.89215665167685e+00dB,-1.56894771379758e+02°)
1.26426426426426e+05	(-7.79826257276417e+00dB,-1.57250665715073e+02°)
1.26576576576576e+05	(-7.70423388456810e+00dB,-1.57609733621776e+02°)
1.26726726726726e+05	(-7.61007207658575e+00dB,-1.57972014987003e+02°)
1.26876876876876e+05	(-7.51577872882635e+00dB,-1.58337550232563e+02°)
1.27027027027027e+05	(-7.42135551503009e+00dB,-1.58706380317983e+02°)
1.27177177177177e+05	(-7.32680420598730e+00dB,-1.59078546743232e+02°)
1.27327327327327e+05	(-7.23212667296007e+00dB,-1.59454091551084e+02°)
1.27477477477477e+05	(-7.13732489120850e+00dB,-1.59833057329120e+02°)
1.27627627627627e+05	(-7.04240094362416e+00dB,-1.60215487211302e+02°)
1.27777777777777e+05	(-6.94735702447250e+00dB,-1.60601424879127e+02°)
1.27927927927928e+05	(-6.85219544324666e+00dB,-1.60990914562292e+02°)
1.28078078078078e+05	(-6.75691862863468e+00dB,-1.61384001038862e+02°)
1.28228228228228e+05	(-6.66152913260190e+00dB,-1.61780729634887e+02°)
1.28378378378378e+05	(-6.56602963459083e+00dB,-1.62181146223441e+02°)
1.28528528528528e+05	(-6.47042294584007e+00dB,-1.62585297223029e+02°)
1.28678678678678e+05	(-6.37471201382388e+00dB,-1.62993229595340e+02°)
1.28828828828828e+05	(-6.27889992681424e+00dB,-1.63404990842274e+02°)
1.28978978978979e+05	(-6.18298991856654e+00dB,-1.63820629002224e+02°)
1.29129129129129e+05	(-6.08698537313036e+00dB,-1.64240192645537e+02°)
1.29279279279279e+05	(-5.99088982978617e+00dB,-1.64663730869130e+02°)
1.29429429429429e+05	(-5.89470698810904e+00dB,-1.65091293290178e+02°)
1.29579579579579e+05	(-5.79844071315959e+00dB,-1.65522930038846e+02°)
1.29729729729729e+05	(-5.70209504080290e+00dB,-1.65958691749980e+02°)
1.29879879879879e+05	(-5.60567418315522e+00dB,-1.66398629553720e+02°)
1.30030030030030e+05	(-5.50918253415814e+00dB,-1.66842795064949e+02°)
1.30180180180180e+05	(-5.41262467527970e+00dB,-1.67291240371525e+02°)
1.30330330330330e+05	(-5.31600538134148e+00dB,-1.67744018021227e+02°)
1.30480480480480e+05	(-5.21932962646995e+00dB,-1.68201181007333e+02°)
1.30630630630630e+05	(-5.12260259017064e+00dB,-1.68662782752765e+02°)
1.30780780780780e+05	(-5.02582966352216e+00dB,-1.69128877092718e+02°)
1.30930930930930e+05	(-4.92901645548773e+00dB,-1.69599518255698e+02°)
1.31081081081081e+05	(-4.83216879934031e+00dB,-1.70074760842878e+02°)
1.31231231231231e+05	(-4.73529275919731e+00dB,-1.70554659805698e+02°)
1.31381381381381e+05	(-4.63839463666006e+00dB,-1.71039270421613e+02°)
1.31531531531531e+05	(-4.54148097755262e+00dB,-1.71528648267894e+02°)
1.31681681681681e+05	(-4.44455857875332e+00dB,-1.72022849193406e+02°)
1.31831831831831e+05	(-4.34763449511219e+00dB,-1.72521929288249e+02°)
1.31981981981982e+05	(-4.25071604644608e+00dB,-1.73025944851178e+02°)
1.32132132132132e+05	(-4.15381082460241e+00dB,-1.73534952354696e+02°)
1.32282282282282e+05	(-4.05692670058169e+00dB,-1.74049008407719e+02°)
1.32432432432432e+05	(-3.96007183170774e+00dB,-1.74568169715712e+02°)
1.32582582582582e+05	(-3.86325466883307e+00dB,-1.75092493038199e+02°)
1.32732732732732e+05	(-3.76648396356664e+00dB,-1.75622035143525e+02°)
1.32882882882882e+05	(-3.66976877550852e+00dB,-1.76156852760782e+02°)
1.33033033033033e+05	(-3.57311847947621e+00dB,-1.76697002528783e+02°)
1.33183183183183e+05	(-3.47654277270461e+00dB,-1.77242540941983e+02°)
1.33333333333333e+05	(-3.38005168200096e+00dB,-1.77793524293241e+02°)
1.33483483483483e+05	(-3.28365557083458e+00dB,-1.78350008613317e+02°)
1.33633633633633e+05	(-3.18736514633894e+00dB,-1.78912049607009e+02°)
1.33783783783783e+05	(-3.09119146620262e+00dB,-1.79479702585822e+02°)
1.33933933933933e+05	(-2.99514594542381e+00dB,1.79946977602917e+02°)
1.34084084084084e+05	(-2.89924036290117e+00dB,1.79367936650602e+02°)
1.34234234234234e+05	(-2.80348686783173e+00dB,1.78783120865621e+02°)
1.34384384384384e+05	(-2.70789798588543e+00dB,1.78192477255457e+02°)
1.34534534534534e+05	(-2.61248662512317e+00dB,1.77595953612676e+02°)
1.34684684684684e+05	(-2.51726608162367e+00dB,1.76993498604879e+02°)
1.34834834834834e+05	(-2.42225004478252e+00dB,1.76385061868674e+02°)
1.34984984984984e+05	(-2.32745260224467e+00dB,1.75770594107707e+02°)
1.35135135135135e+05	(-2.23288824442959e+00dB,1.75150047194804e+02°)
1.35285285285285e+05	(-2.13857186860652e+00dB,1.74523374278233e+02°)
1.35435435435435e+05	(-2.04451878247518e+00dB,1.73890529892102e+02°)
1.35585585585585e+05	(-1.95074470720529e+00dB,1.73251470070886e+02°)
1.35735735735735e+05	(-1.85726577988670e+00dB,1.72606152468058e+02°)
1.35885885885885e+05	(-1.76409855533978e+00dB,1.71954536478782e+02°)
1.36036036036036e+05	(-1.67126000723435e+00dB,1.71296583366609e+02°)
1.36186186186186e+05	(-1.57876752846381e+00dB,1.70632256394086e+02°)
1.36336336336336e+05	(-1.48663893071953e+00dB,1.69961520957173e+02°)
1.36486486486486e+05	(-1.39489244320966e+00dB,1.69284344723329e+02°)
1.36636636636636e+05	(-1.30354671046536e+00dB,1.68600697773124e+02°)
1.36786786786786e+05	(-1.21262078917641e+00dB,1.67910552745154e+02°)
1.36936936936936e+05	(-1.12213414399820e+00dB,1.67213884984079e+02°)
1.37087087087087e+05	(-1.03210664227142e+00dB,1.66510672691502e+02°)
1.37237237237237e+05	(-9.42558547595909e-01dB,1.65800897079414e+02°)
1.37387387387387e+05	(-8.53510512200964e-01dB,1.65084542525891e+02°)
1.37537537537537e+05	(-7.64983568054892e-01dB,1.64361596732677e+02°)
1.37687687687687e+05	(-6.76999116657971e-01dB,1.63632050884261e+02°)
1.37837837837837e+05	(-5.89578917465184e-01dB,1.62895899808028e+02°)
1.37987987987987e+05	(-5.02745074886722e-01dB,1.62153142134993e+02°)
1.38138138138138e+05	(-4.16520023817550e-01dB,1.61403780460625e+02°)
1.38288288288288e+05	(-3.30926513650752e-01dB,1.60647821505207e+02°)
1.38438438438438e+05	(-2.45987590733023e-01dB,1.59885276273140e+02°)
1.38588588588588e+05	(-1.61726579225479e-01dB,1.59116160210559e+02°)
1.38738738738738e+05	(-7.81670603386081e-02dB,1.58340493360616e+02°)
1.38888888888888e+05	(4.66715008488468e-03dB,1.57558300515695e+02°)
1.39039039039038e+05	(8.67520256577907e-02dB,1.56769611365853e+02°)
1.39189189189189e+05	(1.68063355218773e-01dB,1.55974460642693e+02°)
1.39339339339339e+05	(2.48576770289181e-01dB,1.55172888257882e+02°)
1.39489489489489e+05	(3.28267774211413e-01dB,1.54364939435480e+02°)
1.39639639639639e+05	(4.07111772955246e-01dB,1.53550664837234e+02°)
1.39789789789789e+05	(4.85084107567626e-01dB,1.52730120679959e+02°)
1.39939939939939e+05	(5.62160088232350e-01dB,1.51903368844133e+02°)
1.40090090090090e+05	(6.38315029893990e-01dB,1.51070476972802e+02°)
1.40240240240240e+05	(7.13524289389619e-01dB,1.50231518559910e+02°)
1.40390390390390e+05	(7.87763304019861e-01dB,1.49386573027158e+02°)
1.40540540540540e+05	(8.61007631478782e-01dB,1.48535725788506e+02°)
1.40690690690690e+05	(9.33232991049551e-01dB,1.47679068301461e+02°)
1.40840840840840e+05	(1.00441530596073e+00dB,1.46816698104312e+02°)
1.40990990990990e+05	(1.07453074678518e+00dB,1.45948718838509e+02°)
1.41141141141141e+05	(1.14355577575163e+00dB,1.45075240255413e+02°)
1.41291291291291e+05	(1.21146719182615e+00dB,1.44196378206724e+02°)
1.41441441441441e+05	(1.27824217641028e+00dB,1.43312254617913e+02°)
1.41591591591591e+05	(1.34385833948970e+00dB,1.42422997444086e+02°)
1.41741741741741e+05	(1.40829376605861e+00dB,1.41528740607769e+02°)
1.41891891891891e+05	(1.47152706263379e+00dB,1.40629623918173e+02°)
1.42042042042041e+05	(1.53353740366446e+00dB,1.39725792971625e+02°)
1.42192192192192e+05	(1.59430457763631e+00dB,1.38817399032914e+02°)
