Freq.	V(N002,N003)
1.00000000000000e+05	(-2.52867613419958e+01dB,-1.21518408952550e+02°)
1.00150150150150e+05	(-2.52136367769995e+01dB,-1.21624421114416e+02°)
1.00300300300300e+05	(-2.51404655621472e+01dB,-1.21730889784757e+02°)
1.00450450450450e+05	(-2.50672471272189e+01dB,-1.21837817930063e+02°)
1.00600600600601e+05	(-2.49939809003212e+01dB,-1.21945208540481e+02°)
1.00750750750751e+05	(-2.49206663078586e+01dB,-1.22053064630048e+02°)
1.00900900900901e+05	(-2.48473027745051e+01dB,-1.22161389236928e+02°)
1.01051051051051e+05	(-2.47738897231753e+01dB,-1.22270185423650e+02°)
1.01201201201201e+05	(-2.47004265749946e+01dB,-1.22379456277350e+02°)
1.01351351351351e+05	(-2.46269127492699e+01dB,-1.22489204910017e+02°)
1.01501501501501e+05	(-2.45533476634592e+01dB,-1.22599434458743e+02°)
1.01651651651652e+05	(-2.44797307331414e+01dB,-1.22710148085971e+02°)
1.01801801801802e+05	(-2.44060613719852e+01dB,-1.22821348979754e+02°)
1.01951951951952e+05	(-2.43323389917180e+01dB,-1.22933040354010e+02°)
1.02102102102102e+05	(-2.42585630020937e+01dB,-1.23045225448788e+02°)
1.02252252252252e+05	(-2.41847328108616e+01dB,-1.23157907530528e+02°)
1.02402402402402e+05	(-2.41108478237328e+01dB,-1.23271089892336e+02°)
1.02552552552553e+05	(-2.40369074443480e+01dB,-1.23384775854253e+02°)
1.02702702702703e+05	(-2.39629110742435e+01dB,-1.23498968763531e+02°)
1.02852852852853e+05	(-2.38888581128177e+01dB,-1.23613671994915e+02°)
1.03003003003003e+05	(-2.38147479572967e+01dB,-1.23728888950925e+02°)
1.03153153153153e+05	(-2.37405800026993e+01dB,-1.23844623062147e+02°)
1.03303303303303e+05	(-2.36663536418017e+01dB,-1.23960877787521e+02°)
1.03453453453453e+05	(-2.35920682651017e+01dB,-1.24077656614640e+02°)
1.03603603603604e+05	(-2.35177232607823e+01dB,-1.24194963060048e+02°)
1.03753753753754e+05	(-2.34433180146748e+01dB,-1.24312800669547e+02°)
1.03903903903904e+05	(-2.33688519102214e+01dB,-1.24431173018503e+02°)
1.04054054054054e+05	(-2.32943243284370e+01dB,-1.24550083712162e+02°)
1.04204204204204e+05	(-2.32197346478710e+01dB,-1.24669536385963e+02°)
1.04354354354354e+05	(-2.31450822445677e+01dB,-1.24789534705868e+02°)
1.04504504504504e+05	(-2.30703664920269e+01dB,-1.24910082368681e+02°)
1.04654654654655e+05	(-2.29955867611632e+01dB,-1.25031183102385e+02°)
1.04804804804805e+05	(-2.29207424202651e+01dB,-1.25152840666477e+02°)
1.04954954954955e+05	(-2.28458328349536e+01dB,-1.25275058852311e+02°)
1.05105105105105e+05	(-2.27708573681396e+01dB,-1.25397841483443e+02°)
1.05255255255255e+05	(-2.26958153799808e+01dB,-1.25521192415984e+02°)
1.05405405405405e+05	(-2.26207062278386e+01dB,-1.25645115538959e+02°)
1.05555555555555e+05	(-2.25455292662328e+01dB,-1.25769614774670e+02°)
1.05705705705706e+05	(-2.24702838467975e+01dB,-1.25894694079060e+02°)
1.05855855855856e+05	(-2.23949693182343e+01dB,-1.26020357442093e+02°)
1.06006006006006e+05	(-2.23195850262665e+01dB,-1.26146608888134e+02°)
1.06156156156156e+05	(-2.22441303135912e+01dB,-1.26273452476330e+02°)
1.06306306306306e+05	(-2.21686045198312e+01dB,-1.26400892301008e+02°)
1.06456456456456e+05	(-2.20930069814859e+01dB,-1.26528932492069e+02°)
1.06606606606607e+05	(-2.20173370318818e+01dB,-1.26657577215399e+02°)
1.06756756756757e+05	(-2.19415940011216e+01dB,-1.26786830673273e+02°)
1.06906906906907e+05	(-2.18657772160325e+01dB,-1.26916697104779e+02°)
1.07057057057057e+05	(-2.17898860001137e+01dB,-1.27047180786241e+02°)
1.07207207207207e+05	(-2.17139196734834e+01dB,-1.27178286031650e+02°)
1.07357357357357e+05	(-2.16378775528240e+01dB,-1.27310017193107e+02°)
1.07507507507507e+05	(-2.15617589513271e+01dB,-1.27442378661266e+02°)
1.07657657657658e+05	(-2.14855631786371e+01dB,-1.27575374865789e+02°)
1.07807807807808e+05	(-2.14092895407938e+01dB,-1.27709010275810e+02°)
1.07957957957958e+05	(-2.13329373401744e+01dB,-1.27843289400402e+02°)
1.08108108108108e+05	(-2.12565058754338e+01dB,-1.27978216789057e+02°)
1.08258258258258e+05	(-2.11799944414442e+01dB,-1.28113797032172e+02°)
1.08408408408408e+05	(-2.11034023292335e+01dB,-1.28250034761545e+02°)
1.08558558558558e+05	(-2.10267288259228e+01dB,-1.28386934650873e+02°)
1.08708708708709e+05	(-2.09499732146622e+01dB,-1.28524501416272e+02°)
1.08858858858859e+05	(-2.08731347745658e+01dB,-1.28662739816794e+02°)
1.09009009009009e+05	(-2.07962127806457e+01dB,-1.28801654654961e+02°)
1.09159159159159e+05	(-2.07192065037441e+01dB,-1.28941250777300e+02°)
1.09309309309309e+05	(-2.06421152104646e+01dB,-1.29081533074901e+02°)
1.09459459459459e+05	(-2.05649381631019e+01dB,-1.29222506483974e+02°)
1.09609609609609e+05	(-2.04876746195709e+01dB,-1.29364175986419e+02°)
1.09759759759760e+05	(-2.04103238333331e+01dB,-1.29506546610409e+02°)
1.09909909909910e+05	(-2.03328850533227e+01dB,-1.29649623430986e+02°)
1.10060060060060e+05	(-2.02553575238712e+01dB,-1.29793411570659e+02°)
1.10210210210210e+05	(-2.01777404846295e+01dB,-1.29937916200025e+02°)
1.10360360360360e+05	(-2.01000331704901e+01dB,-1.30083142538391e+02°)
1.10510510510510e+05	(-2.00222348115060e+01dB,-1.30229095854421e+02°)
1.10660660660661e+05	(-1.99443446328096e+01dB,-1.30375781466781e+02°)
1.10810810810811e+05	(-1.98663618545290e+01dB,-1.30523204744808e+02°)
1.10960960960961e+05	(-1.97882856917029e+01dB,-1.30671371109187e+02°)
1.11111111111111e+05	(-1.97101153541937e+01dB,-1.30820286032644e+02°)
1.11261261261261e+05	(-1.96318500465993e+01dB,-1.30969955040648e+02°)
1.11411411411411e+05	(-1.95534889681628e+01dB,-1.31120383712137e+02°)
1.11561561561561e+05	(-1.94750313126798e+01dB,-1.31271577680246e+02°)
1.11711711711712e+05	(-1.93964762684053e+01dB,-1.31423542633064e+02°)
1.11861861861862e+05	(-1.93178230179573e+01dB,-1.31576284314393e+02°)
1.12012012012012e+05	(-1.92390707382187e+01dB,-1.31729808524532e+02°)
1.12162162162162e+05	(-1.91602186002382e+01dB,-1.31884121121076e+02°)
1.12312312312312e+05	(-1.90812657691279e+01dB,-1.32039228019729e+02°)
1.12462462462462e+05	(-1.90022114039595e+01dB,-1.32195135195138e+02°)
1.12612612612612e+05	(-1.89230546576579e+01dB,-1.32351848681741e+02°)
1.12762762762763e+05	(-1.88437946768934e+01dB,-1.32509374574636e+02°)
1.12912912912913e+05	(-1.87644306019707e+01dB,-1.32667719030470e+02°)
1.13063063063063e+05	(-1.86849615667163e+01dB,-1.32826888268344e+02°)
1.13213213213213e+05	(-1.86053866983631e+01dB,-1.32986888570742e+02°)
1.13363363363363e+05	(-1.85257051174328e+01dB,-1.33147726284477e+02°)
1.13513513513513e+05	(-1.84459159376160e+01dB,-1.33309407821660e+02°)
1.13663663663663e+05	(-1.83660182656495e+01dB,-1.33471939660693e+02°)
1.13813813813814e+05	(-1.82860112011910e+01dB,-1.33635328347280e+02°)
1.13963963963964e+05	(-1.82058938366914e+01dB,-1.33799580495465e+02°)
1.14114114114114e+05	(-1.81256652572643e+01dB,-1.33964702788693e+02°)
1.14264264264264e+05	(-1.80453245405524e+01dB,-1.34130701980894e+02°)
1.14414414414414e+05	(-1.79648707565921e+01dB,-1.34297584897597e+02°)
1.14564564564564e+05	(-1.78843029676736e+01dB,-1.34465358437062e+02°)
1.14714714714715e+05	(-1.78036202281995e+01dB,-1.34634029571448e+02°)
1.14864864864865e+05	(-1.77228215845396e+01dB,-1.34803605348003e+02°)
1.15015015015015e+05	(-1.76419060748831e+01dB,-1.34974092890285e+02°)
1.15165165165165e+05	(-1.75608727290868e+01dB,-1.35145499399413e+02°)
1.15315315315315e+05	(-1.74797205685209e+01dB,-1.35317832155344e+02°)
1.15465465465465e+05	(-1.73984486059115e+01dB,-1.35491098518191e+02°)
1.15615615615615e+05	(-1.73170558451786e+01dB,-1.35665305929561e+02°)
1.15765765765766e+05	(-1.72355412812722e+01dB,-1.35840461913939e+02°)
1.15915915915916e+05	(-1.71539039000038e+01dB,-1.36016574080094e+02°)
1.16066066066066e+05	(-1.70721426778742e+01dB,-1.36193650122533e+02°)
1.16216216216216e+05	(-1.69902565818988e+01dB,-1.36371697822980e+02°)
1.16366366366366e+05	(-1.69082445694273e+01dB,-1.36550725051906e+02°)
1.16516516516516e+05	(-1.68261055879611e+01dB,-1.36730739770082e+02°)
1.16666666666666e+05	(-1.67438385749661e+01dB,-1.36911750030189e+02°)
1.16816816816817e+05	(-1.66614424576813e+01dB,-1.37093763978455e+02°)
1.16966966966967e+05	(-1.65789161529235e+01dB,-1.37276789856348e+02°)
1.17117117117117e+05	(-1.64962585668879e+01dB,-1.37460836002303e+02°)
1.17267267267267e+05	(-1.64134685949439e+01dB,-1.37645910853501e+02°)
1.17417417417417e+05	(-1.63305451214273e+01dB,-1.37832022947693e+02°)
1.17567567567567e+05	(-1.62474870194270e+01dB,-1.38019180925073e+02°)
1.17717717717717e+05	(-1.61642931505679e+01dB,-1.38207393530204e+02°)
1.17867867867868e+05	(-1.60809623647888e+01dB,-1.38396669613992e+02°)
1.18018018018018e+05	(-1.59974935001154e+01dB,-1.38587018135716e+02°)
1.18168168168168e+05	(-1.59138853824285e+01dB,-1.38778448165116e+02°)
1.18318318318318e+05	(-1.58301368252275e+01dB,-1.38970968884535e+02°)
1.18468468468468e+05	(-1.57462466293881e+01dB,-1.39164589591125e+02°)
1.18618618618618e+05	(-1.56622135829155e+01dB,-1.39359319699104e+02°)
1.18768768768768e+05	(-1.55780364606917e+01dB,-1.39555168742095e+02°)
1.18918918918919e+05	(-1.54937140242180e+01dB,-1.39752146375510e+02°)
1.19069069069069e+05	(-1.54092450213514e+01dB,-1.39950262379019e+02°)
1.19219219219219e+05	(-1.53246281860357e+01dB,-1.40149526659079e+02°)
1.19369369369369e+05	(-1.52398622380266e+01dB,-1.40349949251540e+02°)
1.19519519519519e+05	(-1.51549458826109e+01dB,-1.40551540324325e+02°)
1.19669669669669e+05	(-1.50698778103207e+01dB,-1.40754310180189e+02°)
1.19819819819820e+05	(-1.49846566966394e+01dB,-1.40958269259554e+02°)
1.19969969969970e+05	(-1.48992812017039e+01dB,-1.41163428143435e+02°)
1.20120120120120e+05	(-1.48137499699988e+01dB,-1.41369797556448e+02°)
1.20270270270270e+05	(-1.47280616300447e+01dB,-1.41577388369903e+02°)
1.20420420420420e+05	(-1.46422147940804e+01dB,-1.41786211604998e+02°)
1.20570570570570e+05	(-1.45562080577374e+01dB,-1.41996278436098e+02°)
1.20720720720720e+05	(-1.44700399997085e+01dB,-1.42207600194125e+02°)
1.20870870870871e+05	(-1.43837091814091e+01dB,-1.42420188370041e+02°)
1.21021021021021e+05	(-1.42972141466317e+01dB,-1.42634054618439e+02°)
1.21171171171171e+05	(-1.42105534211930e+01dB,-1.42849210761246e+02°)
1.21321321321321e+05	(-1.41237255125738e+01dB,-1.43065668791537e+02°)
1.21471471471471e+05	(-1.40367289095515e+01dB,-1.43283440877469e+02°)
1.21621621621621e+05	(-1.39495620818258e+01dB,-1.43502539366335e+02°)
1.21771771771771e+05	(-1.38622234796353e+01dB,-1.43722976788744e+02°)
1.21921921921922e+05	(-1.37747115333681e+01dB,-1.43944765862933e+02°)
1.22072072072072e+05	(-1.36870246531632e+01dB,-1.44167919499213e+02°)
1.22222222222222e+05	(-1.35991612285052e+01dB,-1.44392450804560e+02°)
1.22372372372372e+05	(-1.35111196278095e+01dB,-1.44618373087341e+02°)
1.22522522522522e+05	(-1.34228981980012e+01dB,-1.44845699862203e+02°)
1.22672672672672e+05	(-1.33344952640839e+01dB,-1.45074444855108e+02°)
1.22822822822822e+05	(-1.32459091287019e+01dB,-1.45304622008541e+02°)
1.22972972972973e+05	(-1.31571380716925e+01dB,-1.45536245486869e+02°)
1.23123123123123e+05	(-1.30681803496310e+01dB,-1.45769329681893e+02°)
1.23273273273273e+05	(-1.29790341953665e+01dB,-1.46003889218569e+02°)
1.23423423423423e+05	(-1.28896978175493e+01dB,-1.46239938960915e+02°)
1.23573573573573e+05	(-1.28001694001495e+01dB,-1.46477494018120e+02°)
1.23723723723723e+05	(-1.27104471019670e+01dB,-1.46716569750849e+02°)
1.23873873873874e+05	(-1.26205290561327e+01dB,-1.46957181777754e+02°)
1.24024024024024e+05	(-1.25304133696007e+01dB,-1.47199345982209e+02°)
1.24174174174174e+05	(-1.24400981226317e+01dB,-1.47443078519265e+02°)
1.24324324324324e+05	(-1.23495813682680e+01dB,-1.47688395822835e+02°)
1.24474474474474e+05	(-1.22588611317991e+01dB,-1.47935314613130e+02°)
1.24624624624624e+05	(-1.21679354102186e+01dB,-1.48183851904336e+02°)
1.24774774774774e+05	(-1.20768021716722e+01dB,-1.48434025012556e+02°)
1.24924924924925e+05	(-1.19854593548976e+01dB,-1.48685851564027e+02°)
1.25075075075075e+05	(-1.18939048686545e+01dB,-1.48939349503605e+02°)
1.25225225225225e+05	(-1.18021365911472e+01dB,-1.49194537103557e+02°)
1.25375375375375e+05	(-1.17101523694381e+01dB,-1.49451432972643e+02°)
1.25525525525525e+05	(-1.16179500188525e+01dB,-1.49710056065519e+02°)
1.25675675675675e+05	(-1.15255273223760e+01dB,-1.49970425692462e+02°)
1.25825825825825e+05	(-1.14328820300433e+01dB,-1.50232561529439e+02°)
1.25975975975976e+05	(-1.13400118583192e+01dB,-1.50496483628522e+02°)
1.26126126126126e+05	(-1.12469144894724e+01dB,-1.50762212428673e+02°)
1.26276276276276e+05	(-1.11535875709412e+01dB,-1.51029768766906e+02°)
1.26426426426426e+05	(-1.10600287146933e+01dB,-1.51299173889846e+02°)
1.26576576576576e+05	(-1.09662354965782e+01dB,-1.51570449465698e+02°)
1.26726726726726e+05	(-1.08722054556732e+01dB,-1.51843617596636e+02°)
1.26876876876876e+05	(-1.07779360936247e+01dB,-1.52118700831645e+02°)
1.27027027027027e+05	(-1.06834248739829e+01dB,-1.52395722179816e+02°)
1.27177177177177e+05	(-1.05886692215326e+01dB,-1.52674705124121e+02°)
1.27327327327327e+05	(-1.04936665216197e+01dB,-1.52955673635683e+02°)
1.27477477477477e+05	(-1.03984141194744e+01dB,-1.53238652188573e+02°)
1.27627627627627e+05	(-1.03029093195312e+01dB,-1.53523665775130e+02°)
1.27777777777777e+05	(-1.02071493847476e+01dB,-1.53810739921850e+02°)
1.27927927927928e+05	(-1.01111315359217e+01dB,-1.54099900705857e+02°)
1.28078078078078e+05	(-1.00148529510095e+01dB,-1.54391174771969e+02°)
1.28228228228228e+05	(-9.91831076444414e+00dB,-1.54684589350404e+02°)
1.28378378378378e+05	(-9.82150206645615e+00dB,-1.54980172275134e+02°)
1.28528528528528e+05	(-9.72442390239864e+00dB,-1.55277952002922e+02°)
1.28678678678678e+05	(-9.62707327207657e+00dB,-1.55577957633062e+02°)
1.28828828828828e+05	(-9.52944712908298e+00dB,-1.55880218927865e+02°)
1.28978978978979e+05	(-9.43154238014325e+00dB,-1.56184766333902e+02°)
1.29129129129129e+05	(-9.33335588446953e+00dB,-1.56491631004048e+02°)
1.29279279279279e+05	(-9.23488445312698e+00dB,-1.56800844820360e+02°)
1.29429429429429e+05	(-9.13612484841437e+00dB,-1.57112440417811e+02°)
1.29579579579579e+05	(-9.03707378326090e+00dB,-1.57426451208930e+02°)
1.29729729729729e+05	(-8.93772792064219e+00dB,-1.57742911409374e+02°)
1.29879879879879e+05	(-8.83808387301782e+00dB,-1.58061856064473e+02°)
1.30030030030030e+05	(-8.73813820179370e+00dB,-1.58383321076794e+02°)
1.30180180180180e+05	(-8.63788741681213e+00dB,-1.58707343234753e+02°)
1.30330330330330e+05	(-8.53732797587328e+00dB,-1.59033960242333e+02°)
1.30480480480480e+05	(-8.43645628429167e+00dB,-1.59363210749941e+02°)
1.30630630630630e+05	(-8.33526869449187e+00dB,-1.59695134386459e+02°)
1.30780780780780e+05	(-8.23376150564745e+00dB,-1.60029771792532e+02°)
1.30930930930930e+05	(-8.13193096336839e+00dB,-1.60367164655149e+02°)
1.31081081081081e+05	(-8.02977325944171e+00dB,-1.60707355743566e+02°)
1.31231231231231e+05	(-7.92728453163077e+00dB,-1.61050388946632e+02°)
1.31381381381381e+05	(-7.82446086353953e+00dB,-1.61396309311569e+02°)
1.31531531531531e+05	(-7.72129828454799e+00dB,-1.61745163084268e+02°)
1.31681681681681e+05	(-7.61779276982550e+00dB,-1.62096997751168e+02°)
1.31831831831831e+05	(-7.51394024042998e+00dB,-1.62451862082773e+02°)
1.31981981981982e+05	(-7.40973656350062e+00dB,-1.62809806178888e+02°)
1.32132132132132e+05	(-7.30517755255292e+00dB,-1.63170881515633e+02°)
1.32282282282282e+05	(-7.20025896788548e+00dB,-1.63535140994305e+02°)
1.32432432432432e+05	(-7.09497651710875e+00dB,-1.63902638992184e+02°)
1.32582582582582e+05	(-6.98932585580622e+00dB,-1.64273431415332e+02°)
1.32732732732732e+05	(-6.88330258834052e+00dB,-1.64647575753497e+02°)
1.32882882882882e+05	(-6.77690226881625e+00dB,-1.65025131137175e+02°)
1.33033033033033e+05	(-6.67012040221397e+00dB,-1.65406158396949e+02°)
1.33183183183183e+05	(-6.56295244570960e+00dB,-1.65790720125169e+02°)
1.33333333333333e+05	(-6.45539381019502e+00dB,-1.66178880740087e+02°)
1.33483483483483e+05	(-6.34743986201754e+00dB,-1.66570706552524e+02°)
1.33633633633633e+05	(-6.23908592495595e+00dB,-1.66966265835191e+02°)
1.33783783783783e+05	(-6.13032728245335e+00dB,-1.67365628894747e+02°)
1.33933933933933e+05	(-6.02115918012809e+00dB,-1.67768868146716e+02°)
1.34084084084084e+05	(-5.91157682858595e+00dB,-1.68176058193357e+02°)
1.34234234234234e+05	(-5.80157540655801e+00dB,-1.68587275904613e+02°)
1.34384384384384e+05	(-5.69115006439126e+00dB,-1.69002600502252e+02°)
1.34534534534534e+05	(-5.58029592792064e+00dB,-1.69422113647301e+02°)
1.34684684684684e+05	(-5.46900810275327e+00dB,-1.69845899530920e+02°)
1.34834834834834e+05	(-5.35728167899862e+00dB,-1.70274044968819e+02°)
1.34984984984984e+05	(-5.24511173648014e+00dB,-1.70706639499342e+02°)
1.35135135135135e+05	(-5.13249335046729e+00dB,-1.71143775485366e+02°)
1.35285285285285e+05	(-5.01942159796953e+00dB,-1.71585548220105e+02°)
1.35435435435435e+05	(-4.90589156463701e+00dB,-1.72032056036987e+02°)
1.35585585585585e+05	(-4.79189835231631e+00dB,-1.72483400423701e+02°)
1.35735735735735e+05	(-4.67743708731307e+00dB,-1.72939686140556e+02°)
1.35885885885885e+05	(-4.56250292941727e+00dB,-1.73401021343273e+02°)
1.36036036036036e+05	(-4.44709108175145e+00dB,-1.73867517710334e+02°)
1.36186186186186e+05	(-4.33119680150620e+00dB,-1.74339290575009e+02°)
1.36336336336336e+05	(-4.21481541163266e+00dB,-1.74816459062168e+02°)
1.36486486486486e+05	(-4.09794231356644e+00dB,-1.75299146229993e+02°)
1.36636636636636e+05	(-3.98057300106350e+00dB,-1.75787479216688e+02°)
1.36786786786786e+05	(-3.86270307523384e+00dB,-1.76281589392270e+02°)
1.36936936936936e+05	(-3.74432826086599e+00dB,-1.76781612515527e+02°)
1.37087087087087e+05	(-3.62544442414147e+00dB,-1.77287688896193e+02°)
1.37237237237237e+05	(-3.50604759184580e+00dB,-1.77799963562393e+02°)
1.37387387387387e+05	(-3.38613397219076e+00dB,-1.78318586433375e+02°)
1.37537537537537e+05	(-3.26569997737029e+00dB,-1.78843712497516e+02°)
1.37687687687687e+05	(-3.14474224798131e+00dB,-1.79375501995594e+02°)
1.37837837837837e+05	(-3.02325767945057e+00dB,-1.79914120609225e+02°)
1.37987987987987e+05	(-2.90124345061745e+00dB,1.79540260345621e+02°)
1.38138138138138e+05	(-2.77869705463378e+00dB,1.78987463720184e+02°)
1.38288288288288e+05	(-2.65561633235264e+00dB,1.78427306329769e+02°)
1.38438438438438e+05	(-2.53199950838903e+00dB,1.77859598746169e+02°)
1.38588588588588e+05	(-2.40784523004778e+00dB,1.77284145085969e+02°)
1.38738738738738e+05	(-2.28315260932686e+00dB,1.76700742795184e+02°)
1.38888888888888e+05	(-2.15792126821637e+00dB,1.76109182430712e+02°)
1.39039039039038e+05	(-2.03215138752809e+00dB,1.75509247439230e+02°)
1.39189189189189e+05	(-1.90584375950370e+00dB,1.74900713934260e+02°)
1.39339339339339e+05	(-1.77899984446406e+00dB,1.74283350472259e+02°)
1.39489489489489e+05	(-1.65162183177667e+00dB,1.73656917828750e+02°)
1.39639639639639e+05	(-1.52371270543203e+00dB,1.73021168775669e+02°)
1.39789789789789e+05	(-1.39527631453556e+00dB,1.72375847861286e+02°)
1.39939939939939e+05	(-1.26631744903377e+00dB,1.71720691194286e+02°)
1.40090090090090e+05	(-1.13684192100846e+00dB,1.71055426233809e+02°)
1.40240240240240e+05	(-1.00685665188428e+00dB,1.70379771587524e+02°)
1.40390390390390e+05	(-8.76369765906873e-01dB,1.69693436820104e+02°)
1.40540540540540e+05	(-7.45390690257797e-01dB,1.68996122274781e+02°)
1.40690690690690e+05	(-6.13930262180281e-01dB,1.68287518911032e+02°)
1.40840840840840e+05	(-4.82000843493819e-01dB,1.67567308161832e+02°)
1.40990990990990e+05	(-3.49616442876684e-01dB,1.66835161814353e+02°)
1.41141141141141e+05	(-2.16792846291197e-01dB,1.66090741918456e+02°)
1.41291291291291e+05	(-8.35477559186707e-02dB,1.65333700727855e+02°)
1.41441441441441e+05	(5.00990620471230e-02dB,1.64563680679390e+02°)
1.41591591591591e+05	(1.84125620420193e-01dB,1.63780314416466e+02°)
1.41741741741741e+05	(3.18507544564372e-01dB,1.62983224863386e+02°)
1.41891891891891e+05	(4.53217896207610e-01dB,1.62172025358002e+02°)
1.42042042042041e+05	(5.88226987337451e-01dB,1.61346319850883e+02°)
