Freq.	V(N002,N003)
1.00000000000000e+05	(-1.81054325498522e+01dB,-1.23699406439697e+02°)
1.00150150150150e+05	(-1.80277204414154e+01dB,-1.23834983961242e+02°)
1.00300300300300e+05	(-1.79499254419588e+01dB,-1.23971436505212e+02°)
1.00450450450450e+05	(-1.78720467946351e+01dB,-1.24108773412546e+02°)
1.00600600600601e+05	(-1.77940837434673e+01dB,-1.24247004152931e+02°)
1.00750750750751e+05	(-1.77160355334779e+01dB,-1.24386138326877e+02°)
1.00900900900901e+05	(-1.76379014108245e+01dB,-1.24526185667803e+02°)
1.01051051051051e+05	(-1.75596806229395e+01dB,-1.24667156044174e+02°)
1.01201201201201e+05	(-1.74813724186772e+01dB,-1.24809059461666e+02°)
1.01351351351351e+05	(-1.74029760484657e+01dB,-1.24951906065369e+02°)
1.01501501501501e+05	(-1.73244907644659e+01dB,-1.25095706142023e+02°)
1.01651651651652e+05	(-1.72459158207364e+01dB,-1.25240470122298e+02°)
1.01801801801802e+05	(-1.71672504734051e+01dB,-1.25386208583099e+02°)
1.01951951951952e+05	(-1.70884939808485e+01dB,-1.25532932249921e+02°)
1.02102102102102e+05	(-1.70096456038767e+01dB,-1.25680651999236e+02°)
1.02252252252252e+05	(-1.69307046059271e+01dB,-1.25829378860915e+02°)
1.02402402402402e+05	(-1.68516702532653e+01dB,-1.25979124020694e+02°)
1.02552552552553e+05	(-1.67725418151931e+01dB,-1.26129898822679e+02°)
1.02702702702703e+05	(-1.66933185642663e+01dB,-1.26281714771891e+02°)
1.02852852852853e+05	(-1.66139997765192e+01dB,-1.26434583536841e+02°)
1.03003003003003e+05	(-1.65345847316991e+01dB,-1.26588516952165e+02°)
1.03153153153153e+05	(-1.64550727135090e+01dB,-1.26743527021277e+02°)
1.03303303303303e+05	(-1.63754630098600e+01dB,-1.26899625919082e+02°)
1.03453453453453e+05	(-1.62957549131337e+01dB,-1.27056825994721e+02°)
1.03603603603604e+05	(-1.62159477204533e+01dB,-1.27215139774356e+02°)
1.03753753753754e+05	(-1.61360407339667e+01dB,-1.27374579964006e+02°)
1.03903903903904e+05	(-1.60560332611385e+01dB,-1.27535159452415e+02°)
1.04054054054054e+05	(-1.59759246150547e+01dB,-1.27696891313968e+02°)
1.04204204204204e+05	(-1.58957141147373e+01dB,-1.27859788811650e+02°)
1.04354354354354e+05	(-1.58154010854717e+01dB,-1.28023865400048e+02°)
1.04504504504504e+05	(-1.57349848591456e+01dB,-1.28189134728393e+02°)
1.04654654654655e+05	(-1.56544647746006e+01dB,-1.28355610643644e+02°)
1.04804804804805e+05	(-1.55738401779970e+01dB,-1.28523307193627e+02°)
1.04954954954955e+05	(-1.54931104231919e+01dB,-1.28692238630199e+02°)
1.05105105105105e+05	(-1.54122748721311e+01dB,-1.28862419412471e+02°)
1.05255255255255e+05	(-1.53313328952549e+01dB,-1.29033864210067e+02°)
1.05405405405405e+05	(-1.52502838719196e+01dB,-1.29206587906425e+02°)
1.05555555555555e+05	(-1.51691271908336e+01dB,-1.29380605602147e+02°)
1.05705705705706e+05	(-1.50878622505092e+01dB,-1.29555932618385e+02°)
1.05855855855856e+05	(-1.50064884597314e+01dB,-1.29732584500277e+02°)
1.06006006006006e+05	(-1.49250052380425e+01dB,-1.29910577020417e+02°)
1.06156156156156e+05	(-1.48434120162452e+01dB,-1.30089926182370e+02°)
1.06306306306306e+05	(-1.47617082369228e+01dB,-1.30270648224236e+02°)
1.06456456456456e+05	(-1.46798933549782e+01dB,-1.30452759622241e+02°)
1.06606606606607e+05	(-1.45979668381926e+01dB,-1.30636277094379e+02°)
1.06756756756757e+05	(-1.45159281678029e+01dB,-1.30821217604090e+02°)
1.06906906906907e+05	(-1.44337768391003e+01dB,-1.31007598363975e+02°)
1.07057057057057e+05	(-1.43515123620502e+01dB,-1.31195436839549e+02°)
1.07207207207207e+05	(-1.42691342619328e+01dB,-1.31384750753038e+02°)
1.07357357357357e+05	(-1.41866420800071e+01dB,-1.31575558087198e+02°)
1.07507507507507e+05	(-1.41040353741980e+01dB,-1.31767877089183e+02°)
1.07657657657658e+05	(-1.40213137198066e+01dB,-1.31961726274432e+02°)
1.07807807807808e+05	(-1.39384767102462e+01dB,-1.32157124430601e+02°)
1.07957957957958e+05	(-1.38555239578028e+01dB,-1.32354090621515e+02°)
1.08108108108108e+05	(-1.37724550944225e+01dB,-1.32552644191151e+02°)
1.08258258258258e+05	(-1.36892697725259e+01dB,-1.32752804767650e+02°)
1.08408408408408e+05	(-1.36059676658502e+01dB,-1.32954592267346e+02°)
1.08558558558558e+05	(-1.35225484703202e+01dB,-1.33158026898827e+02°)
1.08708708708709e+05	(-1.34390119049492e+01dB,-1.33363129167002e+02°)
1.08858858858859e+05	(-1.33553577127704e+01dB,-1.33569919877196e+02°)
1.09009009009009e+05	(-1.32715856617997e+01dB,-1.33778420139254e+02°)
1.09159159159159e+05	(-1.31876955460315e+01dB,-1.33988651371650e+02°)
1.09309309309309e+05	(-1.31036871864672e+01dB,-1.34200635305615e+02°)
1.09459459459459e+05	(-1.30195604321795e+01dB,-1.34414393989257e+02°)
1.09609609609609e+05	(-1.29353151614107e+01dB,-1.34629949791684e+02°)
1.09759759759760e+05	(-1.28509512827090e+01dB,-1.34847325407127e+02°)
1.09909909909910e+05	(-1.27664687361019e+01dB,-1.35066543859044e+02°)
1.10060060060060e+05	(-1.26818674943084e+01dB,-1.35287628504223e+02°)
1.10210210210210e+05	(-1.25971475639911e+01dB,-1.35510603036851e+02°)
1.10360360360360e+05	(-1.25123089870501e+01dB,-1.35735491492572e+02°)
1.10510510510510e+05	(-1.24273518419580e+01dB,-1.35962318252506e+02°)
1.10660660660661e+05	(-1.23422762451394e+01dB,-1.36191108047234e+02°)
1.10810810810811e+05	(-1.22570823523948e+01dB,-1.36421885960741e+02°)
1.10960960960961e+05	(-1.21717703603705e+01dB,-1.36654677434311e+02°)
1.11111111111111e+05	(-1.20863405080752e+01dB,-1.36889508270355e+02°)
1.11261261261261e+05	(-1.20007930784460e+01dB,-1.37126404636189e+02°)
1.11411411411411e+05	(-1.19151283999639e+01dB,-1.37365393067721e+02°)
1.11561561561561e+05	(-1.18293468483197e+01dB,-1.37606500473074e+02°)
1.11711711711712e+05	(-1.17434488481337e+01dB,-1.37849754136097e+02°)
1.11861861861862e+05	(-1.16574348747280e+01dB,-1.38095181719793e+02°)
1.12012012012012e+05	(-1.15713054559548e+01dB,-1.38342811269622e+02°)
1.12162162162162e+05	(-1.14850611740812e+01dB,-1.38592671216686e+02°)
1.12312312312312e+05	(-1.13987026677311e+01dB,-1.38844790380777e+02°)
1.12462462462462e+05	(-1.13122306338879e+01dB,-1.39099197973278e+02°)
1.12612612612612e+05	(-1.12256458299566e+01dB,-1.39355923599902e+02°)
1.12762762762763e+05	(-1.11389490758889e+01dB,-1.39614997263260e+02°)
1.12912912912913e+05	(-1.10521412563717e+01dB,-1.39876449365236e+02°)
1.13063063063063e+05	(-1.09652233230801e+01dB,-1.40140310709157e+02°)
1.13213213213213e+05	(-1.08781962969973e+01dB,-1.40406612501747e+02°)
1.13363363363363e+05	(-1.07910612708020e+01dB,-1.40675386354840e+02°)
1.13513513513513e+05	(-1.07038194113247e+01dB,-1.40946664286834e+02°)
1.13663663663663e+05	(-1.06164719620744e+01dB,-1.41220478723882e+02°)
1.13813813813814e+05	(-1.05290202458377e+01dB,-1.41496862500772e+02°)
1.13963963963964e+05	(-1.04414656673494e+01dB,-1.41775848861510e+02°)
1.14114114114114e+05	(-1.03538097160389e+01dB,-1.42057471459550e+02°)
1.14264264264264e+05	(-1.02660539688508e+01dB,-1.42341764357677e+02°)
1.14414414414414e+05	(-1.01782000931428e+01dB,-1.42628762027499e+02°)
1.14564564564564e+05	(-1.00902498496604e+01dB,-1.42918499348533e+02°)
1.14714714714715e+05	(-1.00022050955911e+01dB,-1.43211011606856e+02°)
1.14864864864865e+05	(-9.91406778769710e+00dB,-1.43506334493294e+02°)
1.15015015015015e+05	(-9.82583998552927e+00dB,-1.43804504101120e+02°)
1.15165165165165e+05	(-9.73752385472149e+00dB,-1.44105556923228e+02°)
1.15315315315315e+05	(-9.64912167036699e+00dB,-1.44409529848761e+02°)
1.15465465465465e+05	(-9.56063582047687e+00dB,-1.44716460159149e+02°)
1.15615615615615e+05	(-9.47206880952098e+00dB,-1.45026385523532e+02°)
1.15765765765766e+05	(-9.38342326205183e+00dB,-1.45339343993521e+02°)
1.15915915915916e+05	(-9.29470192641113e+00dB,-1.45655373997284e+02°)
1.16066066066066e+05	(-9.20590767851906e+00dB,-1.45974514332882e+02°)
1.16216216216216e+05	(-9.11704352574601e+00dB,-1.46296804160855e+02°)
1.16366366366366e+05	(-9.02811261086611e+00dB,-1.46622282995986e+02°)
1.16516516516516e+05	(-8.93911821609178e+00dB,-1.46950990698216e+02°)
1.16666666666666e+05	(-8.85006376718856e+00dB,-1.47282967462666e+02°)
1.16816816816817e+05	(-8.76095283766859e+00dB,-1.47618253808707e+02°)
1.16966966966967e+05	(-8.67178915306144e+00dB,-1.47956890568050e+02°)
1.17117117117117e+05	(-8.58257659526025e+00dB,-1.48298918871787e+02°)
1.17267267267267e+05	(-8.49331920694117e+00dB,-1.48644380136357e+02°)
1.17417417417417e+05	(-8.40402119605320e+00dB,-1.48993316048355e+02°)
1.17567567567567e+05	(-8.31468694037591e+00dB,-1.49345768548158e+02°)
1.17717717717717e+05	(-8.22532099214127e+00dB,-1.49701779812303e+02°)
1.17867867867868e+05	(-8.13592808271605e+00dB,-1.50061392234551e+02°)
1.18018018018018e+05	(-8.04651312734042e+00dB,-1.50424648405601e+02°)
1.18168168168168e+05	(-7.95708122991795e+00dB,-1.50791591091375e+02°)
1.18318318318318e+05	(-7.86763768785181e+00dB,-1.51162263209832e+02°)
1.18468468468468e+05	(-7.77818799692124e+00dB,-1.51536707806233e+02°)
1.18618618618618e+05	(-7.68873785619184e+00dB,-1.51914968026810e+02°)
1.18768768768768e+05	(-7.59929317295263e+00dB,-1.52297087090774e+02°)
1.18918918918919e+05	(-7.50986006767223e+00dB,-1.52683108260589e+02°)
1.19069069069069e+05	(-7.42044487896550e+00dB,-1.53073074810462e+02°)
1.19219219219219e+05	(-7.33105416856181e+00dB,-1.53467029992976e+02°)
1.19369369369369e+05	(-7.24169472626473e+00dB,-1.53865017003814e+02°)
1.19519519519519e+05	(-7.15237357489258e+00dB,-1.54267078944492e+02°)
1.19669669669669e+05	(-7.06309797518840e+00dB,-1.54673258783055e+02°)
1.19819819819820e+05	(-6.97387543068660e+00dB,-1.55083599312671e+02°)
1.19969969969970e+05	(-6.88471369252333e+00dB,-1.55498143108054e+02°)
1.20120120120120e+05	(-6.79562076417617e+00dB,-1.55916932479660e+02°)
1.20270270270270e+05	(-6.70660490611791e+00dB,-1.56340009425608e+02°)
1.20420420420420e+05	(-6.61767464036825e+00dB,-1.56767415581255e+02°)
1.20570570570570e+05	(-6.52883875492635e+00dB,-1.57199192166380e+02°)
1.20720720720720e+05	(-6.44010630806565e+00dB,-1.57635379929927e+02°)
1.20870870870871e+05	(-6.35148663247191e+00dB,-1.58076019092266e+02°)
1.21021021021021e+05	(-6.26298933920405e+00dB,-1.58521149284912e+02°)
1.21171171171171e+05	(-6.17462432145601e+00dB,-1.58970809487691e+02°)
1.21321321321321e+05	(-6.08640175809727e+00dB,-1.59425037963294e+02°)
1.21471471471471e+05	(-5.99833211696827e+00dB,-1.59883872189216e+02°)
1.21621621621621e+05	(-5.91042615790563e+00dB,-1.60347348787049e+02°)
1.21771771771771e+05	(-5.82269493547172e+00dB,-1.60815503449111e+02°)
1.21921921921922e+05	(-5.73514980136077e+00dB,-1.61288370862425e+02°)
1.22072072072072e+05	(-5.64780240645429e+00dB,-1.61765984630042e+02°)
1.22222222222222e+05	(-5.56066470249594e+00dB,-1.62248377189713e+02°)
1.22372372372372e+05	(-5.47374894335613e+00dB,-1.62735579729965e+02°)
1.22522522522522e+05	(-5.38706768585504e+00dB,-1.63227622103580e+02°)
1.22672672672672e+05	(-5.30063379011241e+00dB,-1.63724532738560e+02°)
1.22822822822822e+05	(-5.21446041939091e+00dB,-1.64226338546613e+02°)
1.22972972972973e+05	(-5.12856103940004e+00dB,-1.64733064829255e+02°)
1.23123123123123e+05	(-5.04294941702636e+00dB,-1.65244735181608e+02°)
1.23273273273273e+05	(-4.95763961845529e+00dB,-1.65761371394006e+02°)
1.23423423423423e+05	(-4.87264600664985e+00dB,-1.66282993351531e+02°)
1.23573573573573e+05	(-4.78798323815111e+00dB,-1.66809618931611e+02°)
1.23723723723723e+05	(-4.70366625916505e+00dB,-1.67341263899854e+02°)
1.23873873873874e+05	(-4.61971030090081e+00dB,-1.67877941804290e+02°)
1.24024024024024e+05	(-4.53613087412577e+00dB,-1.68419663868205e+02°)
1.24174174174174e+05	(-4.45294376290297e+00dB,-1.68966438881808e+02°)
1.24324324324324e+05	(-4.37016501747773e+00dB,-1.69518273092954e+02°)
1.24474474474474e+05	(-4.28781094628084e+00dB,-1.70075170097185e+02°)
1.24624624624624e+05	(-4.20589810701725e+00dB,-1.70637130727379e+02°)
1.24774774774774e+05	(-4.12444329681074e+00dB,-1.71204152943299e+02°)
1.24924924924925e+05	(-4.04346354137680e+00dB,-1.71776231721379e+02°)
1.25075075075075e+05	(-3.96297608319819e+00dB,-1.72353358945091e+02°)
1.25225225225225e+05	(-3.88299836868003e+00dB,-1.72935523296263e+02°)
1.25375375375375e+05	(-3.80354803426427e+00dB,-1.73522710147736e+02°)
1.25525525525525e+05	(-3.72464289148630e+00dB,-1.74114901457784e+02°)
1.25675675675675e+05	(-3.64630091096031e+00dB,-1.74712075666716e+02°)
1.25825825825825e+05	(-3.56854020528334e+00dB,-1.75314207596124e+02°)
1.25975975975976e+05	(-3.49137901085286e+00dB,-1.75921268351234e+02°)
1.26126126126126e+05	(-3.41483566859641e+00dB,-1.76533225226866e+02°)
1.26276276276276e+05	(-3.33892860361772e+00dB,-1.77150041617483e+02°)
1.26426426426426e+05	(-3.26367630376802e+00dB,-1.77771676931852e+02°)
1.26576576576576e+05	(-3.18909729715753e+00dB,-1.78398086512844e+02°)
1.26726726726726e+05	(-3.11521012862732e+00dB,-1.79029221562907e+02°)
1.26876876876876e+05	(-3.04203333520857e+00dB,-1.79665029075731e+02°)
1.27027027027027e+05	(-2.96958542060182e+00dB,1.79694548225327e+02°)
1.27177177177177e+05	(-2.89788482871621e+00dB,1.79049571941547e+02°)
1.27327327327327e+05	(-2.82694991631476e+00dB,1.78400108045328e+02°)
1.27477477477477e+05	(-2.75679892481896e+00dB,1.77746226918334e+02°)
1.27627627627627e+05	(-2.68744995133303e+00dB,1.77088003380780e+02°)
1.27777777777777e+05	(-2.61892091895493e+00dB,1.76425516711384e+02°)
1.27927927927928e+05	(-2.55122954644822e+00dB,1.75758850657477e+02°)
1.28078078078078e+05	(-2.48439331735607e+00dB,1.75088093434864e+02°)
1.28228228228228e+05	(-2.41842944864486e+00dB,1.74413337716971e+02°)
1.28378378378378e+05	(-2.35335485897211e+00dB,1.73734680612931e+02°)
1.28528528528528e+05	(-2.28918613667891e+00dB,1.73052223634242e+02°)
1.28678678678678e+05	(-2.22593950761332e+00dB,1.72366072649688e+02°)
1.28828828828828e+05	(-2.16363080289668e+00dB,1.71676337828289e+02°)
1.28978978978979e+05	(-2.10227542674941e+00dB,1.70983133570049e+02°)
1.29129129129129e+05	(-2.04188832449740e+00dB,1.70286578424366e+02°)
1.29279279279279e+05	(-1.98248395088374e+00dB,1.69586794996006e+02°)
1.29429429429429e+05	(-1.92407623881364e+00dB,1.68883909838614e+02°)
1.29579579579579e+05	(-1.86667856866220e+00dB,1.68178053335790e+02°)
1.29729729729729e+05	(-1.81030373827674e+00dB,1.67469359569832e+02°)
1.29879879879879e+05	(-1.75496393380515e+00dB,1.66757966178323e+02°)
1.30030030030030e+05	(-1.70067070148206e+00dB,1.66044014198781e+02°)
1.30180180180180e+05	(-1.64743492050260e+00dB,1.65327647901704e+02°)
1.30330330330330e+05	(-1.59526677711173e+00dB,1.64609014612368e+02°)
1.30480480480480e+05	(-1.54417574003336e+00dB,1.63888264521843e+02°)
1.30630630630630e+05	(-1.49417053735990e+00dB,1.63165550487728e+02°)
1.30780780780780e+05	(-1.44525913501638e+00dB,1.62441027825207e+02°)
1.30930930930930e+05	(-1.39744871690868e+00dB,1.61714854089056e+02°)
1.31081081081081e+05	(-1.35074566685689e+00dB,1.60987188847322e+02°)
1.31231231231231e+05	(-1.30515555240745e+00dB,1.60258193447427e+02°)
1.31381381381381e+05	(-1.26068311060900e+00dB,1.59528030775528e+02°)
1.31531531531531e+05	(-1.21733223582697e+00dB,1.58796865009985e+02°)
1.31681681681681e+05	(-1.17510596966185e+00dB,1.58064861369844e+02°)
1.31831831831831e+05	(-1.13400649302519e+00dB,1.57332185859283e+02°)
1.31981981981982e+05	(-1.09403512041623e+00dB,1.56599005008983e+02°)
1.32132132132132e+05	(-1.05519229643009e+00dB,1.55865485615422e+02°)
1.32282282282282e+05	(-1.01747759451647e+00dB,1.55131794479090e+02°)
1.32432432432432e+05	(-9.80889717996018e-01dB,1.54398098142652e+02°)
1.32582582582582e+05	(-9.45426503328493e-01dB,1.53664562630056e+02°)
1.32732732732732e+05	(-9.11084925615618e-01dB,1.52931353187621e+02°)
1.32882882882882e+05	(-8.77861106308514e-01dB,1.52198634028065e+02°)
1.33033033033033e+05	(-8.45750323078772e-01dB,1.51466568078475e+02°)
1.33183183183183e+05	(-8.14747021799982e-01dB,1.50735316733149e+02°)
1.33333333333333e+05	(-7.84844830576256e-01dB,1.50005039612220e+02°)
1.33483483483483e+05	(-7.56036575743773e-01dB,1.49275894326936e+02°)
1.33633633633633e+05	(-7.28314299761511e-01dB,1.48548036252416e+02°)
1.33783783783783e+05	(-7.01669280898809e-01dB,1.47821618308655e+02°)
1.33933933933933e+05	(-6.76092054618902e-01dB,1.47096790750486e+02°)
1.34084084084084e+05	(-6.51572436550728e-01dB,1.46373700967168e+02°)
1.34234234234234e+05	(-6.28099546934547e-01dB,1.45652493292169e+02°)
1.34384384384384e+05	(-6.05661836422006e-01dB,1.44933308823698e+02°)
1.34534534534534e+05	(-5.84247113106433e-01dB,1.44216285256416e+02°)
1.34684684684684e+05	(-5.63842570656182e-01dB,1.43501556724723e+02°)
1.34834834834834e+05	(-5.44434817420902e-01dB,1.42789253657948e+02°)
1.34984984984984e+05	(-5.26009906379658e-01dB,1.42079502647670e+02°)
1.35135135135135e+05	(-5.08553365798931e-01dB,1.41372426327360e+02°)
1.35285285285285e+05	(-4.92050230469051e-01dB,1.40668143264447e+02°)
1.35435435435435e+05	(-4.76485073389025e-01dB,1.39966767864852e+02°)
1.35585585585585e+05	(-4.61842037771637e-01dB,1.39268410289959e+02°)
1.35735735735735e+05	(-4.48104869243741e-01dB,1.38573176385947e+02°)
1.35885885885885e+05	(-4.35256948120124e-01dB,1.37881167625338e+02°)
1.36036036036036e+05	(-4.23281321633868e-01dB,1.37192481060550e+02°)
1.36186186186186e+05	(-4.12160736010596e-01dB,1.36507209289221e+02°)
1.36336336336336e+05	(-4.01877668279731e-01dB,1.35825440430988e+02°)
1.36486486486486e+05	(-3.92414357721439e-01dB,1.35147258115391e+02°)
1.36636636636636e+05	(-3.83752836854284e-01dB,1.34472741480521e+02°)
1.36786786786786e+05	(-3.75874961874950e-01dB,1.33801965181982e+02°)
1.36936936936936e+05	(-3.68762442468276e-01dB,1.33134999411736e+02°)
1.37087087087087e+05	(-3.62396870912554e-01dB,1.32471909926360e+02°)
1.37237237237237e+05	(-3.56759750412072e-01dB,1.31812758084202e+02°)
1.37387387387387e+05	(-3.51832522595913e-01dB,1.31157600890951e+02°)
1.37537537537537e+05	(-3.47596594129014e-01dB,1.30506491053082e+02°)
1.37687687687687e+05	(-3.44033362388246e-01dB,1.29859477038646e+02°)
1.37837837837837e+05	(-3.41124240163176e-01dB,1.29216603144871e+02°)
1.37987987987987e+05	(-3.38850679347901e-01dB,1.28577909572035e+02°)
1.38138138138138e+05	(-3.37194193596289e-01dB,1.27943432503066e+02°)
1.38288288288288e+05	(-3.36136379919717e-01dB,1.27313204188347e+02°)
1.38438438438438e+05	(-3.35658939211752e-01dB,1.26687253035193e+02°)
1.38588588588588e+05	(-3.35743695690108e-01dB,1.26065603701489e+02°)
1.38738738738738e+05	(-3.36372615251387e-01dB,1.25448277192979e+02°)
1.38888888888888e+05	(-3.37527822738978e-01dB,1.24835290963736e+02°)
1.39039039039038e+05	(-3.39191618129283e-01dB,1.24226659019311e+02°)
1.39189189189189e+05	(-3.41346491645378e-01dB,1.23622392022144e+02°)
1.39339339339339e+05	(-3.43975137811412e-01dB,1.23022497398763e+02°)
1.39489489489489e+05	(-3.47060468464456e-01dB,1.22426979448394e+02°)
1.39639639639639e+05	(-3.50585624743597e-01dB,1.21835839452552e+02°)
1.39789789789789e+05	(-3.54533988079237e-01dB,1.21249075785270e+02°)
1.39939939939939e+05	(-3.58889190207661e-01dB,1.20666684023594e+02°)
1.40090090090090e+05	(-3.63635122238599e-01dB,1.20088657058032e+02°)
1.40240240240240e+05	(-3.68755942804944e-01dB,1.19514985202631e+02°)
1.40390390390390e+05	(-3.74236085325743e-01dB,1.18945656304421e+02°)
1.40540540540540e+05	(-3.80060264414673e-01dB,1.18380655851941e+02°)
1.40690690690690e+05	(-3.86213481467388e-01dB,1.17819967082619e+02°)
1.40840840840840e+05	(-3.92681029461765e-01dB,1.17263571088788e+02°)
1.40990990990990e+05	(-3.99448497005850e-01dB,1.16711446922120e+02°)
1.41141141141141e+05	(-4.06501771668431e-01dB,1.16163571696326e+02°)
1.41291291291291e+05	(-4.13827042627554e-01dB,1.15619920687932e+02°)
1.41441441441441e+05	(-4.21410802671996e-01dB,1.15080467435010e+02°)
1.41591591591591e+05	(-4.29239849590772e-01dB,1.14545183833733e+02°)
1.41741741741741e+05	(-4.37301286985210e-01dB,1.14014040232632e+02°)
1.41891891891891e+05	(-4.45582524537787e-01dB,1.13487005524490e+02°)
1.42042042042041e+05	(-4.54071277771234e-01dB,1.12964047235772e+02°)
1.42192192192192e+05	(-4.62755567330742e-01dB,1.12445131613529e+02°)
