Freq.	V(N002,N003)
1.00000000000000e+05	(-2.00306223163416e+01dB,-1.22763446789255e+02°)
1.00150150150150e+05	(-1.99548370520171e+01dB,-1.22886050985161e+02°)
1.00300300300300e+05	(-1.98789838708118e+01dB,-1.23009340554539e+02°)
1.00450450450450e+05	(-1.98030620761361e+01dB,-1.23133321832339e+02°)
1.00600600600601e+05	(-1.97270709703681e+01dB,-1.23258001230671e+02°)
1.00750750750751e+05	(-1.96510098548843e+01dB,-1.23383385239937e+02°)
1.00900900900901e+05	(-1.95748780300913e+01dB,-1.23509480429994e+02°)
1.01051051051051e+05	(-1.94986747954597e+01dB,-1.23636293451329e+02°)
1.01201201201201e+05	(-1.94223994495598e+01dB,-1.23763831036257e+02°)
1.01351351351351e+05	(-1.93460512900996e+01dB,-1.23892100000135e+02°)
1.01501501501501e+05	(-1.92696296139647e+01dB,-1.24021107242600e+02°)
1.01651651651652e+05	(-1.91931337172597e+01dB,-1.24150859748825e+02°)
1.01801801801802e+05	(-1.91165628953528e+01dB,-1.24281364590798e+02°)
1.01951951951952e+05	(-1.90399164429222e+01dB,-1.24412628928616e+02°)
1.02102102102102e+05	(-1.89631936540044e+01dB,-1.24544660011810e+02°)
1.02252252252252e+05	(-1.88863938220459e+01dB,-1.24677465180681e+02°)
1.02402402402402e+05	(-1.88095162399562e+01dB,-1.24811051867669e+02°)
1.02552552552553e+05	(-1.87325602001645e+01dB,-1.24945427598734e+02°)
1.02702702702703e+05	(-1.86555249946785e+01dB,-1.25080599994767e+02°)
1.02852852852853e+05	(-1.85784099151456e+01dB,-1.25216576773021e+02°)
1.03003003003003e+05	(-1.85012142529182e+01dB,-1.25353365748566e+02°)
1.03153153153153e+05	(-1.84239372991201e+01dB,-1.25490974835768e+02°)
1.03303303303303e+05	(-1.83465783447178e+01dB,-1.25629412049794e+02°)
1.03453453453453e+05	(-1.82691366805937e+01dB,-1.25768685508135e+02°)
1.03603603603604e+05	(-1.81916115976229e+01dB,-1.25908803432165e+02°)
1.03753753753754e+05	(-1.81140023867538e+01dB,-1.26049774148712e+02°)
1.03903903903904e+05	(-1.80363083390910e+01dB,-1.26191606091669e+02°)
1.04054054054054e+05	(-1.79585287459836e+01dB,-1.26334307803617e+02°)
1.04204204204204e+05	(-1.78806628991152e+01dB,-1.26477887937486e+02°)
1.04354354354354e+05	(-1.78027100905991e+01dB,-1.26622355258235e+02°)
1.04504504504504e+05	(-1.77246696130771e+01dB,-1.26767718644565e+02°)
1.04654654654655e+05	(-1.76465407598222e+01dB,-1.26913987090653e+02°)
1.04804804804805e+05	(-1.75683228248455e+01dB,-1.27061169707924e+02°)
1.04954954954955e+05	(-1.74900151030078e+01dB,-1.27209275726836e+02°)
1.05105105105105e+05	(-1.74116168901354e+01dB,-1.27358314498714e+02°)
1.05255255255255e+05	(-1.73331274831404e+01dB,-1.27508295497592e+02°)
1.05405405405405e+05	(-1.72545461801468e+01dB,-1.27659228322102e+02°)
1.05555555555555e+05	(-1.71758722806198e+01dB,-1.27811122697381e+02°)
1.05705705705706e+05	(-1.70971050855019e+01dB,-1.27963988477015e+02°)
1.05855855855856e+05	(-1.70182438973537e+01dB,-1.28117835645011e+02°)
1.06006006006006e+05	(-1.69392880204996e+01dB,-1.28272674317801e+02°)
1.06156156156156e+05	(-1.68602367611802e+01dB,-1.28428514746276e+02°)
1.06306306306306e+05	(-1.67810894277095e+01dB,-1.28585367317854e+02°)
1.06456456456456e+05	(-1.67018453306393e+01dB,-1.28743242558577e+02°)
1.06606606606607e+05	(-1.66225037829286e+01dB,-1.28902151135247e+02°)
1.06756756756757e+05	(-1.65430641001201e+01dB,-1.29062103857582e+02°)
1.06906906906907e+05	(-1.64635256005237e+01dB,-1.29223111680424e+02°)
1.07057057057057e+05	(-1.63838876054059e+01dB,-1.29385185705959e+02°)
1.07207207207207e+05	(-1.63041494391870e+01dB,-1.29548337185992e+02°)
1.07357357357357e+05	(-1.62243104296458e+01dB,-1.29712577524239e+02°)
1.07507507507507e+05	(-1.61443699081308e+01dB,-1.29877918278663e+02°)
1.07657657657658e+05	(-1.60643272097806e+01dB,-1.30044371163843e+02°)
1.07807807807808e+05	(-1.59841816737514e+01dB,-1.30211948053377e+02°)
1.07957957957958e+05	(-1.59039326434531e+01dB,-1.30380660982319e+02°)
1.08108108108108e+05	(-1.58235794667942e+01dB,-1.30550522149656e+02°)
1.08258258258258e+05	(-1.57431214964351e+01dB,-1.30721543920815e+02°)
1.08408408408408e+05	(-1.56625580900513e+01dB,-1.30893738830212e+02°)
1.08558558558558e+05	(-1.55818886106054e+01dB,-1.31067119583831e+02°)
1.08708708708709e+05	(-1.55011124266293e+01dB,-1.31241699061847e+02°)
1.08858858858859e+05	(-1.54202289125161e+01dB,-1.31417490321276e+02°)
1.09009009009009e+05	(-1.53392374488227e+01dB,-1.31594506598671e+02°)
1.09159159159159e+05	(-1.52581374225837e+01dB,-1.31772761312847e+02°)
1.09309309309309e+05	(-1.51769282276349e+01dB,-1.31952268067649e+02°)
1.09459459459459e+05	(-1.50956092649500e+01dB,-1.32133040654753e+02°)
1.09609609609609e+05	(-1.50141799429877e+01dB,-1.32315093056504e+02°)
1.09759759759760e+05	(-1.49326396780524e+01dB,-1.32498439448794e+02°)
1.09909909909910e+05	(-1.48509878946659e+01dB,-1.32683094203970e+02°)
1.10060060060060e+05	(-1.47692240259538e+01dB,-1.32869071893787e+02°)
1.10210210210210e+05	(-1.46873475140440e+01dB,-1.33056387292393e+02°)
1.10360360360360e+05	(-1.46053578104797e+01dB,-1.33245055379347e+02°)
1.10510510510510e+05	(-1.45232543766466e+01dB,-1.33435091342679e+02°)
1.10660660660661e+05	(-1.44410366842151e+01dB,-1.33626510581982e+02°)
1.10810810810811e+05	(-1.43587042155968e+01dB,-1.33819328711541e+02°)
1.10960960960961e+05	(-1.42762564644182e+01dB,-1.34013561563496e+02°)
1.11111111111111e+05	(-1.41936929360091e+01dB,-1.34209225191035e+02°)
1.11261261261261e+05	(-1.41110131479087e+01dB,-1.34406335871630e+02°)
1.11411411411411e+05	(-1.40282166303887e+01dB,-1.34604910110300e+02°)
1.11561561561561e+05	(-1.39453029269939e+01dB,-1.34804964642903e+02°)
1.11711711711712e+05	(-1.38622715951016e+01dB,-1.35006516439466e+02°)
1.11861861861862e+05	(-1.37791222064993e+01dB,-1.35209582707545e+02°)
1.12012012012012e+05	(-1.36958543479828e+01dB,-1.35414180895609e+02°)
1.12162162162162e+05	(-1.36124676219732e+01dB,-1.35620328696456e+02°)
1.12312312312312e+05	(-1.35289616471560e+01dB,-1.35828044050662e+02°)
1.12462462462462e+05	(-1.34453360591403e+01dB,-1.36037345150041e+02°)
1.12612612612612e+05	(-1.33615905111407e+01dB,-1.36248250441145e+02°)
1.12762762762763e+05	(-1.32777246746819e+01dB,-1.36460778628779e+02°)
1.12912912912913e+05	(-1.31937382403265e+01dB,-1.36674948679538e+02°)
1.13063063063063e+05	(-1.31096309184267e+01dB,-1.36890779825366e+02°)
1.13213213213213e+05	(-1.30254024399013e+01dB,-1.37108291567126e+02°)
1.13363363363363e+05	(-1.29410525570379e+01dB,-1.37327503678195e+02°)
1.13513513513513e+05	(-1.28565810443213e+01dB,-1.37548436208065e+02°)
1.13663663663663e+05	(-1.27719876992894e+01dB,-1.37771109485953e+02°)
1.13813813813814e+05	(-1.26872723434170e+01dB,-1.37995544124427e+02°)
1.13963963963964e+05	(-1.26024348230278e+01dB,-1.38221761023029e+02°)
1.14114114114114e+05	(-1.25174750102363e+01dB,-1.38449781371903e+02°)
1.14264264264264e+05	(-1.24323928039204e+01dB,-1.38679626655423e+02°)
1.14414414414414e+05	(-1.23471881307250e+01dB,-1.38911318655813e+02°)
1.14564564564564e+05	(-1.22618609460974e+01dB,-1.39144879456763e+02°)
1.14714714714715e+05	(-1.21764112353567e+01dB,-1.39380331447024e+02°)
1.14864864864865e+05	(-1.20908390147966e+01dB,-1.39617697324000e+02°)
1.15015015015015e+05	(-1.20051443328233e+01dB,-1.39857000097302e+02°)
1.15165165165165e+05	(-1.19193272711295e+01dB,-1.40098263092290e+02°)
1.15315315315315e+05	(-1.18333879459055e+01dB,-1.40341509953579e+02°)
1.15465465465465e+05	(-1.17473265090877e+01dB,-1.40586764648502e+02°)
1.15615615615615e+05	(-1.16611431496466e+01dB,-1.40834051470541e+02°)
1.15765765765766e+05	(-1.15748380949150e+01dB,-1.41083395042703e+02°)
1.15915915915916e+05	(-1.14884116119566e+01dB,-1.41334820320846e+02°)
1.16066066066066e+05	(-1.14018640089771e+01dB,-1.41588352596935e+02°)
1.16216216216216e+05	(-1.13151956367789e+01dB,-1.41844017502236e+02°)
1.16366366366366e+05	(-1.12284068902599e+01dB,-1.42101841010434e+02°)
1.16516516516516e+05	(-1.11414982099571e+01dB,-1.42361849440660e+02°)
1.16666666666666e+05	(-1.10544700836379e+01dB,-1.42624069460430e+02°)
1.16816816816817e+05	(-1.09673230479386e+01dB,-1.42888528088481e+02°)
1.16966966966967e+05	(-1.08800576900512e+01dB,-1.43155252697490e+02°)
1.17117117117117e+05	(-1.07926746494613e+01dB,-1.43424271016677e+02°)
1.17267267267267e+05	(-1.07051746197363e+01dB,-1.43695611134274e+02°)
1.17417417417417e+05	(-1.06175583503660e+01dB,-1.43969301499848e+02°)
1.17567567567567e+05	(-1.05298266486572e+01dB,-1.44245370926470e+02°)
1.17717717717717e+05	(-1.04419803816819e+01dB,-1.44523848592714e+02°)
1.17867867867868e+05	(-1.03540204782823e+01dB,-1.44804764044478e+02°)
1.18018018018018e+05	(-1.02659479311319e+01dB,-1.45088147196611e+02°)
1.18168168168168e+05	(-1.01777637988550e+01dB,-1.45374028334323e+02°)
1.18318318318318e+05	(-1.00894692082049e+01dB,-1.45662438114382e+02°)
1.18468468468468e+05	(-1.00010653563028e+01dB,-1.45953407566062e+02°)
1.18618618618618e+05	(-9.91255351293712e+00dB,-1.46246968091839e+02°)
1.18768768768768e+05	(-9.82393502292608e+00dB,-1.46543151467810e+02°)
1.18918918918919e+05	(-9.73521130854268e+00dB,-1.46841989843822e+02°)
1.19069069069069e+05	(-9.64638387200423e+00dB,-1.47143515743291e+02°)
1.19219219219219e+05	(-9.55745429802711e+00dB,-1.47447762062679e+02°)
1.19369369369369e+05	(-9.46842425644721e+00dB,-1.47754762070636e+02°)
1.19519519519519e+05	(-9.37929550490730e+00dB,-1.48064549406751e+02°)
1.19669669669669e+05	(-9.29006989161203e+00dB,-1.48377158079917e+02°)
1.19819819819820e+05	(-9.20074935815077e+00dB,-1.48692622466267e+02°)
1.19969969969970e+05	(-9.11133594238953e+00dB,-1.49010977306673e+02°)
1.20120120120120e+05	(-9.02183178143195e+00dB,-1.49332257703765e+02°)
1.20270270270270e+05	(-8.93223911464991e+00dB,-1.49656499118454e+02°)
1.20420420420420e+05	(-8.84256028678415e+00dB,-1.49983737365931e+02°)
1.20570570570570e+05	(-8.75279775111497e+00dB,-1.50314008611107e+02°)
1.20720720720720e+05	(-8.66295407270283e+00dB,-1.50647349363470e+02°)
1.20870870870871e+05	(-8.57303193169924e+00dB,-1.50983796471317e+02°)
1.21021021021021e+05	(-8.48303412672720e+00dB,-1.51323387115346e+02°)
1.21171171171171e+05	(-8.39296357833099e+00dB,-1.51666158801555e+02°)
1.21321321321321e+05	(-8.30282333249455e+00dB,-1.52012149353425e+02°)
1.21471471471471e+05	(-8.21261656422788e+00dB,-1.52361396903352e+02°)
1.21621621621621e+05	(-8.12234658122008e+00dB,-1.52713939883275e+02°)
1.21771771771771e+05	(-8.03201682755816e+00dB,-1.53069817014485e+02°)
1.21921921921922e+05	(-7.94163088750967e+00dB,-1.53429067296552e+02°)
1.22072072072072e+05	(-7.85119248936788e+00dB,-1.53791729995350e+02°)
1.22222222222222e+05	(-7.76070550935701e+00dB,-1.54157844630113e+02°)
1.22372372372372e+05	(-7.67017397559538e+00dB,-1.54527450959511e+02°)
1.22522522522522e+05	(-7.57960207211380e+00dB,-1.54900588966663e+02°)
1.22672672672672e+05	(-7.48899414292618e+00dB,-1.55277298843083e+02°)
1.22822822822822e+05	(-7.39835469614874e+00dB,-1.55657620971473e+02°)
1.22972972972973e+05	(-7.30768840816441e+00dB,-1.56041595907343e+02°)
1.23123123123123e+05	(-7.21700012782796e+00dB,-1.56429264359402e+02°)
1.23273273273273e+05	(-7.12629488070731e+00dB,-1.56820667168659e+02°)
1.23423423423423e+05	(-7.03557787335587e+00dB,-1.57215845286205e+02°)
1.23573573573573e+05	(-6.94485449761053e+00dB,-1.57614839749604e+02°)
1.23723723723723e+05	(-6.85413033490888e+00dB,-1.58017691657858e+02°)
1.23873873873874e+05	(-6.76341116061932e+00dB,-1.58424442144886e+02°)
1.24024024024024e+05	(-6.67270294837672e+00dB,-1.58835132351466e+02°)
1.24174174174174e+05	(-6.58201187441582e+00dB,-1.59249803395589e+02°)
1.24324324324324e+05	(-6.49134432189409e+00dB,-1.59668496341173e+02°)
1.24474474474474e+05	(-6.40070688519478e+00dB,-1.60091252165083e+02°)
1.24624624624624e+05	(-6.31010637420067e+00dB,-1.60518111722411e+02°)
1.24774774774774e+05	(-6.21954981852787e+00dB,-1.60949115709963e+02°)
1.24924924924925e+05	(-6.12904447170860e+00dB,-1.61384304627891e+02°)
1.25075075075075e+05	(-6.03859781531112e+00dB,-1.61823718739450e+02°)
1.25225225225225e+05	(-5.94821756298400e+00dB,-1.62267398028800e+02°)
1.25375375375375e+05	(-5.85791166441124e+00dB,-1.62715382156839e+02°)
1.25525525525525e+05	(-5.76768830916402e+00dB,-1.63167710414990e+02°)
1.25675675675675e+05	(-5.67755593043404e+00dB,-1.63624421676941e+02°)
1.25825825825825e+05	(-5.58752320863206e+00dB,-1.64085554348269e+02°)
1.25975975975976e+05	(-5.49759907483544e+00dB,-1.64551146313922e+02°)
1.26126126126126e+05	(-5.40779271406610e+00dB,-1.65021234883546e+02°)
1.26276276276276e+05	(-5.31811356838116e+00dB,-1.65495856734601e+02°)
1.26426426426426e+05	(-5.22857133975610e+00dB,-1.65975047853277e+02°)
1.26576576576576e+05	(-5.13917599274038e+00dB,-1.66458843473167e+02°)
1.26726726726726e+05	(-5.04993775686414e+00dB,-1.66947278011707e+02°)
1.26876876876876e+05	(-4.96086712877383e+00dB,-1.67440385004366e+02°)
1.27027027027027e+05	(-4.87197487407378e+00dB,-1.67938197036599e+02°)
1.27177177177177e+05	(-4.78327202885009e+00dB,-1.68440745673571e+02°)
1.27327327327327e+05	(-4.69476990085182e+00dB,-1.68948061387671e+02°)
1.27477477477477e+05	(-4.60648007030454e+00dB,-1.69460173483841e+02°)
1.27627627627627e+05	(-4.51841439032995e+00dB,-1.69977110022773e+02°)
1.27777777777777e+05	(-4.43058498694491e+00dB,-1.70498897742002e+02°)
1.27927927927928e+05	(-4.34300425861249e+00dB,-1.71025561974968e+02°)
1.28078078078078e+05	(-4.25568487531755e+00dB,-1.71557126568118e+02°)
1.28228228228228e+05	(-4.16863977713808e+00dB,-1.72093613796126e+02°)
1.28378378378378e+05	(-4.08188217228436e+00dB,-1.72635044275331e+02°)
1.28528528528528e+05	(-3.99542553457683e+00dB,-1.73181436875497e+02°)
1.28678678678678e+05	(-3.90928360033382e+00dB,-1.73732808630040e+02°)
1.28828828828828e+05	(-3.82347036464060e+00dB,-1.74289174644829e+02°)
1.28978978978979e+05	(-3.73800007697086e+00dB,-1.74850548005744e+02°)
1.29129129129129e+05	(-3.65288723613266e+00dB,-1.75416939685153e+02°)
1.29279279279279e+05	(-3.56814658451083e+00dB,-1.75988358447486e+02°)
1.29429429429429e+05	(-3.48379310157924e+00dB,-1.76564810754125e+02°)
1.29579579579579e+05	(-3.39984199665623e+00dB,-1.77146300667827e+02°)
1.29729729729729e+05	(-3.31630870087887e+00dB,-1.77732829756909e+02°)
1.29879879879879e+05	(-3.23320885837205e+00dB,-1.78324396999469e+02°)
1.30030030030030e+05	(-3.15055831659036e+00dB,-1.78920998687904e+02°)
1.30180180180180e+05	(-3.06837311581267e+00dB,-1.79522628334017e+02°)
1.30330330330330e+05	(-2.98666947777111e+00dB,1.79870723424959e+02°)
1.30480480480480e+05	(-2.90546379339863e+00dB,1.79259068919129e+02°)
1.30630630630630e+05	(-2.82477260968195e+00dB,1.78642423537114e+02°)
1.30780780780780e+05	(-2.74461261560943e+00dB,1.78020805815307e+02°)
1.30930930930930e+05	(-2.66500062720665e+00dB,1.77394237524827e+02°)
1.31081081081081e+05	(-2.58595357165591e+00dB,1.76762743755776e+02°)
1.31231231231231e+05	(-2.50748847049933e+00dB,1.76126352998405e+02°)
1.31381381381381e+05	(-2.42962242192948e+00dB,1.75485097220778e+02°)
1.31531531531531e+05	(-2.35237258217541e+00dB,1.74839011942506e+02°)
1.31681681681681e+05	(-2.27575614599651e+00dB,1.74188136304125e+02°)
1.31831831831831e+05	(-2.19979032630130e+00dB,1.73532513131683e+02°)
1.31981981981982e+05	(-2.12449233291311e+00dB,1.72872188996092e+02°)
1.32132132132132e+05	(-2.04987935050968e+00dB,1.72207214266807e+02°)
1.32282282282282e+05	(-1.97596851576883e+00dB,1.71537643159382e+02°)
1.32432432432432e+05	(-1.90277689375825e+00dB,1.70863533776486e+02°)
1.32582582582582e+05	(-1.83032145361187e+00dB,1.70184948141920e+02°)
1.32732732732732e+05	(-1.75861904354232e+00dB,1.69501952227243e+02°)
1.32882882882882e+05	(-1.68768636524290e+00dB,1.68814615970574e+02°)
1.33033033033033e+05	(-1.61753994773960e+00dB,1.68123013287201e+02°)
1.33183183183183e+05	(-1.54819612075796e+00dB,1.67427222071596e+02°)
1.33333333333333e+05	(-1.47967098767575e+00dB,1.66727324190522e+02°)
1.33483483483483e+05	(-1.41198039813748e+00dB,1.66023405466875e+02°)
1.33633633633633e+05	(-1.34513992041142e+00dB,1.65315555653987e+02°)
1.33783783783783e+05	(-1.27916481357514e+00dB,1.64603868400127e+02°)
1.33933933933933e+05	(-1.21406999961965e+00dB,1.63888441202965e+02°)
1.34084084084084e+05	(-1.14987003556632e+00dB,1.63169375353835e+02°)
1.34234234234234e+05	(-1.08657908569456e+00dB,1.62446775871632e+02°)
1.34384384384384e+05	(-1.02421089398122e+00dB,1.61720751426263e+02°)
1.34534534534534e+05	(-9.62778756855381e-01dB,1.60991414251600e+02°)
1.34684684684684e+05	(-9.02295496374281e-01dB,1.60258880047929e+02°)
1.34834834834834e+05	(-8.42773433927569e-01dB,1.59523267873966e+02°)
1.34984984984984e+05	(-7.84224364577668e-01dB,1.58784700028525e+02°)
1.35135135135135e+05	(-7.26659532144455e-01dB,1.58043301922029e+02°)
1.35285285285285e+05	(-6.70089605141411e-01dB,1.57299201938053e+02°)
1.35435435435435e+05	(-6.14524653669433e-01dB,1.56552531285200e+02°)
1.35585585585585e+05	(-5.59974127371958e-01dB,1.55803423839624e+02°)
1.35735735735735e+05	(-5.06446834552591e-01dB,1.55052015978593e+02°)
1.35885885885885e+05	(-4.53950922552217e-01dB,1.54298446405532e+02°)
1.36036036036036e+05	(-4.02493859478838e-01dB,1.53542855967038e+02°)
1.36186186186186e+05	(-3.52082417377585e-01dB,1.52785387462407e+02°)
1.36336336336336e+05	(-3.02722656923053e-01dB,1.52026185446273e+02°)
1.36486486486486e+05	(-2.54419913709098e-01dB,1.51265396024980e+02°)
1.36636636636636e+05	(-2.07178786204690e-01dB,1.50503166647374e+02°)
1.36786786786786e+05	(-1.61003125436062e-01dB,1.49739645890729e+02°)
1.36936936936936e+05	(-1.15896026447661e-01dB,1.48974983242540e+02°)
1.37087087087087e+05	(-7.18598215856042e-02dB,1.48209328878969e+02°)
1.37237237237237e+05	(-2.88960756381258e-02dB,1.47442833440734e+02°)
1.37387387387387e+05	(1.29944171416297e-02dB,1.46675647807256e+02°)
1.37537537537537e+05	(5.38116341147265e-02dB,1.45907922869892e+02°)
1.37687687687687e+05	(9.35563234315756e-02dB,1.45139809305068e+02°)
1.37837837837837e+05	(1.32230001306783e-01dB,1.44371457348181e+02°)
1.37987987987987e+05	(1.69834947407139e-01dB,1.43603016569054e+02°)
1.38138138138138e+05	(2.06374198376045e-01dB,1.42834635649793e+02°)
1.38288288288288e+05	(2.41851539526587e-01dB,1.42066462165831e+02°)
1.38438438438438e+05	(2.76271494745173e-01dB,1.41298642370942e+02°)
1.38588588588588e+05	(3.09639314655928e-01dB,1.40531320986972e+02°)
1.38738738738738e+05	(3.41960963104576e-01dB,1.39764640999027e+02°)
1.38888888888888e+05	(3.73243102028535e-01dB,1.38998743456770e+02°)
1.39039039039038e+05	(4.03493074786841e-01dB,1.38233767282503e+02°)
1.39189189189189e+05	(4.32718888030436e-01dB,1.37469849086620e+02°)
1.39339339339339e+05	(4.60929192199443e-01dB,1.36707122990987e+02°)
1.39489489489489e+05	(4.88133260738949e-01dB,1.35945720460759e+02°)
1.39639639639639e+05	(5.14340968130006e-01dB,1.35185770145075e+02°)
1.39789789789789e+05	(5.39562766835659e-01dB,1.34427397727044e+02°)
1.39939939939939e+05	(5.63809663265639e-01dB,1.33670725783360e+02°)
1.40090090090090e+05	(5.87093192864992e-01dB,1.32915873653828e+02°)
1.40240240240240e+05	(6.09425394434074e-01dB,1.32162957321042e+02°)
1.40390390390390e+05	(6.30818783787575e-01dB,1.31412089300389e+02°)
1.40540540540540e+05	(6.51286326860899e-01dB,1.30663378540493e+02°)
1.40690690690690e+05	(6.70841412371022e-01dB,1.29916930334176e+02°)
1.40840840840840e+05	(6.89497824138223e-01dB,1.29172846239944e+02°)
1.40990990990990e+05	(7.07269713172715e-01dB,1.28431224013961e+02°)
1.41141141141141e+05	(7.24171569628136e-01dB,1.27692157552425e+02°)
1.41291291291291e+05	(7.40218194720188e-01dB,1.26955736844227e+02°)
1.41441441441441e+05	(7.55424672706081e-01dB,1.26222047933689e+02°)
1.41591591591591e+05	(7.69806343015557e-01dB,1.25491172893210e+02°)
1.41741741741741e+05	(7.83378772620526e-01dB,1.24763189805517e+02°)
1.41891891891891e+05	(7.96157728725398e-01dB,1.24038172755283e+02°)
1.42042042042041e+05	(8.08159151855268e-01dB,1.23316191829758e+02°)
1.42192192192192e+05	(8.19399129413968e-01dB,1.22597313128095e+02°)
1.42342342342342e+05	(8.29893869778633e-01dB,1.21881598778980e+02°)
