Freq.	V(N002,N003)
1.00000000000000e+05	(-1.48785149554056e+01dB,-1.26353685151180e+02°)
1.00150150150150e+05	(-1.47957007266642e+01dB,-1.26528257373002e+02°)
1.00300300300300e+05	(-1.47127676766972e+01dB,-1.26704322218649e+02°)
1.00450450450450e+05	(-1.46297151214665e+01dB,-1.26881899737994e+02°)
1.00600600600601e+05	(-1.45465423934436e+01dB,-1.27061010306473e+02°)
1.00750750750751e+05	(-1.44632488424365e+01dB,-1.27241674630573e+02°)
1.00900900900901e+05	(-1.43798338364488e+01dB,-1.27423913753371e+02°)
1.01051051051051e+05	(-1.42962967625716e+01dB,-1.27607749060145e+02°)
1.01201201201201e+05	(-1.42126370279105e+01dB,-1.27793202284048e+02°)
1.01351351351351e+05	(-1.41288540605474e+01dB,-1.27980295511846e+02°)
1.01501501501501e+05	(-1.40449473105394e+01dB,-1.28169051189709e+02°)
1.01651651651652e+05	(-1.39609162509560e+01dB,-1.28359492129066e+02°)
1.01801801801802e+05	(-1.38767603789554e+01dB,-1.28551641512516e+02°)
1.01951951951952e+05	(-1.37924792169016e+01dB,-1.28745522899784e+02°)
1.02102102102102e+05	(-1.37080723135242e+01dB,-1.28941160233739e+02°)
1.02252252252252e+05	(-1.36235392451211e+01dB,-1.29138577846445e+02°)
1.02402402402402e+05	(-1.35388796168073e+01dB,-1.29337800465265e+02°)
1.02552552552553e+05	(-1.34540930638091e+01dB,-1.29538853219000e+02°)
1.02702702702703e+05	(-1.33691792528082e+01dB,-1.29741761644060e+02°)
1.02852852852853e+05	(-1.32841378833344e+01dB,-1.29946551690672e+02°)
1.03003003003003e+05	(-1.31989686892105e+01dB,-1.30153249729108e+02°)
1.03153153153153e+05	(-1.31136714400507e+01dB,-1.30361882555929e+02°)
1.03303303303303e+05	(-1.30282459428136e+01dB,-1.30572477400255e+02°)
1.03453453453453e+05	(-1.29426920434125e+01dB,-1.30785061930027e+02°)
1.03603603603604e+05	(-1.28570096283845e+01dB,-1.30999664258281e+02°)
1.03753753753754e+05	(-1.27711986266201e+01dB,-1.31216312949406e+02°)
1.03903903903904e+05	(-1.26852590111557e+01dB,-1.31435037025396e+02°)
1.04054054054054e+05	(-1.25991908010304e+01dB,-1.31655865972067e+02°)
1.04204204204204e+05	(-1.25129940632104e+01dB,-1.31878829745252e+02°)
1.04354354354354e+05	(-1.24266689145809e+01dB,-1.32103958776944e+02°)
1.04504504504504e+05	(-1.23402155240106e+01dB,-1.32331283981388e+02°)
1.04654654654655e+05	(-1.22536341144878e+01dB,-1.32560836761112e+02°)
1.04804804804805e+05	(-1.21669249653330e+01dB,-1.32792649012873e+02°)
1.04954954954955e+05	(-1.20800884144891e+01dB,-1.33026753133517e+02°)
1.05105105105105e+05	(-1.19931248608908e+01dB,-1.33263182025733e+02°)
1.05255255255255e+05	(-1.19060347669174e+01dB,-1.33501969103688e+02°)
1.05405405405405e+05	(-1.18188186609297e+01dB,-1.33743148298530e+02°)
1.05555555555555e+05	(-1.17314771398943e+01dB,-1.33986754063728e+02°)
1.05705705705706e+05	(-1.16440108720977e+01dB,-1.34232821380254e+02°)
1.05855855855856e+05	(-1.15564205999520e+01dB,-1.34481385761572e+02°)
1.06006006006006e+05	(-1.14687071428958e+01dB,-1.34732483258411e+02°)
1.06156156156156e+05	(-1.13808714003918e+01dB,-1.34986150463313e+02°)
1.06306306306306e+05	(-1.12929143550243e+01dB,-1.35242424514927e+02°)
1.06456456456456e+05	(-1.12048370756991e+01dB,-1.35501343102023e+02°)
1.06606606606607e+05	(-1.11166407209475e+01dB,-1.35762944467197e+02°)
1.06756756756757e+05	(-1.10283265423381e+01dB,-1.36027267410252e+02°)
1.06906906906907e+05	(-1.09398958879983e+01dB,-1.36294351291215e+02°)
1.07057057057057e+05	(-1.08513502062480e+01dB,-1.36564236032962e+02°)
1.07207207207207e+05	(-1.07626910493479e+01dB,-1.36836962123422e+02°)
1.07357357357357e+05	(-1.06739200773653e+01dB,-1.37112570617321e+02°)
1.07507507507507e+05	(-1.05850390621591e+01dB,-1.37391103137437e+02°)
1.07657657657658e+05	(-1.04960498914867e+01dB,-1.37672601875318e+02°)
1.07807807807808e+05	(-1.04069545732352e+01dB,-1.37957109591436e+02°)
1.07957957957958e+05	(-1.03177552397780e+01dB,-1.38244669614719e+02°)
1.08108108108108e+05	(-1.02284541524604e+01dB,-1.38535325841436e+02°)
1.08258258258258e+05	(-1.01390537062149e+01dB,-1.38829122733373e+02°)
1.08408408408408e+05	(-1.00495564343080e+01dB,-1.39126105315251e+02°)
1.08558558558558e+05	(-9.95996501322045e+00dB,-1.39426319171352e+02°)
1.08708708708709e+05	(-9.87028226766272e+00dB,-1.39729810441277e+02°)
1.08858858858859e+05	(-9.78051117572542e+00dB,-1.40036625814798e+02°)
1.09009009009009e+05	(-9.69065487416715e+00dB,-1.40346812525729e+02°)
1.09159159159159e+05	(-9.60071666383964e+00dB,-1.40660418344771e+02°)
1.09309309309309e+05	(-9.51070001525055e+00dB,-1.40977491571251e+02°)
1.09459459459459e+05	(-9.42060857426424e+00dB,-1.41298081023701e+02°)
1.09609609609609e+05	(-9.33044616794005e+00dB,-1.41622236029194e+02°)
1.09759759759760e+05	(-9.24021681050725e+00dB,-1.41950006411378e+02°)
1.09909909909910e+05	(-9.14992470947587e+00dB,-1.42281442477119e+02°)
1.10060060060060e+05	(-9.05957427188137e+00dB,-1.42616595001682e+02°)
1.10210210210210e+05	(-8.96917011066128e+00dB,-1.42955515212368e+02°)
1.10360360360360e+05	(-8.87871705116117e+00dB,-1.43298254770515e+02°)
1.10510510510510e+05	(-8.78822013776631e+00dB,-1.43644865751784e+02°)
1.10660660660661e+05	(-8.69768464065561e+00dB,-1.43995400624634e+02°)
1.10810810810811e+05	(-8.60711606267265e+00dB,-1.44349912226895e+02°)
1.10960960960961e+05	(-8.51652014630868e+00dB,-1.44708453740333e+02°)
1.11111111111111e+05	(-8.42590288079137e+00dB,-1.45071078663128e+02°)
1.11261261261261e+05	(-8.33527050927207e+00dB,-1.45437840780141e+02°)
1.11411411411411e+05	(-8.24462953610350e+00dB,-1.45808794130876e+02°)
1.11561561561561e+05	(-8.15398673419898e+00dB,-1.46183992975033e+02°)
1.11711711711712e+05	(-8.06334915246297e+00dB,-1.46563491755534e+02°)
1.11861861861862e+05	(-7.97272412328158e+00dB,-1.46947345058922e+02°)
1.12012012012012e+05	(-7.88211927006063e+00dB,-1.47335607573009e+02°)
1.12162162162162e+05	(-7.79154251479759e+00dB,-1.47728334041671e+02°)
1.12312312312312e+05	(-7.70100208567202e+00dB,-1.48125579216662e+02°)
1.12462462462462e+05	(-7.61050652463829e+00dB,-1.48527397806349e+02°)
1.12612612612612e+05	(-7.52006469500214e+00dB,-1.48933844421234e+02°)
1.12762762762763e+05	(-7.42968578896175e+00dB,-1.49344973516164e+02°)
1.12912912912913e+05	(-7.33937933509196e+00dB,-1.49760839329105e+02°)
1.13063063063063e+05	(-7.24915520574835e+00dB,-1.50181495816371e+02°)
1.13213213213213e+05	(-7.15902362436668e+00dB,-1.50606996584206e+02°)
1.13363363363363e+05	(-7.06899517263098e+00dB,-1.51037394816596e+02°)
1.13513513513513e+05	(-6.97908079748126e+00dB,-1.51472743199226e+02°)
1.13663663663663e+05	(-6.88929181793070e+00dB,-1.51913093839468e+02°)
1.13813813813814e+05	(-6.79963993165948e+00dB,-1.52358498182329e+02°)
1.13963963963964e+05	(-6.71013722135018e+00dB,-1.52809006922252e+02°)
1.14114114114114e+05	(-6.62079616072836e+00dB,-1.53264669910704e+02°)
1.14264264264264e+05	(-6.53162962026880e+00dB,-1.53725536059489e+02°)
1.14414414414414e+05	(-6.44265087252627e+00dB,-1.54191653239722e+02°)
1.14564564564564e+05	(-6.35387359704746e+00dB,-1.54663068176415e+02°)
1.14714714714715e+05	(-6.26531188481814e+00dB,-1.55139826338656e+02°)
1.14864864864865e+05	(-6.17698024219802e+00dB,-1.55621971825357e+02°)
1.15015015015015e+05	(-6.08889359429305e+00dB,-1.56109547246578e+02°)
1.15165165165165e+05	(-6.00106728771322e+00dB,-1.56602593600428e+02°)
1.15315315315315e+05	(-5.91351709266194e+00dB,-1.57101150145616e+02°)
1.15465465465465e+05	(-5.82625920430090e+00dB,-1.57605254269671e+02°)
1.15615615615615e+05	(-5.73931024333266e+00dB,-1.58114941352956e+02°)
1.15765765765766e+05	(-5.65268725574208e+00dB,-1.58630244628559e+02°)
1.15915915915916e+05	(-5.56640771163537e+00dB,-1.59151195038204e+02°)
1.16066066066066e+05	(-5.48048950311529e+00dB,-1.59677821084364e+02°)
1.16216216216216e+05	(-5.39495094112942e+00dB,-1.60210148678757e+02°)
1.16366366366366e+05	(-5.30981075122825e+00dB,-1.60748200987463e+02°)
1.16516516516516e+05	(-5.22508806816907e+00dB,-1.61291998272931e+02°)
1.16666666666666e+05	(-5.14080242930206e+00dB,-1.61841557733185e+02°)
1.16816816816817e+05	(-5.05697376667527e+00dB,-1.62396893338547e+02°)
1.16966966966967e+05	(-4.97362239779594e+00dB,-1.62958015666297e+02°)
1.17117117117117e+05	(-4.89076901498725e+00dB,-1.63524931733649e+02°)
1.17267267267267e+05	(-4.80843467328125e+00dB,-1.64097644829542e+02°)
1.17417417417417e+05	(-4.72664077679124e+00dB,-1.64676154345741e+02°)
1.17567567567567e+05	(-4.64540906351002e+00dB,-1.65260455607786e+02°)
1.17717717717717e+05	(-4.56476158848386e+00dB,-1.65850539706414e+02°)
1.17867867867868e+05	(-4.48472070531667e+00dB,-1.66446393330052e+02°)
1.18018018018018e+05	(-4.40530904596379e+00dB,-1.67047998599107e+02°)
1.18168168168168e+05	(-4.32654949878030e+00dB,-1.67655332902736e+02°)
1.18318318318318e+05	(-4.24846518479585e+00dB,-1.68268368738887e+02°)
1.18468468468468e+05	(-4.17107943219456e+00dB,-1.68887073558406e+02°)
1.18618618618618e+05	(-4.09441574898708e+00dB,-1.69511409614043e+02°)
1.18768768768768e+05	(-4.01849779387032e+00dB,-1.70141333815245e+02°)
1.18918918918919e+05	(-3.94334934528013e+00dB,-1.70776797589625e+02°)
1.19069069069069e+05	(-3.86899426865194e+00dB,-1.71417746752044e+02°)
1.19219219219219e+05	(-3.79545648191607e+00dB,-1.72064121382252e+02°)
1.19369369369369e+05	(-3.72275991926499e+00dB,-1.72715855712060e+02°)
1.19519519519519e+05	(-3.65092849324274e+00dB,-1.73372878023010e+02°)
1.19669669669669e+05	(-3.57998605521909e+00dB,-1.74035110555521e+02°)
1.19819819819820e+05	(-3.50995635432375e+00dB,-1.74702469430496e+02°)
1.19969969969970e+05	(-3.44086299493020e+00dB,-1.75374864584332e+02°)
1.20120120120120e+05	(-3.37272939279152e+00dB,-1.76052199718296e+02°)
1.20270270270270e+05	(-3.30557872994494e+00dB,-1.76734372263158e+02°)
1.20420420420420e+05	(-3.23943390851552e+00dB,-1.77421273359969e+02°)
1.20570570570570e+05	(-3.17431750356302e+00dB,-1.78112787857806e+02°)
1.20720720720720e+05	(-3.11025171512911e+00dB,-1.78808794329254e+02°)
1.20870870870871e+05	(-3.04725831965551e+00dB,-1.79509165104327e+02°)
1.21021021021021e+05	(-2.98535862095549e+00dB,1.79786233676550e+02°)
1.21171171171171e+05	(-2.92457340093284e+00dB,1.79077541989937e+02°)
1.21321321321321e+05	(-2.86492287025284e+00dB,1.78364905836732e+02°)
1.21471471471471e+05	(-2.80642661917960e+00dB,1.77648477129113e+02°)
1.21621621621621e+05	(-2.74910356880156e+00dB,1.76928413556853e+02°)
1.21771771771771e+05	(-2.69297192287458e+00dB,1.76204878432877e+02°)
1.21921921921922e+05	(-2.63804912051609e+00dB,1.75478040518082e+02°)
1.22072072072072e+05	(-2.58435178998820e+00dB,1.74748073825548e+02°)
1.22222222222222e+05	(-2.53189570380853e+00dB,1.74015157404428e+02°)
1.22372372372372e+05	(-2.48069573542728e+00dB,1.73279475103906e+02°)
1.22522522522522e+05	(-2.43076581770678e+00dB,1.72541215317788e+02°)
1.22672672672672e+05	(-2.38211890343521e+00dB,1.71800570710409e+02°)
1.22822822822822e+05	(-2.33476692809928e+00dB,1.71057737924678e+02°)
1.22972972972973e+05	(-2.28872077513240e+00dB,1.70312917273222e+02°)
1.23123123123123e+05	(-2.24399024384376e+00dB,1.69566312413719e+02°)
1.23273273273273e+05	(-2.20058402022084e+00dB,1.68818130009636e+02°)
1.23423423423423e+05	(-2.15850965078339e+00dB,1.68068579377699e+02°)
1.23573573573573e+05	(-2.11777351965006e+00dB,1.67317872123538e+02°)
1.23723723723723e+05	(-2.07838082896063e+00dB,1.66566221767034e+02°)
1.23873873873874e+05	(-2.04033558277696e+00dB,1.65813843359000e+02°)
1.24024024024024e+05	(-2.00364057456492e+00dB,1.65060953090883e+02°)
1.24174174174174e+05	(-1.96829737833686e+00dB,1.64307767899241e+02°)
1.24324324324324e+05	(-1.93430634351148e+00dB,1.63554505066797e+02°)
1.24474474474474e+05	(-1.90166659352411e+00dB,1.62801381821881e+02°)
1.24624624624624e+05	(-1.87037602819638e+00dB,1.62048614938133e+02°)
1.24774774774774e+05	(-1.84043132984983e+00dB,1.61296420336263e+02°)
1.24924924924925e+05	(-1.81182797312454e+00dB,1.60545012689725e+02°)
1.25075075075075e+05	(-1.78456023843966e+00dB,1.59794605036071e+02°)
1.25225225225225e+05	(-1.75862122901028e+00dB,1.59045408395732e+02°)
1.25375375375375e+05	(-1.73400289131298e+00dB,1.58297631399902e+02°)
1.25525525525525e+05	(-1.71069603887138e+00dB,1.57551479929122e+02°)
1.25675675675675e+05	(-1.68869037921418e+00dB,1.56807156764076e+02°)
1.25825825825825e+05	(-1.66797454383955e+00dB,1.56064861250017e+02°)
1.25975975975976e+05	(-1.64853612100412e+00dB,1.55324788976110e+02°)
1.26126126126126e+05	(-1.63036169114046e+00dB,1.54587131470888e+02°)
1.26276276276276e+05	(-1.61343686469445e+00dB,1.53852075914870e+02°)
1.26426426426426e+05	(-1.59774632216374e+00dB,1.53119804871268e+02°)
1.26576576576576e+05	(-1.58327385611046e+00dB,1.52390496035571e+02°)
1.26726726726726e+05	(-1.57000241491504e+00dB,1.51664322004657e+02°)
1.26876876876876e+05	(-1.55791414803433e+00dB,1.50941450065950e+02°)
1.27027027027027e+05	(-1.54699045252490e+00dB,1.50222042006987e+02°)
1.27177177177177e+05	(-1.53721202059311e+00dB,1.49506253945640e+02°)
1.27327327327327e+05	(-1.52855888793490e+00dB,1.48794236181094e+02°)
1.27477477477477e+05	(-1.52101048263267e+00dB,1.48086133065560e+02°)
1.27627627627627e+05	(-1.51454567438186e+00dB,1.47382082896567e+02°)
1.27777777777777e+05	(-1.50914282382696e+00dB,1.46682217829581e+02°)
1.27927927927928e+05	(-1.50477983179528e+00dB,1.45986663810569e+02°)
1.28078078078078e+05	(-1.50143418822645e+00dB,1.45295540528047e+02°)
1.28228228228228e+05	(-1.49908302060659e+00dB,1.44608961384026e+02°)
1.28378378378378e+05	(-1.49770314172755e+00dB,1.43927033483231e+02°)
1.28528528528528e+05	(-1.49727109660432e+00dB,1.43249857639861e+02°)
1.28678678678678e+05	(-1.49776320839676e+00dB,1.42577528401100e+02°)
1.28828828828828e+05	(-1.49915562319495e+00dB,1.41910134086546e+02°)
1.28978978978979e+05	(-1.50142435354164e+00dB,1.41247756842680e+02°)
1.29129129129129e+05	(-1.50454532057857e+00dB,1.40590472711433e+02°)
1.29279279279279e+05	(-1.50849439471771e+00dB,1.39938351711926e+02°)
1.29429429429429e+05	(-1.51324743475171e+00dB,1.39291457934409e+02°)
1.29579579579579e+05	(-1.51878032533144e+00dB,1.38649849645423e+02°)
1.29729729729729e+05	(-1.52506901275135e+00dB,1.38013579403204e+02°)
1.29879879879879e+05	(-1.53208953899607e+00dB,1.37382694182365e+02°)
1.30030030030030e+05	(-1.53981807401342e+00dB,1.36757235506891e+02°)
1.30180180180180e+05	(-1.54823094619065e+00dB,1.36137239590490e+02°)
1.30330330330330e+05	(-1.55730467102113e+00dB,1.35522737483403e+02°)
1.30480480480480e+05	(-1.56701597795913e+00dB,1.34913755224746e+02°)
1.30630630630630e+05	(-1.57734183546922e+00dB,1.34310313999545e+02°)
1.30780780780780e+05	(-1.58825947428570e+00dB,1.33712430299619e+02°)
1.30930930930930e+05	(-1.59974640890510e+00dB,1.33120116087524e+02°)
1.31081081081081e+05	(-1.61178045734188e+00dB,1.32533378962800e+02°)
1.31231231231231e+05	(-1.62433975918374e+00dB,1.31952222329810e+02°)
1.31381381381381e+05	(-1.63740279198857e+00dB,1.31376645566504e+02°)
1.31531531531531e+05	(-1.65094838606987e+00dB,1.30806644193478e+02°)
1.31681681681681e+05	(-1.66495573772165e+00dB,1.30242210042737e+02°)
1.31831831831831e+05	(-1.67940442093735e+00dB,1.29683331425645e+02°)
1.31981981981982e+05	(-1.69427439768023e+00dB,1.29129993299537e+02°)
1.32132132132132e+05	(-1.70954602676488e+00dB,1.28582177432566e+02°)
1.32282282282282e+05	(-1.72520007141127e+00dB,1.28039862566353e+02°)
1.32432432432432e+05	(-1.74121770553433e+00dB,1.27503024576080e+02°)
1.32582582582582e+05	(-1.75758051883201e+00dB,1.26971636627696e+02°)
1.32732732732732e+05	(-1.77427052073620e+00dB,1.26445669331935e+02°)
1.32882882882882e+05	(-1.79127014328977e+00dB,1.25925090894887e+02°)
1.33033033033033e+05	(-1.80856224301338e+00dB,1.25409867264916e+02°)
1.33183183183183e+05	(-1.82613010182449e+00dB,1.24899962275714e+02°)
1.33333333333333e+05	(-1.84395742707026e+00dB,1.24395337785336e+02°)
1.33483483483483e+05	(-1.86202835073463e+00dB,1.23895953811104e+02°)
1.33633633633633e+05	(-1.88032742787844e+00dB,1.23401768660245e+02°)
1.33783783783783e+05	(-1.89883963436994e+00dB,1.22912739056217e+02°)
1.33933933933933e+05	(-1.91755036396105e+00dB,1.22428820260637e+02°)
1.34084084084084e+05	(-1.93644542476290e+00dB,1.21949966190807e+02°)
1.34234234234234e+05	(-1.95551103517217e+00dB,1.21476129532801e+02°)
1.34384384384384e+05	(-1.97473381929773e+00dB,1.21007261850125e+02°)
1.34534534534534e+05	(-1.99410080193475e+00dB,1.20543313687980e+02°)
1.34684684684684e+05	(-2.01359940313150e+00dB,1.20084234673137e+02°)
1.34834834834834e+05	(-2.03321743239154e+00dB,1.19629973609507e+02°)
1.34984984984984e+05	(-2.05294308255234e+00dB,1.19180478569429e+02°)
1.35135135135135e+05	(-2.07276492337855e+00dB,1.18735696980780e+02°)
1.35285285285285e+05	(-2.09267189490632e+00dB,1.18295575709953e+02°)
1.35435435435435e+05	(-2.11265330057316e+00dB,1.17860061140822e+02°)
1.35585585585585e+05	(-2.13269880016503e+00dB,1.17429099249758e+02°)
1.35735735735735e+05	(-2.15279840261122e+00dB,1.17002635676818e+02°)
1.35885885885885e+05	(-2.17294245865480e+00dB,1.16580615793194e+02°)
1.36036036036036e+05	(-2.19312165342504e+00dB,1.16162984765040e+02°)
1.36186186186186e+05	(-2.21332699893605e+00dB,1.15749687613785e+02°)
1.36336336336336e+05	(-2.23354982653422e+00dB,1.15340669273042e+02°)
1.36486486486486e+05	(-2.25378177931549e+00dB,1.14935874642221e+02°)
1.36636636636636e+05	(-2.27401480453131e+00dB,1.14535248636984e+02°)
1.36786786786786e+05	(-2.29424114600139e+00dB,1.14138736236625e+02°)
1.36936936936936e+05	(-2.31445333654905e+00dB,1.13746282528516e+02°)
1.37087087087087e+05	(-2.33464419047416e+00dB,1.13357832749723e+02°)
1.37237237237237e+05	(-2.35480679607703e+00dB,1.12973332325900e+02°)
1.37387387387387e+05	(-2.37493450824535e+00dB,1.12592726907590e+02°)
1.37537537537537e+05	(-2.39502094111524e+00dB,1.12215962404021e+02°)
1.37687687687687e+05	(-2.41505996081631e+00dB,1.11842985014529e+02°)
1.37837837837837e+05	(-2.43504567830919e+00dB,1.11473741257688e+02°)
1.37987987987987e+05	(-2.45497244232391e+00dB,1.11108177998281e+02°)
1.38138138138138e+05	(-2.47483483240541e+00dB,1.10746242472185e+02°)
1.38288288288288e+05	(-2.49462765207259e+00dB,1.10387882309287e+02°)
1.38438438438438e+05	(-2.51434592209597e+00dB,1.10033045554521e+02°)
1.38588588588588e+05	(-2.53398487389845e+00dB,1.09681680687115e+02°)
1.38738738738738e+05	(-2.55353994308292e+00dB,1.09333736638149e+02°)
1.38888888888888e+05	(-2.57300676308986e+00dB,1.08989162806498e+02°)
1.39039039039038e+05	(-2.59238115898754e+00dB,1.08647909073255e+02°)
1.39189189189189e+05	(-2.61165914139666e+00dB,1.08309925814703e+02°)
1.39339339339339e+05	(-2.63083690055106e+00dB,1.07975163913935e+02°)
1.39489489489489e+05	(-2.64991080049548e+00dB,1.07643574771173e+02°)
1.39639639639639e+05	(-2.66887737342093e+00dB,1.07315110312871e+02°)
1.39789789789789e+05	(-2.68773331413803e+00dB,1.06989722999672e+02°)
1.39939939939939e+05	(-2.70647547468798e+00dB,1.06667365833288e+02°)
1.40090090090090e+05	(-2.72510085909096e+00dB,1.06347992362346e+02°)
1.40240240240240e+05	(-2.74360661823103e+00dB,1.06031556687299e+02°)
1.40390390390390e+05	(-2.76199004487665e+00dB,1.05718013464416e+02°)
1.40540540540540e+05	(-2.78024856883561e+00dB,1.05407317908944e+02°)
1.40690690690690e+05	(-2.79837975224288e+00dB,1.05099425797477e+02°)
1.40840840840840e+05	(-2.81638128497974e+00dB,1.04794293469575e+02°)
1.40990990990990e+05	(-2.83425098022261e+00dB,1.04491877828707e+02°)
1.41141141141141e+05	(-2.85198677011945e+00dB,1.04192136342539e+02°)
1.41291291291291e+05	(-2.86958670159176e+00dB,1.03895027042619e+02°)
1.41441441441441e+05	(-2.88704893226016e+00dB,1.03600508523509e+02°)
1.41591591591591e+05	(-2.90437172649107e+00dB,1.03308539941389e+02°)
1.41741741741741e+05	(-2.92155345156243e+00dB,1.03019081012182e+02°)
1.41891891891891e+05	(-2.93859257394591e+00dB,1.02732092009224e+02°)
1.42042042042041e+05	(-2.95548765570328e+00dB,1.02447533760530e+02°)
1.42192192192192e+05	(-2.97223735099435e+00dB,1.02165367645669e+02°)
1.42342342342342e+05	(-2.98884040269419e+00dB,1.01885555592286e+02°)
