Freq.	V(N002,N003)
1.00000000000000e+05	(-1.64152784918640e+01dB,-1.24882473652279e+02°)
1.00150150150150e+05	(-1.63352245687920e+01dB,-1.25035040250665e+02°)
1.00300300300300e+05	(-1.62550704029494e+01dB,-1.25188742832166e+02°)
1.00450450450450e+05	(-1.61748152187350e+01dB,-1.25343595118635e+02°)
1.00600600600601e+05	(-1.60944582462141e+01dB,-1.25499611039669e+02°)
1.00750750750751e+05	(-1.60139987214685e+01dB,-1.25656804736093e+02°)
1.00900900900901e+05	(-1.59334358869622e+01dB,-1.25815190563499e+02°)
1.01051051051051e+05	(-1.58527689919196e+01dB,-1.25974783095835e+02°)
1.01201201201201e+05	(-1.57719972927197e+01dB,-1.26135597129053e+02°)
1.01351351351351e+05	(-1.56911200533049e+01dB,-1.26297647684811e+02°)
1.01501501501501e+05	(-1.56101365456064e+01dB,-1.26460950014229e+02°)
1.01651651651652e+05	(-1.55290460499849e+01dB,-1.26625519601700e+02°)
1.01801801801802e+05	(-1.54478478556891e+01dB,-1.26791372168761e+02°)
1.01951951951952e+05	(-1.53665412613317e+01dB,-1.26958523678012e+02°)
1.02102102102102e+05	(-1.52851255753829e+01dB,-1.27126990337097e+02°)
1.02252252252252e+05	(-1.52036001166835e+01dB,-1.27296788602737e+02°)
1.02402402402402e+05	(-1.51219642149768e+01dB,-1.27467935184819e+02°)
1.02552552552553e+05	(-1.50402172114611e+01dB,-1.27640447050537e+02°)
1.02702702702703e+05	(-1.49583584593626e+01dB,-1.27814341428596e+02°)
1.02852852852853e+05	(-1.48763873245298e+01dB,-1.27989635813457e+02°)
1.03003003003003e+05	(-1.47943031860509e+01dB,-1.28166347969649e+02°)
1.03153153153153e+05	(-1.47121054368930e+01dB,-1.28344495936123e+02°)
1.03303303303303e+05	(-1.46297934845659e+01dB,-1.28524098030667e+02°)
1.03453453453453e+05	(-1.45473667518108e+01dB,-1.28705172854364e+02°)
1.03603603603604e+05	(-1.44648246773131e+01dB,-1.28887739296109e+02°)
1.03753753753754e+05	(-1.43821667164434e+01dB,-1.29071816537169e+02°)
1.03903903903904e+05	(-1.42993923420238e+01dB,-1.29257424055791e+02°)
1.04054054054054e+05	(-1.42165010451237e+01dB,-1.29444581631864e+02°)
1.04204204204204e+05	(-1.41334923358840e+01dB,-1.29633309351613e+02°)
1.04354354354354e+05	(-1.40503657443716e+01dB,-1.29823627612352e+02°)
1.04504504504504e+05	(-1.39671208214644e+01dB,-1.30015557127266e+02°)
1.04654654654655e+05	(-1.38837571397691e+01dB,-1.30209118930238e+02°)
1.04804804804805e+05	(-1.38002742945718e+01dB,-1.30404334380710e+02°)
1.04954954954955e+05	(-1.37166719048225e+01dB,-1.30601225168585e+02°)
1.05105105105105e+05	(-1.36329496141551e+01dB,-1.30799813319152e+02°)
1.05255255255255e+05	(-1.35491070919444e+01dB,-1.31000121198046e+02°)
1.05405405405405e+05	(-1.34651440344000e+01dB,-1.31202171516231e+02°)
1.05555555555555e+05	(-1.33810601656994e+01dB,-1.31405987335004e+02°)
1.05705705705706e+05	(-1.32968552391614e+01dB,-1.31611592071023e+02°)
1.05855855855856e+05	(-1.32125290384602e+01dB,-1.31819009501340e+02°)
1.06006006006006e+05	(-1.31280813788837e+01dB,-1.32028263768450e+02°)
1.06156156156156e+05	(-1.30435121086340e+01dB,-1.32239379385344e+02°)
1.06306306306306e+05	(-1.29588211101746e+01dB,-1.32452381240562e+02°)
1.06456456456456e+05	(-1.28740083016245e+01dB,-1.32667294603233e+02°)
1.06606606606607e+05	(-1.27890736381995e+01dB,-1.32884145128116e+02°)
1.06756756756757e+05	(-1.27040171137048e+01dB,-1.33102958860612e+02°)
1.06906906906907e+05	(-1.26188387620778e+01dB,-1.33323762241756e+02°)
1.07057057057057e+05	(-1.25335386589841e+01dB,-1.33546582113174e+02°)
1.07207207207207e+05	(-1.24481169234680e+01dB,-1.33771445722002e+02°)
1.07357357357357e+05	(-1.23625737196593e+01dB,-1.33998380725756e+02°)
1.07507507507507e+05	(-1.22769092585370e+01dB,-1.34227415197145e+02°)
1.07657657657658e+05	(-1.21911237997534e+01dB,-1.34458577628814e+02°)
1.07807807807808e+05	(-1.21052176535183e+01dB,-1.34691896938015e+02°)
1.07957957957958e+05	(-1.20191911825468e+01dB,-1.34927402471187e+02°)
1.08108108108108e+05	(-1.19330448040709e+01dB,-1.35165124008436e+02°)
1.08258258258258e+05	(-1.18467789919184e+01dB,-1.35405091767907e+02°)
1.08408408408408e+05	(-1.17603942786585e+01dB,-1.35647336410031e+02°)
1.08558558558558e+05	(-1.16738912578189e+01dB,-1.35891889041631e+02°)
1.08708708708709e+05	(-1.15872705861736e+01dB,-1.36138781219879e+02°)
1.08858858858859e+05	(-1.15005329861047e+01dB,-1.36388044956086e+02°)
1.09009009009009e+05	(-1.14136792480395e+01dB,-1.36639712719303e+02°)
1.09159159159159e+05	(-1.13267102329656e+01dB,-1.36893817439727e+02°)
1.09309309309309e+05	(-1.12396268750243e+01dB,-1.37150392511884e+02°)
1.09459459459459e+05	(-1.11524301841856e+01dB,-1.37409471797573e+02°)
1.09609609609609e+05	(-1.10651212490063e+01dB,-1.37671089628553e+02°)
1.09759759759760e+05	(-1.09777012394725e+01dB,-1.37935280808948e+02°)
1.09909909909910e+05	(-1.08901714099293e+01dB,-1.38202080617351e+02°)
1.10060060060060e+05	(-1.08025331020982e+01dB,-1.38471524808596e+02°)
1.10210210210210e+05	(-1.07147877481854e+01dB,-1.38743649615187e+02°)
1.10360360360360e+05	(-1.06269368740822e+01dB,-1.39018491748337e+02°)
1.10510510510510e+05	(-1.05389821026580e+01dB,-1.39296088398612e+02°)
1.10660660660661e+05	(-1.04509251571503e+01dB,-1.39576477236130e+02°)
1.10810810810811e+05	(-1.03627678646499e+01dB,-1.39859696410299e+02°)
1.10960960960961e+05	(-1.02745121596859e+01dB,-1.40145784549054e+02°)
1.11111111111111e+05	(-1.01861600879092e+01dB,-1.40434780757564e+02°)
1.11261261261261e+05	(-1.00977138098788e+01dB,-1.40726724616366e+02°)
1.11411411411411e+05	(-1.00091756049482e+01dB,-1.41021656178900e+02°)
1.11561561561561e+05	(-9.92054787525747e+00dB,-1.41319615968395e+02°)
1.11711711711712e+05	(-9.83183314982792e+00dB,-1.41620644974072e+02°)
1.11861861861862e+05	(-9.74303408876264e+00dB,-1.41924784646617e+02°)
1.12012012012012e+05	(-9.65415348755249e+00dB,-1.42232076892887e+02°)
1.12162162162162e+05	(-9.56519428148810e+00dB,-1.42542564069791e+02°)
1.12312312312312e+05	(-9.47615955017816e+00dB,-1.42856288977311e+02°)
1.12462462462462e+05	(-9.38705252217376e+00dB,-1.43173294850598e+02°)
1.12612612612612e+05	(-9.29787657969854e+00dB,-1.43493625351106e+02°)
1.12762762762763e+05	(-9.20863526348406e+00dB,-1.43817324556698e+02°)
1.12912912912913e+05	(-9.11933227770945e+00dB,-1.44144436950669e+02°)
1.13063063063063e+05	(-9.02997149504401e+00dB,-1.44475007409634e+02°)
1.13213213213213e+05	(-8.94055696179108e+00dB,-1.44809081190216e+02°)
1.13363363363363e+05	(-8.85109290313149e+00dB,-1.45146703914465e+02°)
1.13513513513513e+05	(-8.76158372846352e+00dB,-1.45487921553953e+02°)
1.13663663663663e+05	(-8.67203403683702e+00dB,-1.45832780412475e+02°)
1.13813813813814e+05	(-8.58244862247800e+00dB,-1.46181327107283e+02°)
1.13963963963964e+05	(-8.49283248039960e+00dB,-1.46533608548788e+02°)
1.14114114114114e+05	(-8.40319081209516e+00dB,-1.46889671918642e+02°)
1.14264264264264e+05	(-8.31352903130818e+00dB,-1.47249564646156e+02°)
1.14414414414414e+05	(-8.22385276987304e+00dB,-1.47613334382938e+02°)
1.14564564564564e+05	(-8.13416788362048e+00dB,-1.47981028975704e+02°)
1.14714714714715e+05	(-8.04448045834014e+00dB,-1.48352696437165e+02°)
1.14864864864865e+05	(-7.95479681579230e+00dB,-1.48728384914920e+02°)
1.15015015015015e+05	(-7.86512351975997e+00dB,-1.49108142658255e+02°)
1.15165165165165e+05	(-7.77546738213136e+00dB,-1.49492017982787e+02°)
1.15315315315315e+05	(-7.68583546900225e+00dB,-1.49880059232854e+02°)
1.15465465465465e+05	(-7.59623510678633e+00dB,-1.50272314741564e+02°)
1.15615615615615e+05	(-7.50667388832094e+00dB,-1.50668832788435e+02°)
1.15765765765766e+05	(-7.41715967895427e+00dB,-1.51069661554518e+02°)
1.15915915915916e+05	(-7.32770062259914e+00dB,-1.51474849074941e+02°)
1.16066066066066e+05	(-7.23830514773707e+00dB,-1.51884443188769e+02°)
1.16216216216216e+05	(-7.14898197335545e+00dB,-1.52298491486122e+02°)
1.16366366366366e+05	(-7.05974011479886e+00dB,-1.52717041252442e+02°)
1.16516516516516e+05	(-6.97058888951484e+00dB,-1.53140139409865e+02°)
1.16666666666666e+05	(-6.88153792267236e+00dB,-1.53567832455587e+02°)
1.16816816816817e+05	(-6.79259715263059e+00dB,-1.54000166397182e+02°)
1.16966966966967e+05	(-6.70377683623337e+00dB,-1.54437186684790e+02°)
1.17117117117117e+05	(-6.61508755390381e+00dB,-1.54878938140112e+02°)
1.17267267267267e+05	(-6.52654021451170e+00dB,-1.55325464882168e+02°)
1.17417417417417e+05	(-6.43814605998504e+00dB,-1.55776810249750e+02°)
1.17567567567567e+05	(-6.34991666963529e+00dB,-1.56233016720547e+02°)
1.17717717717717e+05	(-6.26186396416433e+00dB,-1.56694125826889e+02°)
1.17867867867868e+05	(-6.17400020931998e+00dB,-1.57160178068105e+02°)
1.18018018018018e+05	(-6.08633801916483e+00dB,-1.57631212819461e+02°)
1.18168168168168e+05	(-5.99889035892205e+00dB,-1.58107268237694e+02°)
1.18318318318318e+05	(-5.91167054736014e+00dB,-1.58588381163137e+02°)
1.18468468468468e+05	(-5.82469225867734e+00dB,-1.59074587018467e+02°)
1.18618618618618e+05	(-5.73796952384470e+00dB,-1.59565919704119e+02°)
1.18768768768768e+05	(-5.65151673136616e+00dB,-1.60062411490404e+02°)
1.18918918918919e+05	(-5.56534862741214e+00dB,-1.60564092906426e+02°)
1.19069069069069e+05	(-5.47948031528231e+00dB,-1.61070992625873e+02°)
1.19219219219219e+05	(-5.39392725415282e+00dB,-1.61583137349800e+02°)
1.19369369369369e+05	(-5.30870525706136e+00dB,-1.62100551686538e+02°)
1.19519519519519e+05	(-5.22383048808408e+00dB,-1.62623258028883e+02°)
1.19669669669669e+05	(-5.13931945865721e+00dB,-1.63151276428737e+02°)
1.19819819819820e+05	(-5.05518902299615e+00dB,-1.63684624469428e+02°)
1.19969969969970e+05	(-4.97145637256540e+00dB,-1.64223317135908e+02°)
1.20120120120120e+05	(-4.88813902955262e+00dB,-1.64767366683117e+02°)
1.20270270270270e+05	(-4.80525483930063e+00dB,-1.65316782502776e+02°)
1.20420420420420e+05	(-4.72282196165295e+00dB,-1.65871570988941e+02°)
1.20570570570570e+05	(-4.64085886116908e+00dB,-1.66431735402654e+02°)
1.20720720720720e+05	(-4.55938429616766e+00dB,-1.66997275736067e+02°)
1.20870870870871e+05	(-4.47841730655823e+00dB,-1.67568188576448e+02°)
1.21021021021021e+05	(-4.39797720042432e+00dB,-1.68144466970504e+02°)
1.21171171171171e+05	(-4.31808353932401e+00dB,-1.68726100289496e+02°)
1.21321321321321e+05	(-4.23875612227735e+00dB,-1.69313074095625e+02°)
1.21471471471471e+05	(-4.16001496841433e+00dB,-1.69905370010243e+02°)
1.21621621621621e+05	(-4.08188029826124e+00dB,-1.70502965584426e+02°)
1.21771771771771e+05	(-4.00437251364854e+00dB,-1.71105834172505e+02°)
1.21921921921922e+05	(-3.92751217622846e+00dB,-1.71713944809162e+02°)
1.22072072072072e+05	(-3.85131998459715e+00dB,-1.72327262090730e+02°)
1.22222222222222e+05	(-3.77581675002214e+00dB,-1.72945746061350e+02°)
1.22372372372372e+05	(-3.70102337078306e+00dB,-1.73569352104666e+02°)
1.22522522522522e+05	(-3.62696080514141e+00dB,-1.74198030841756e+02°)
1.22672672672672e+05	(-3.55365004296250e+00dB,-1.74831728035997e+02°)
1.22822822822822e+05	(-3.48111207602134e+00dB,-1.75470384505583e+02°)
1.22972972972973e+05	(-3.40936786703314e+00dB,-1.76113936044418e+02°)
1.23123123123123e+05	(-3.33843831745789e+00dB,-1.76762313352109e+02°)
1.23273273273273e+05	(-3.26834423413777e+00dB,-1.77415441973764e+02°)
1.23423423423423e+05	(-3.19910629483604e+00dB,-1.78073242250308e+02°)
1.23573573573573e+05	(-3.13074501275541e+00dB,-1.78735629280008e+02°)
1.23723723723723e+05	(-3.06328070012383e+00dB,-1.79402512891866e+02°)
1.23873873873874e+05	(-2.99673343094521e+00dB,1.79926202368463e+02°)
1.24024024024024e+05	(-2.93112300302250e+00dB,1.79250617239647e+02°)
1.24174174174174e+05	(-2.86646889936963e+00dB,1.78570837731957e+02°)
1.24324324324324e+05	(-2.80279024913812e+00dB,1.77886975100352e+02°)
1.24474474474474e+05	(-2.74010578819287e+00dB,1.77199145802889e+02°)
1.24624624624624e+05	(-2.67843381947955e+00dB,1.76507471444072e+02°)
1.24774774774774e+05	(-2.61779217333389e+00dB,1.75812078702783e+02°)
1.24924924924925e+05	(-2.55819816788964e+00dB,1.75113099244545e+02°)
1.25075075075075e+05	(-2.49966856974809e+00dB,1.74410669617911e+02°)
1.25225225225225e+05	(-2.44221955507684e+00dB,1.73704931134892e+02°)
1.25375375375375e+05	(-2.38586667130954e+00dB,1.72996029735384e+02°)
1.25525525525525e+05	(-2.33062479962111e+00dB,1.72284115835682e+02°)
1.25675675675675e+05	(-2.27650811835439e+00dB,1.71569344161238e+02°)
1.25825825825825e+05	(-2.22353006757451e+00dB,1.70851873563914e+02°)
1.25975975975976e+05	(-2.17170331492625e+00dB,1.70131866824113e+02°)
1.26126126126126e+05	(-2.12103972296676e+00dB,1.69409490438217e+02°)
1.26276276276276e+05	(-2.07155031814292e+00dB,1.68684914391908e+02°)
1.26426426426426e+05	(-2.02324526157641e+00dB,1.67958311920005e+02°)
1.26576576576576e+05	(-1.97613382181336e+00dB,1.67229859253578e+02°)
1.26726726726726e+05	(-1.93022434968708e+00dB,1.66499735355161e+02°)
1.26876876876876e+05	(-1.88552425543299e+00dB,1.65768121642991e+02°)
1.27027027027027e+05	(-1.84203998818382e+00dB,1.65035201705276e+02°)
1.27177177177177e+05	(-1.79977701796166e+00dB,1.64301161005567e+02°)
1.27327327327327e+05	(-1.75873982026955e+00dB,1.63566186580375e+02°)
1.27477477477477e+05	(-1.71893186337181e+00dB,1.62830466730242e+02°)
1.27627627627627e+05	(-1.68035559833730e+00dB,1.62094190705512e+02°)
1.27777777777777e+05	(-1.64301245190331e+00dB,1.61357548388106e+02°)
1.27927927927928e+05	(-1.60690282220255e+00dB,1.60620729970618e+02°)
1.28078078078078e+05	(-1.57202607737806e+00dB,1.59883925634078e+02°)
1.28228228228228e+05	(-1.53838055709442e+00dB,1.59147325225752e+02°)
1.28378378378378e+05	(-1.50596357693625e+00dB,1.58411117938315e+02°)
1.28528528528528e+05	(-1.47477143566830e+00dB,1.57675491991770e+02°)
1.28678678678678e+05	(-1.44479942531417e+00dB,1.56940634319407e+02°)
1.28828828828828e+05	(-1.41604184399529e+00dB,1.56206730259118e+02°)
1.28978978978979e+05	(-1.38849201145497e+00dB,1.55473963251316e+02°)
1.29129129129129e+05	(-1.36214228717844e+00dB,1.54742514544644e+02°)
1.29279279279279e+05	(-1.33698409100483e+00dB,1.54012562910636e+02°)
1.29429429429429e+05	(-1.31300792611467e+00dB,1.53284284368384e+02°)
1.29579579579579e+05	(-1.29020340426378e+00dB,1.52557851920230e+02°)
1.29729729729729e+05	(-1.26855927312455e+00dB,1.51833435299376e+02°)
1.29879879879879e+05	(-1.24806344558534e+00dB,1.51111200730271e+02°)
1.30030030030030e+05	(-1.22870303085114e+00dB,1.50391310702493e+02°)
1.30180180180180e+05	(-1.21046436718181e+00dB,1.49673923758787e+02°)
1.30330330330330e+05	(-1.19333305609882e+00dB,1.48959194297800e+02°)
1.30480480480480e+05	(-1.17729399788773e+00dB,1.48247272391972e+02°)
1.30630630630630e+05	(-1.16233142822118e+00dB,1.47538303620935e+02°)
1.30780780780780e+05	(-1.14842895572604e+00dB,1.46832428920674e+02°)
1.30930930930930e+05	(-1.13556960031883e+00dB,1.46129784448612e+02°)
1.31081081081081e+05	(-1.12373583213498e+00dB,1.45430501464694e+02°)
1.31231231231231e+05	(-1.11290961088035e+00dB,1.44734706228432e+02°)
1.31381381381381e+05	(-1.10307242543759e+00dB,1.44042519911810e+02°)
1.31531531531531e+05	(-1.09420533356454e+00dB,1.43354058527857e+02°)
1.31681681681681e+05	(-1.08628900152817e+00dB,1.42669432874616e+02°)
1.31831831831831e+05	(-1.07930374352421e+00dB,1.41988748494166e+02°)
1.31981981981982e+05	(-1.07322956074031e+00dB,1.41312105646299e+02°)
1.32132132132132e+05	(-1.06804617992839e+00dB,1.40639599296367e+02°)
1.32282282282282e+05	(-1.06373309136105e+00dB,1.39971319116807e+02°)
1.32432432432432e+05	(-1.06026958605569e+00dB,1.39307349501749e+02°)
1.32582582582582e+05	(-1.05763479215931e+00dB,1.38647769594114e+02°)
1.32732732732732e+05	(-1.05580771039714e+00dB,1.37992653324566e+02°)
1.32882882882882e+05	(-1.05476724849720e+00dB,1.37342069461635e+02°)
1.33033033033033e+05	(-1.05449225451343e+00dB,1.36696081672330e+02°)
1.33183183183183e+05	(-1.05496154897908e+00dB,1.36054748592533e+02°)
1.33333333333333e+05	(-1.05615395583206e+00dB,1.35418123906460e+02°)
1.33483483483483e+05	(-1.05804833206294e+00dB,1.34786256434462e+02°)
1.33633633633633e+05	(-1.06062359604559e+00dB,1.34159190228458e+02°)
1.33783783783783e+05	(-1.06385875451897e+00dB,1.33536964674268e+02°)
1.33933933933933e+05	(-1.06773292819704e+00dB,1.32919614600151e+02°)
1.34084084084084e+05	(-1.07222537599163e+00dB,1.32307170390860e+02°)
1.34234234234234e+05	(-1.07731551784055e+00dB,1.31699658106515e+02°)
1.34384384384384e+05	(-1.08298295614027e+00dB,1.31097099605663e+02°)
1.34534534534534e+05	(-1.08920749578881e+00dB,1.30499512671877e+02°)
1.34684684684684e+05	(-1.09596916285086e+00dB,1.29906911143275e+02°)
1.34834834834834e+05	(-1.10324822186209e+00dB,1.29319305044400e+02°)
1.34984984984984e+05	(-1.11102519179504e+00dB,1.28736700719879e+02°)
1.35135135135135e+05	(-1.11928086071319e+00dB,1.28159100969346e+02°)
1.35285285285285e+05	(-1.12799629914389e+00dB,1.27586505183139e+02°)
1.35435435435435e+05	(-1.13715287220421e+00dB,1.27018909478281e+02°)
1.35585585585585e+05	(-1.14673225051682e+00dB,1.26456306834340e+02°)
1.35735735735735e+05	(-1.15671641995576e+00dB,1.25898687228738e+02°)
1.35885885885885e+05	(-1.16708769026373e+00dB,1.25346037771145e+02°)
1.36036036036036e+05	(-1.17782870258464e+00dB,1.24798342836619e+02°)
1.36186186186186e+05	(-1.18892243595622e+00dB,1.24255584197166e+02°)
1.36336336336336e+05	(-1.20035221280882e+00dB,1.23717741151445e+02°)
1.36486486486486e+05	(-1.21210170351678e+00dB,1.23184790652356e+02°)
1.36636636636636e+05	(-1.22415493004950e+00dB,1.22656707432287e+02°)
1.36786786786786e+05	(-1.23649626876925e+00dB,1.22133464125804e+02°)
1.36936936936936e+05	(-1.24911045242266e+00dB,1.21615031389623e+02°)
1.37087087087087e+05	(-1.26198257137227e+00dB,1.21101378019695e+02°)
1.37237237237237e+05	(-1.27509807411429e+00dB,1.20592471065279e+02°)
1.37387387387387e+05	(-1.28844276712756e+00dB,1.20088275939891e+02°)
1.37537537537537e+05	(-1.30200281409801e+00dB,1.19588756529033e+02°)
1.37687687687687e+05	(-1.31576473456179e+00dB,1.19093875294647e+02°)
1.37837837837837e+05	(-1.32971540200896e+00dB,1.18603593376210e+02°)
1.37987987987987e+05	(-1.34384204148859e+00dB,1.18117870688464e+02°)
1.38138138138138e+05	(-1.35813222675444e+00dB,1.17636666015736e+02°)
1.38288288288288e+05	(-1.37257387698929e+00dB,1.17159937102846e+02°)
1.38438438438438e+05	(-1.38715525314412e+00dB,1.16687640742603e+02°)
1.38588588588588e+05	(-1.40186495392737e+00dB,1.16219732859913e+02°)
1.38738738738738e+05	(-1.41669191147733e+00dB,1.15756168592508e+02°)
1.38888888888888e+05	(-1.43162538674970e+00dB,1.15296902368346e+02°)
1.39039039039038e+05	(-1.44665496465053e+00dB,1.14841887979715e+02°)
1.39189189189189e+05	(-1.46177054894318e+00dB,1.14391078654092e+02°)
1.39339339339339e+05	(-1.47696235695671e+00dB,1.13944427121818e+02°)
1.39489489489489e+05	(-1.49222091412108e+00dB,1.13501885680651e+02°)
1.39639639639639e+05	(-1.50753704835366e+00dB,1.13063406257258e+02°)
1.39789789789789e+05	(-1.52290188431957e+00dB,1.12628940465723e+02°)
1.39939939939939e+05	(-1.53830683758726e+00dB,1.12198439663147e+02°)
1.40090090090090e+05	(-1.55374360869936e+00dB,1.11771855002414e+02°)
1.40240240240240e+05	(-1.56920417717731e+00dB,1.11349137482207e+02°)
1.40390390390390e+05	(-1.58468079547724e+00dB,1.10930237994353e+02°)
1.40540540540540e+05	(-1.60016598291297e+00dB,1.10515107368584e+02°)
1.40690690690690e+05	(-1.61565251956148e+00dB,1.10103696414793e+02°)
1.40840840840840e+05	(-1.63113344016412e+00dB,1.09695955962879e+02°)
1.40990990990990e+05	(-1.64660202803670e+00dB,1.09291836900257e+02°)
1.41141141141141e+05	(-1.66205180899983e+00dB,1.08891290207120e+02°)
1.41291291291291e+05	(-1.67747654534039e+00dB,1.08494266989540e+02°)
1.41441441441441e+05	(-1.69287022981372e+00dB,1.08100718510493e+02°)
1.41591591591591e+05	(-1.70822707969547e+00dB,1.07710596218880e+02°)
1.41741741741741e+05	(-1.72354153089115e+00dB,1.07323851776642e+02°)
1.41891891891891e+05	(-1.73880823211058e+00dB,1.06940437084032e+02°)
1.42042042042041e+05	(-1.75402203911363e+00dB,1.06560304303136e+02°)
1.42192192192192e+05	(-1.76917800903334e+00dB,1.06183405879707e+02°)
1.42342342342342e+05	(-1.78427139478112e+00dB,1.05809694563402e+02°)
