Freq.	V(N002,N003)
1.00000000000000e+05	(-1.34432879410725e+01dB,-1.28167410831349e+02°)
1.00150150150150e+05	(-1.33573130249034e+01dB,-1.28370370733209e+02°)
1.00300300300300e+05	(-1.32712019711305e+01dB,-1.28575309372929e+02°)
1.00450450450450e+05	(-1.31849544329348e+01dB,-1.28782255840901e+02°)
1.00600600600601e+05	(-1.30985701030798e+01dB,-1.28991239721070e+02°)
1.00750750750751e+05	(-1.30120487157294e+01dB,-1.29202291098665e+02°)
1.00900900900901e+05	(-1.29253900483346e+01dB,-1.29415440567948e+02°)
1.01051051051051e+05	(-1.28385939235935e+01dB,-1.29630719239986e+02°)
1.01201201201201e+05	(-1.27516602114856e+01dB,-1.29848158750420e+02°)
1.01351351351351e+05	(-1.26645888313843e+01dB,-1.30067791267229e+02°)
1.01501501501501e+05	(-1.25773797542484e+01dB,-1.30289649498484e+02°)
1.01651651651652e+05	(-1.24900330048973e+01dB,-1.30513766700070e+02°)
1.01801801801802e+05	(-1.24025486643714e+01dB,-1.30740176683374e+02°)
1.01951951951952e+05	(-1.23149268723804e+01dB,-1.30968913822915e+02°)
1.02102102102102e+05	(-1.22271678298436e+01dB,-1.31200013063911e+02°)
1.02252252252252e+05	(-1.21392718015239e+01dB,-1.31433509929766e+02°)
1.02402402402402e+05	(-1.20512391187591e+01dB,-1.31669440529453e+02°)
1.02552552552553e+05	(-1.19630701822933e+01dB,-1.31907841564790e+02°)
1.02702702702703e+05	(-1.18747654652121e+01dB,-1.32148750337575e+02°)
1.02852852852853e+05	(-1.17863255159837e+01dB,-1.32392204756566e+02°)
1.03003003003003e+05	(-1.16977509616106e+01dB,-1.32638243344294e+02°)
1.03153153153153e+05	(-1.16090425108937e+01dB,-1.32886905243667e+02°)
1.03303303303303e+05	(-1.15202009578133e+01dB,-1.33138230224357e+02°)
1.03453453453453e+05	(-1.14312271850291e+01dB,-1.33392258688934e+02°)
1.03603603603604e+05	(-1.13421221675046e+01dB,-1.33649031678727e+02°)
1.03753753753754e+05	(-1.12528869762565e+01dB,-1.33908590879378e+02°)
1.03903903903904e+05	(-1.11635227822353e+01dB,-1.34170978626049e+02°)
1.04054054054054e+05	(-1.10740308603388e+01dB,-1.34436237908273e+02°)
1.04204204204204e+05	(-1.09844125935622e+01dB,-1.34704412374386e+02°)
1.04354354354354e+05	(-1.08946694772889e+01dB,-1.34975546335517e+02°)
1.04504504504504e+05	(-1.08048031237247e+01dB,-1.35249684769094e+02°)
1.04654654654655e+05	(-1.07148152664789e+01dB,-1.35526873321827e+02°)
1.04804804804805e+05	(-1.06247077652957e+01dB,-1.35807158312108e+02°)
1.04954954954955e+05	(-1.05344826109393e+01dB,-1.36090586731806e+02°)
1.05105105105105e+05	(-1.04441419302350e+01dB,-1.36377206247379e+02°)
1.05255255255255e+05	(-1.03536879912710e+01dB,-1.36667065200273e+02°)
1.05405405405405e+05	(-1.02631232087620e+01dB,-1.36960212606536e+02°)
1.05555555555555e+05	(-1.01724501495777e+01dB,-1.37256698155600e+02°)
1.05705705705706e+05	(-1.00816715384406e+01dB,-1.37556572208156e+02°)
1.05855855855856e+05	(-9.99079026379276e+00dB,-1.37859885793072e+02°)
1.06006006006006e+05	(-9.89980938383533e+00dB,-1.38166690603272e+02°)
1.06156156156156e+05	(-9.80873213274277e+00dB,-1.38477038990505e+02°)
1.06306306306306e+05	(-9.71756192705240e+00dB,-1.38790983958944e+02°)
1.06456456456456e+05	(-9.62630237223130e+00dB,-1.39108579157506e+02°)
1.06606606606607e+05	(-9.53495726942121e+00dB,-1.39429878870840e+02°)
1.06756756756757e+05	(-9.44353062236162e+00dB,-1.39754938008875e+02°)
1.06906906906907e+05	(-9.35202664449151e+00dB,-1.40083812094846e+02°)
1.07057057057057e+05	(-9.26044976622887e+00dB,-1.40416557251695e+02°)
1.07207207207207e+05	(-9.16880464242688e+00dB,-1.40753230186764e+02°)
1.07357357357357e+05	(-9.07709616000531e+00dB,-1.41093888174646e+02°)
1.07507507507507e+05	(-8.98532944575446e+00dB,-1.41438589038124e+02°)
1.07657657657658e+05	(-8.89350987430860e+00dB,-1.41787391127053e+02°)
1.07807807807808e+05	(-8.80164307628505e+00dB,-1.42140353295085e+02°)
1.07957957957958e+05	(-8.70973494658381e+00dB,-1.42497534874118e+02°)
1.08108108108108e+05	(-8.61779165284218e+00dB,-1.42858995646331e+02°)
1.08258258258258e+05	(-8.52581964403744e+00dB,-1.43224795813691e+02°)
1.08408408408408e+05	(-8.43382565922959e+00dB,-1.43594995964791e+02°)
1.08558558558558e+05	(-8.34181673643495e+00dB,-1.43969657038881e+02°)
1.08708708708709e+05	(-8.24980022162041e+00dB,-1.44348840286962e+02°)
1.08858858858859e+05	(-8.15778377780610e+00dB,-1.44732607229784e+02°)
1.09009009009009e+05	(-8.06577539426337e+00dB,-1.45121019612620e+02°)
1.09159159159159e+05	(-7.97378339579329e+00dB,-1.45514139356642e+02°)
1.09309309309309e+05	(-7.88181645206856e+00dB,-1.45912028506782e+02°)
1.09459459459459e+05	(-7.78988358702098e+00dB,-1.46314749175885e+02°)
1.09609609609609e+05	(-7.69799418825377e+00dB,-1.46722363485029e+02°)
1.09759759759760e+05	(-7.60615801645653e+00dB,-1.47134933499848e+02°)
1.09909909909910e+05	(-7.51438521479840e+00dB,-1.47552521162693e+02°)
1.10060060060060e+05	(-7.42268631827268e+00dB,-1.47975188220488e+02°)
1.10210210210210e+05	(-7.33107226296383e+00dB,-1.48402996148121e+02°)
1.10360360360360e+05	(-7.23955439520545e+00dB,-1.48836006067225e+02°)
1.10510510510510e+05	(-7.14814448059508e+00dB,-1.49274278660190e+02°)
1.10660660660661e+05	(-7.05685471282911e+00dB,-1.49717874079279e+02°)
1.10810810810811e+05	(-6.96569772231856e+00dB,-1.50166851850701e+02°)
1.10960960960961e+05	(-6.87468658454296e+00dB,-1.50621270773506e+02°)
1.11111111111111e+05	(-6.78383482809752e+00dB,-1.51081188813203e+02°)
1.11261261261261e+05	(-6.69315644238529e+00dB,-1.51546662989966e+02°)
1.11411411411411e+05	(-6.60266588490290e+00dB,-1.52017749261347e+02°)
1.11561561561561e+05	(-6.51237808806566e+00dB,-1.52494502399404e+02°)
1.11711711711712e+05	(-6.42230846551464e+00dB,-1.52976975862178e+02°)
1.11861861861862e+05	(-6.33247291784505e+00dB,-1.53465221659476e+02°)
1.12012012012012e+05	(-6.24288783769244e+00dB,-1.53959290212917e+02°)
1.12162162162162e+05	(-6.15357011411005e+00dB,-1.54459230210248e+02°)
1.12312312312312e+05	(-6.06453713616763e+00dB,-1.54965088453940e+02°)
1.12462462462462e+05	(-5.97580679569947e+00dB,-1.55476909704118e+02°)
1.12612612612612e+05	(-5.88739748912622e+00dB,-1.55994736515891e+02°)
1.12762762762763e+05	(-5.79932811827329e+00dB,-1.56518609071209e+02°)
1.12912912912913e+05	(-5.71161809010554e+00dB,-1.57048565005368e+02°)
1.13063063063063e+05	(-5.62428731529636e+00dB,-1.57584639228379e+02°)
1.13213213213213e+05	(-5.53735620554777e+00dB,-1.58126863741394e+02°)
1.13363363363363e+05	(-5.45084566957652e+00dB,-1.58675267448486e+02°)
1.13513513513513e+05	(-5.36477710767997e+00dB,-1.59229875964086e+02°)
1.13663663663663e+05	(-5.27917240479616e+00dB,-1.59790711416444e+02°)
1.13813813813814e+05	(-5.19405392197159e+00dB,-1.60357792247538e+02°)
1.13963963963964e+05	(-5.10944448615131e+00dB,-1.60931133009901e+02°)
1.14114114114114e+05	(-5.02536737820758e+00dB,-1.61510744160897e+02°)
1.14264264264264e+05	(-4.94184631912529e+00dB,-1.62096631855028e+02°)
1.14414414414414e+05	(-4.85890545426490e+00dB,-1.62688797734930e+02°)
1.14564564564564e+05	(-4.77656933562822e+00dB,-1.63287238721760e+02°)
1.14714714714715e+05	(-4.69486290205616e+00dB,-1.63891946805738e+02°)
1.14864864864865e+05	(-4.61381145729379e+00dB,-1.64502908837690e+02°)
1.15015015015015e+05	(-4.53344064586444e+00dB,-1.65120106322474e+02°)
1.15165165165165e+05	(-4.45377642670197e+00dB,-1.65743515215245e+02°)
1.15315315315315e+05	(-4.37484504449982e+00dB,-1.66373105721573e+02°)
1.15465465465465e+05	(-4.29667299874428e+00dB,-1.67008842102478e+02°)
1.15615615615615e+05	(-4.21928701041115e+00dB,-1.67650682485502e+02°)
1.15765765765766e+05	(-4.14271398631670e+00dB,-1.68298578682996e+02°)
1.15915915915916e+05	(-4.06698098112690e+00dB,-1.68952476018818e+02°)
1.16066066066066e+05	(-3.99211515704328e+00dB,-1.69612313164709e+02°)
1.16216216216216e+05	(-3.91814374119888e+00dB,-1.70278021987615e+02°)
1.16366366366366e+05	(-3.84509398081416e+00dB,-1.70949527409262e+02°)
1.16516516516516e+05	(-3.77299309617937e+00dB,-1.71626747279306e+02°)
1.16666666666666e+05	(-3.70186823154820e+00dB,-1.72309592263373e+02°)
1.16816816816817e+05	(-3.63174640404582e+00dB,-1.72997965747303e+02°)
1.16966966966967e+05	(-3.56265445071317e+00dB,-1.73691763758904e+02°)
1.17117117117117e+05	(-3.49461897382914e+00dB,-1.74390874908471e+02°)
1.17267267267267e+05	(-3.42766628467150e+00dB,-1.75095180349307e+02°)
1.17417417417417e+05	(-3.36182234589665e+00dB,-1.75804553759394e+02°)
1.17567567567567e+05	(-3.29711271273823e+00dB,-1.76518861345341e+02°)
1.17717717717717e+05	(-3.23356247324215e+00dB,-1.77237961869590e+02°)
1.17867867867868e+05	(-3.17119618777468e+00dB,-1.77961706701818e+02°)
1.18018018018018e+05	(-3.11003782805648e+00dB,-1.78689939895331e+02°)
1.18168168168168e+05	(-3.05011071599123e+00dB,-1.79422498289121e+02°)
1.18318318318318e+05	(-2.99143746257201e+00dB,1.79840788363864e+02°)
1.18468468468468e+05	(-2.93403990716076e+00dB,1.79100097241858e+02°)
1.18618618618618e+05	(-2.87793905744631e+00dB,1.78355612272594e+02°)
1.18768768768768e+05	(-2.82315503039527e+00dB,1.77607523924748e+02°)
1.18918918918919e+05	(-2.76970699451504e+00dB,1.76856028972642e+02°)
1.19069069069069e+05	(-2.71761311375152e+00dB,1.76101330234504e+02°)
1.19219219219219e+05	(-2.66689049334465e+00dB,1.75343636284822e+02°)
1.19369369369369e+05	(-2.61755512796116e+00dB,1.74583161141460e+02°)
1.19519519519519e+05	(-2.56962185241926e+00dB,1.73820123928464e+02°)
1.19669669669669e+05	(-2.52310429531032e+00dB,1.73054748515636e+02°)
1.19819819819820e+05	(-2.47801483581067e+00dB,1.72287263136158e+02°)
1.19969969969970e+05	(-2.43436456396186e+00dB,1.71517899983747e+02°)
1.20120120120120e+05	(-2.39216324467933e+00dB,1.70746894790965e+02°)
1.20270270270270e+05	(-2.35141928572852e+00dB,1.69974486390511e+02°)
1.20420420420420e+05	(-2.31213970988407e+00dB,1.69200916261431e+02°)
1.20570570570570e+05	(-2.27433013146134e+00dB,1.68426428062365e+02°)
1.20720720720720e+05	(-2.23799473738149e+00dB,1.67651267154013e+02°)
1.20870870870871e+05	(-2.20313627290100e+00dB,1.66875680113153e+02°)
1.21021021021021e+05	(-2.16975603210509e+00dB,1.66099914240588e+02°)
1.21171171171171e+05	(-2.13785385323129e+00dB,1.65324217065460e+02°)
1.21321321321321e+05	(-2.10742811885588e+00dB,1.64548835848427e+02°)
1.21471471471471e+05	(-2.07847576094216e+00dB,1.63774017086173e+02°)
1.21621621621621e+05	(-2.05099227071476e+00dB,1.63000006019733e+02°)
1.21771771771771e+05	(-2.02497171329143e+00dB,1.62227046149081e+02°)
1.21921921921922e+05	(-2.00040674697021e+00dB,1.61455378756348e+02°)
1.22072072072072e+05	(-1.97728864703876e+00dB,1.60685242439991e+02°)
1.22222222222222e+05	(-1.95560733394250e+00dB,1.59916872662098e+02°)
1.22372372372372e+05	(-1.93535140561982e+00dB,1.59150501310921e+02°)
1.22522522522522e+05	(-1.91650817378736e+00dB,1.58386356280582e+02°)
1.22672672672672e+05	(-1.89906370393420e+00dB,1.57624661069753e+02°)
1.22822822822822e+05	(-1.88300285876354e+00dB,1.56865634400924e+02°)
1.22972972972973e+05	(-1.86830934480255e+00dB,1.56109489861728e+02°)
1.23123123123123e+05	(-1.85496576188590e+00dB,1.55356435569583e+02°)
1.23273273273273e+05	(-1.84295365520720e+00dB,1.54606673860737e+02°)
1.23423423423423e+05	(-1.83225356962321e+00dB,1.53860401004590e+02°)
1.23573573573573e+05	(-1.82284510589099e+00dB,1.53117806943986e+02°)
1.23723723723723e+05	(-1.81470697851467e+00dB,1.52379075061972e+02°)
1.23873873873874e+05	(-1.80781707487974e+00dB,1.51644381975310e+02°)
1.24024024024024e+05	(-1.80215251535543e+00dB,1.50913897354873e+02°)
1.24174174174174e+05	(-1.79768971405199e+00dB,1.50187783772846e+02°)
1.24324324324324e+05	(-1.79440443992775e+00dB,1.49466196576497e+02°)
1.24474474474474e+05	(-1.79227187795148e+00dB,1.48749283788116e+02°)
1.24624624624624e+05	(-1.79126669003825e+00dB,1.48037186030584e+02°)
1.24774774774774e+05	(-1.79136307549104e+00dB,1.47330036477866e+02°)
1.24924924924925e+05	(-1.79253483069645e+00dB,1.46627960829632e+02°)
1.25075075075075e+05	(-1.79475540783955e+00dB,1.45931077309071e+02°)
1.25225225225225e+05	(-1.79799797242119e+00dB,1.45239496682888e+02°)
1.25375375375375e+05	(-1.80223545937989e+00dB,1.44553322302372e+02°)
1.25525525525525e+05	(-1.80744062763900e+00dB,1.43872650164368e+02°)
1.25675675675675e+05	(-1.81358611292033e+00dB,1.43197568990923e+02°)
1.25825825825825e+05	(-1.82064447868392e+00dB,1.42528160326334e+02°)
1.25975975975976e+05	(-1.82858826507348e+00dB,1.41864498650309e+02°)
1.26126126126126e+05	(-1.83739003576590e+00dB,1.41206651505909e+02°)
1.26276276276276e+05	(-1.84702242264157e+00dB,1.40554679640964e+02°)
1.26426426426426e+05	(-1.85745816821011e+00dB,1.39908637161642e+02°)
1.26576576576576e+05	(-1.86867016574305e+00dB,1.39268571696869e+02°)
1.26726726726726e+05	(-1.88063149708119e+00dB,1.38634524572316e+02°)
1.26876876876876e+05	(-1.89331546809947e+00dB,1.38006530992715e+02°)
1.27027027027027e+05	(-1.90669564182633e+00dB,1.37384620231293e+02°)
1.27177177177177e+05	(-1.92074586922762e+00dB,1.36768815825156e+02°)
1.27327327327327e+05	(-1.93544031767704e+00dB,1.36159135775499e+02°)
1.27477477477477e+05	(-1.95075349714597e+00dB,1.35555592751599e+02°)
1.27627627627627e+05	(-1.96666028415526e+00dB,1.34958194297566e+02°)
1.27777777777777e+05	(-1.98313594354027e+00dB,1.34366943040906e+02°)
1.27927927927928e+05	(-2.00015614808794e+00dB,1.33781836902017e+02°)
1.28078078078078e+05	(-2.01769699611120e+00dB,1.33202869303780e+02°)
1.28228228228228e+05	(-2.03573502703167e+00dB,1.32630029380489e+02°)
1.28378378378378e+05	(-2.05424723504609e+00dB,1.32063302185408e+02°)
1.28528528528528e+05	(-2.07321108095556e+00dB,1.31502668896317e+02°)
1.28678678678678e+05	(-2.09260450223976e+00dB,1.30948107018466e+02°)
1.28828828828828e+05	(-2.11240592146013e+00dB,1.30399590584405e+02°)
1.28978978978979e+05	(-2.13259425307741e+00dB,1.29857090350225e+02°)
1.29129129129129e+05	(-2.15314890876974e+00dB,1.29320573987801e+02°)
1.29279279279279e+05	(-2.17404980133754e+00dB,1.28790006272662e+02°)
1.29429429429429e+05	(-2.19527734728086e+00dB,1.28265349267183e+02°)
1.29579579579579e+05	(-2.21681246813414e+00dB,1.27746562498839e+02°)
1.29729729729729e+05	(-2.23863659064182e+00dB,1.27233603133274e+02°)
1.29879879879879e+05	(-2.26073164585663e+00dB,1.26726426142038e+02°)
1.30030030030030e+05	(-2.28308006724027e+00dB,1.26224984464817e+02°)
1.30180180180180e+05	(-2.30566478784394e+00dB,1.25729229166072e+02°)
1.30330330330330e+05	(-2.32846923664375e+00dB,1.25239109585994e+02°)
1.30480480480480e+05	(-2.35147733410301e+00dB,1.24754573485753e+02°)
1.30630630630630e+05	(-2.37467348703099e+00dB,1.24275567186993e+02°)
1.30780780780780e+05	(-2.39804258280443e+00dB,1.23802035705619e+02°)
1.30930930930930e+05	(-2.42156998301524e+00dB,1.23333922879873e+02°)
1.31081081081081e+05	(-2.44524151660461e+00dB,1.22871171492768e+02°)
1.31231231231231e+05	(-2.46904347254079e+00dB,1.22413723388951e+02°)
1.31381381381381e+05	(-2.49296259209465e+00dB,1.21961519586065e+02°)
1.31531531531531e+05	(-2.51698606076392e+00dB,1.21514500380729e+02°)
1.31681681681681e+05	(-2.54110149989422e+00dB,1.21072605449225e+02°)
1.31831831831831e+05	(-2.56529695804184e+00dB,1.20635773943031e+02°)
1.31981981981982e+05	(-2.58956090212026e+00dB,1.20203944579326e+02°)
1.32132132132132e+05	(-2.61388220836986e+00dB,1.19777055726594e+02°)
1.32282282282282e+05	(-2.63825015318707e+00dB,1.19355045485482e+02°)
1.32432432432432e+05	(-2.66265440384712e+00dB,1.18937851765060e+02°)
1.32582582582582e+05	(-2.68708500915137e+00dB,1.18525412354620e+02°)
1.32732732732732e+05	(-2.71153239002834e+00dB,1.18117664991185e+02°)
1.32882882882882e+05	(-2.73598733011483e+00dB,1.17714547422870e+02°)
1.33033033033033e+05	(-2.76044096634148e+00dB,1.17315997468265e+02°)
1.33183183183183e+05	(-2.78488477954491e+00dB,1.16921953071974e+02°)
1.33333333333333e+05	(-2.80931058512672e+00dB,1.16532352356485e+02°)
1.33483483483483e+05	(-2.83371052377737e+00dB,1.16147133670519e+02°)
1.33633633633633e+05	(-2.85807705228180e+00dB,1.15766235634002e+02°)
1.33783783783783e+05	(-2.88240293442128e+00dB,1.15389597179813e+02°)
1.33933933933933e+05	(-2.90668123198487e+00dB,1.15017157592465e+02°)
1.34084084084084e+05	(-2.93090529590214e+00dB,1.14648856543843e+02°)
1.34234234234234e+05	(-2.95506875750763e+00dB,1.14284634126152e+02°)
1.34384384384384e+05	(-2.97916551994603e+00dB,1.13924430882213e+02°)
1.34534534534534e+05	(-3.00318974972591e+00dB,1.13568187833226e+02°)
1.34684684684684e+05	(-3.02713586842892e+00dB,1.13215846504144e+02°)
1.34834834834834e+05	(-3.05099854457999e+00dB,1.12867348946771e+02°)
1.34984984984984e+05	(-3.07477268568343e+00dB,1.12522637760715e+02°)
1.35135135135135e+05	(-3.09845343042885e+00dB,1.12181656112297e+02°)
1.35285285285285e+05	(-3.12203614106982e+00dB,1.11844347751544e+02°)
1.35435435435435e+05	(-3.14551639597776e+00dB,1.11510657027365e+02°)
1.35585585585585e+05	(-3.16888998237279e+00dB,1.11180528901013e+02°)
1.35735735735735e+05	(-3.19215288923232e+00dB,1.10853908957936e+02°)
1.35885885885885e+05	(-3.21530130037824e+00dB,1.10530743418113e+02°)
1.36036036036036e+05	(-3.23833158774233e+00dB,1.10210979144955e+02°)
1.36186186186186e+05	(-3.26124030480966e+00dB,1.09894563652881e+02°)
1.36336336336336e+05	(-3.28402418023896e+00dB,1.09581445113623e+02°)
1.36486486486486e+05	(-3.30668011165877e+00dB,1.09271572361362e+02°)
1.36636636636636e+05	(-3.32920515963763e+00dB,1.08964894896766e+02°)
1.36786786786786e+05	(-3.35159654182663e+00dB,1.08661362889996e+02°)
1.36936936936936e+05	(-3.37385162727193e+00dB,1.08360927182744e+02°)
1.37087087087087e+05	(-3.39596793089498e+00dB,1.08063539289395e+02°)
1.37237237237237e+05	(-3.41794310813790e+00dB,1.07769151397335e+02°)
1.37387387387387e+05	(-3.43977494977108e+00dB,1.07477716366499e+02°)
1.37537537537537e+05	(-3.46146137686026e+00dB,1.07189187728196e+02°)
1.37687687687687e+05	(-3.48300043589004e+00dB,1.06903519683270e+02°)
1.37837837837837e+05	(-3.50439029404043e+00dB,1.06620667099636e+02°)
1.37987987987987e+05	(-3.52562923461363e+00dB,1.06340585509267e+02°)
1.38138138138138e+05	(-3.54671565260730e+00dB,1.06063231104634e+02°)
1.38288288288288e+05	(-3.56764805043135e+00dB,1.05788560734684e+02°)
1.38438438438438e+05	(-3.58842503376452e+00dB,1.05516531900362e+02°)
1.38588588588588e+05	(-3.60904530754770e+00dB,1.05247102749741e+02°)
1.38738738738738e+05	(-3.62950767211012e+00dB,1.04980232072770e+02°)
1.38888888888888e+05	(-3.64981101942544e+00dB,1.04715879295699e+02°)
1.39039039039038e+05	(-3.66995432949399e+00dB,1.04454004475189e+02°)
1.39189189189189e+05	(-3.68993666684791e+00dB,1.04194568292156e+02°)
1.39339339339339e+05	(-3.70975717717569e+00dB,1.03937532045363e+02°)
1.39489489489489e+05	(-3.72941508406291e+00dB,1.03682857644790e+02°)
1.39639639639639e+05	(-3.74890968584576e+00dB,1.03430507604809e+02°)
1.39789789789789e+05	(-3.76824035257406e+00dB,1.03180445037186e+02°)
1.39939939939939e+05	(-3.78740652308062e+00dB,1.02932633643928e+02°)
1.40090090090090e+05	(-3.80640770215367e+00dB,1.02687037709998e+02°)
1.40240240240240e+05	(-3.82524345780941e+00dB,1.02443622095917e+02°)
1.40390390390390e+05	(-3.84391341866128e+00dB,1.02202352230265e+02°)
1.40540540540540e+05	(-3.86241727138343e+00dB,1.01963194102110e+02°)
1.40690690690690e+05	(-3.88075475826496e+00dB,1.01726114253362e+02°)
1.40840840840840e+05	(-3.89892567485234e+00dB,1.01491079771083e+02°)
1.40990990990990e+05	(-3.91692986767713e+00dB,1.01258058279755e+02°)
1.41141141141141e+05	(-3.93476723206622e+00dB,1.01027017933525e+02°)
1.41291291291291e+05	(-3.95243771003191e+00dB,1.00797927408431e+02°)
1.41441441441441e+05	(-3.96994128823920e+00dB,1.00570755894629e+02°)
1.41591591591591e+05	(-3.98727799604781e+00dB,1.00345473088623e+02°)
1.41741741741741e+05	(-4.00444790362634e+00dB,1.00122049185508e+02°)
1.41891891891891e+05	(-4.02145112013620e+00dB,9.99004548712408e+01°)
1.42042042042041e+05	(-4.03828779198305e+00dB,9.96806613149336e+01°)
1.42192192192192e+05	(-4.05495810113318e+00dB,9.94626401611923e+01°)
1.42342342342342e+05	(-4.07146226349302e+00dB,9.92463635224936e+01°)
