Freq.	V(N002,N003)
1.00000000000000e+05	(-1.20747880778995e+01dB,-1.30395300036897e+02°)
1.00150150150150e+05	(-1.19853150677597e+01dB,-1.30634872256023e+02°)
1.00300300300300e+05	(-1.18956948948042e+01dB,-1.30877084091395e+02°)
1.00450450450450e+05	(-1.18059280550379e+01dB,-1.31121977285823e+02°)
1.00600600600601e+05	(-1.17160151311071e+01dB,-1.31369594293867e+02°)
1.00750750750751e+05	(-1.16259567960963e+01dB,-1.31619978290374e+02°)
1.00900900900901e+05	(-1.15357538174680e+01dB,-1.31873173178773e+02°)
1.01051051051051e+05	(-1.14454070611502e+01dB,-1.32129223599108e+02°)
1.01201201201201e+05	(-1.13549174957750e+01dB,-1.32388174935760e+02°)
1.01351351351351e+05	(-1.12642861970731e+01dB,-1.32650073324843e+02°)
1.01501501501501e+05	(-1.11735143524298e+01dB,-1.32914965661214e+02°)
1.01651651651652e+05	(-1.10826032656050e+01dB,-1.33182899605065e+02°)
1.01801801801802e+05	(-1.09915543616245e+01dB,-1.33453923588063e+02°)
1.01951951951952e+05	(-1.09003691918447e+01dB,-1.33728086818972e+02°)
1.02102102102102e+05	(-1.08090494391967e+01dB,-1.34005439288722e+02°)
1.02252252252252e+05	(-1.07175969236137e+01dB,-1.34286031774866e+02°)
1.02402402402402e+05	(-1.06260136076472e+01dB,-1.34569915845375e+02°)
1.02552552552553e+05	(-1.05343016022746e+01dB,-1.34857143861696e+02°)
1.02702702702703e+05	(-1.04424631729050e+01dB,-1.35147768981037e+02°)
1.02852852852853e+05	(-1.03505007455848e+01dB,-1.35441845157780e+02°)
1.03003003003003e+05	(-1.02584169134089e+01dB,-1.35739427143974e+02°)
1.03153153153153e+05	(-1.01662144431417e+01dB,-1.36040570488832e+02°)
1.03303303303303e+05	(-1.00738962820493e+01dB,-1.36345331537133e+02°)
1.03453453453453e+05	(-9.98146556494923e+00dB,-1.36653767426473e+02°)
1.03603603603604e+05	(-9.88892562147871e+00dB,-1.36965936083249e+02°)
1.03753753753754e+05	(-9.79627998358519e+00dB,-1.37281896217313e+02°)
1.03903903903904e+05	(-9.70353239324151e+00dB,-1.37601707315165e+02°)
1.04054054054054e+05	(-9.61068681038762e+00dB,-1.37925429631611e+02°)
1.04204204204204e+05	(-9.51774742110022e+00dB,-1.38253124179756e+02°)
1.04354354354354e+05	(-9.42471864599162e+00dB,-1.38584852719237e+02°)
1.04504504504504e+05	(-9.33160514883802e+00dB,-1.38920677742558e+02°)
1.04654654654655e+05	(-9.23841184543678e+00dB,-1.39260662459417e+02°)
1.04804804804805e+05	(-9.14514391269185e+00dB,-1.39604870778886e+02°)
1.04954954954955e+05	(-9.05180679792549e+00dB,-1.39953367289315e+02°)
1.05105105105105e+05	(-8.95840622841321e+00dB,-1.40306217235805e+02°)
1.05255255255255e+05	(-8.86494822113831e+00dB,-1.40663486495119e+02°)
1.05405405405405e+05	(-8.77143909276130e+00dB,-1.41025241547861e+02°)
1.05555555555555e+05	(-8.67788546979769e+00dB,-1.41391549447777e+02°)
1.05705705705706e+05	(-8.58429429899708e+00dB,-1.41762477787996e+02°)
1.05855855855856e+05	(-8.49067285791456e+00dB,-1.42138094664058e+02°)
1.06006006006006e+05	(-8.39702876566411e+00dB,-1.42518468633539e+02°)
1.06156156156156e+05	(-8.30336999384195e+00dB,-1.42903668672094e+02°)
1.06306306306306e+05	(-8.20970487760602e+00dB,-1.43293764125734e+02°)
1.06456456456456e+05	(-8.11604212689572e+00dB,-1.43688824659137e+02°)
1.06606606606607e+05	(-8.02239083777437e+00dB,-1.44088920199810e+02°)
1.06756756756757e+05	(-7.92876050387385e+00dB,-1.44494120877886e+02°)
1.06906906906907e+05	(-7.83516102791955e+00dB,-1.44904496961365e+02°)
1.07057057057057e+05	(-7.74160273331023e+00dB,-1.45320118786586e+02°)
1.07207207207207e+05	(-7.64809637572536e+00dB,-1.45741056683724e+02°)
1.07357357357357e+05	(-7.55465315472948e+00dB,-1.46167380897106e+02°)
1.07507507507507e+05	(-7.46128472534002e+00dB,-1.46599161500134e+02°)
1.07657657657658e+05	(-7.36800320952184e+00dB,-1.47036468304608e+02°)
1.07807807807808e+05	(-7.27482120756886e+00dB,-1.47479370764245e+02°)
1.07957957957958e+05	(-7.18175180932897e+00dB,-1.47927937872197e+02°)
1.08108108108108e+05	(-7.08880860522519e+00dB,-1.48382238052363e+02°)
1.08258258258258e+05	(-6.99600569702264e+00dB,-1.48842339044317e+02°)
1.08408408408408e+05	(-6.90335770828583e+00dB,-1.49308307781672e+02°)
1.08558558558558e+05	(-6.81087979446821e+00dB,-1.49780210263703e+02°)
1.08708708708709e+05	(-6.71858765257069e+00dB,-1.50258111420087e+02°)
1.08858858858859e+05	(-6.62649753030189e+00dB,-1.50742074968619e+02°)
1.09009009009009e+05	(-6.53462623466898e+00dB,-1.51232163265781e+02°)
1.09159159159159e+05	(-6.44299113992336e+00dB,-1.51728437150065e+02°)
1.09309309309309e+05	(-6.35161019478060e+00dB,-1.52230955777993e+02°)
1.09459459459459e+05	(-6.26050192883096e+00dB,-1.52739776452763e+02°)
1.09609609609609e+05	(-6.16968545805124e+00dB,-1.53254954445531e+02°)
1.09759759759760e+05	(-6.07918048932547e+00dB,-1.53776542809335e+02°)
1.09909909909910e+05	(-5.98900732387757e+00dB,-1.54304592185729e+02°)
1.10060060060060e+05	(-5.89918685951545e+00dB,-1.54839150604215e+02°)
1.10210210210210e+05	(-5.80974059158231e+00dB,-1.55380263274644e+02°)
1.10360360360360e+05	(-5.72069061250820e+00dB,-1.55927972372756e+02°)
1.10510510510510e+05	(-5.63205960985137e+00dB,-1.56482316819135e+02°)
1.10660660660661e+05	(-5.54387086271749e+00dB,-1.57043332051873e+02°)
1.10810810810811e+05	(-5.45614823644242e+00dB,-1.57611049793321e+02°)
1.10960960960961e+05	(-5.36891617542307e+00dB,-1.58185497811375e+02°)
1.11111111111111e+05	(-5.28219969398137e+00dB,-1.58766699675789e+02°)
1.11261261261261e+05	(-5.19602436514554e+00dB,-1.59354674510112e+02°)
1.11411411411411e+05	(-5.11041630723510e+00dB,-1.59949436739902e+02°)
1.11561561561561e+05	(-5.02540216813805e+00dB,-1.60550995837961e+02°)
1.11711711711712e+05	(-4.94100910717205e+00dB,-1.61159356067411e+02°)
1.11861861861862e+05	(-4.85726477442607e+00dB,-1.61774516223509e+02°)
1.12012012012012e+05	(-4.77419728748487e+00dB,-1.62396469375218e+02°)
1.12162162162162e+05	(-4.69183520544591e+00dB,-1.63025202607578e+02°)
1.12312312312312e+05	(-4.61020750014680e+00dB,-1.63660696766071e+02°)
1.12462462462462e+05	(-4.52934352453167e+00dB,-1.64302926204216e+02°)
1.12612612612612e+05	(-4.44927297809668e+00dB,-1.64951858535717e+02°)
1.12762762762763e+05	(-4.37002586936760e+00dB,-1.65607454392603e+02°)
1.12912912912913e+05	(-4.29163247537824e+00dB,-1.66269667190809e+02°)
1.13063063063063e+05	(-4.21412329813388e+00dB,-1.66938442904789e+02°)
1.13213213213213e+05	(-4.13752901806304e+00dB,-1.67613719852751e+02°)
1.13363363363363e+05	(-4.06188044448002e+00dB,-1.68295428494201e+02°)
1.13513513513513e+05	(-3.98720846310166e+00dB,-1.68983491241500e+02°)
1.13663663663663e+05	(-3.91354398068514e+00dB,-1.69677822287192e+02°)
1.13813813813814e+05	(-3.84091786687662e+00dB,-1.70378327448854e+02°)
1.13963963963964e+05	(-3.76936089338598e+00dB,-1.71084904033255e+02°)
1.14114114114114e+05	(-3.69890367062879e+00dB,-1.71797440721569e+02°)
1.14264264264264e+05	(-3.62957658200316e+00dB,-1.72515817477386e+02°)
1.14414414414414e+05	(-3.56140971599612e+00dB,-1.73239905479209e+02°)
1.14564564564564e+05	(-3.49443279634169e+00dB,-1.73969567079051e+02°)
1.14714714714715e+05	(-3.42867511047969e+00dB,-1.74704655788683e+02°)
1.14864864864865e+05	(-3.36416543659085e+00dB,-1.75445016294963e+02°)
1.15015015015015e+05	(-3.30093196950998e+00dB,-1.76190484505560e+02°)
1.15165165165165e+05	(-3.23900224584314e+00dB,-1.76940887626242e+02°)
1.15315315315315e+05	(-3.17840306863781e+00dB,-1.77696044270720e+02°)
1.15465465465465e+05	(-3.11916043197620e+00dB,-1.78455764603877e+02°)
1.15615615615615e+05	(-3.06129944588010e+00dB,-1.79219850518991e+02°)
1.15765765765766e+05	(-3.00484426193184e+00dB,-1.79988095849347e+02°)
1.15915915915916e+05	(-2.94981800002820e+00dB,1.79239713385610e+02°)
1.16066066066066e+05	(-2.89624267669361e+00dB,1.78463798699657e+02°)
1.16216216216216e+05	(-2.84413913538407e+00dB,1.77684388825070e+02°)
1.16366366366366e+05	(-2.79352697921494e+00dB,1.76901719364416e+02°)
1.16516516516516e+05	(-2.74442450654225e+00dB,1.76116032409725e+02°)
1.16666666666666e+05	(-2.69684864982054e+00dB,1.75327576130243e+02°)
1.16816816816817e+05	(-2.65081491814768e+00dB,1.74536604330164e+02°)
1.16966966966967e+05	(-2.60633734389121e+00dB,1.73743375978064e+02°)
1.17117117117117e+05	(-2.56342843376974e+00dB,1.72948154709995e+02°)
1.17267267267267e+05	(-2.52209912473747e+00dB,1.72151208308427e+02°)
1.17417417417417e+05	(-2.48235874499088e+00dB,1.71352808159501e+02°)
1.17567567567567e+05	(-2.44421498038308e+00dB,1.70553228691200e+02°)
1.17717717717717e+05	(-2.40767384649454e+00dB,1.69752746795304e+02°)
1.17867867867868e+05	(-2.37273966656900e+00dB,1.68951641236078e+02°)
1.18018018018018e+05	(-2.33941505548084e+00dB,1.68150192048857e+02°)
1.18168168168168e+05	(-2.30770090985512e+00dB,1.67348679931711e+02°)
1.18318318318318e+05	(-2.27759640441561e+00dB,1.66547385633515e+02°)
1.18468468468468e+05	(-2.24909899458850e+00dB,1.65746589341735e+02°)
1.18618618618618e+05	(-2.22220442534192e+00dB,1.64946570073264e+02°)
1.18768768768768e+05	(-2.19690674619414e+00dB,1.64147605071623e+02°)
1.18918918918919e+05	(-2.17319833227655e+00dB,1.63349969213746e+02°)
1.19069069069069e+05	(-2.15106991129253e+00dB,1.62553934429495e+02°)
1.19219219219219e+05	(-2.13051059617068e+00dB,1.61759769136938e+02°)
1.19369369369369e+05	(-2.11150792316968e+00dB,1.60967737696206e+02°)
1.19519519519519e+05	(-2.09404789515552e+00dB,1.60178099884650e+02°)
1.19669669669669e+05	(-2.07811502973732e+00dB,1.59391110395736e+02°)
1.19819819819820e+05	(-2.06369241191823e+00dB,1.58607018363935e+02°)
1.19969969969970e+05	(-2.05076175089170e+00dB,1.57826066917603e+02°)
1.20120120120120e+05	(-2.03930344059213e+00dB,1.57048492761612e+02°)
1.20270270270270e+05	(-2.02929662359130e+00dB,1.56274525791181e+02°)
1.20420420420420e+05	(-2.02071925791987e+00dB,1.55504388738157e+02°)
1.20570570570570e+05	(-2.01354818638459e+00dB,1.54738296850640e+02°)
1.20720720720720e+05	(-2.00775920794884e+00dB,1.53976457606642e+02°)
1.20870870870871e+05	(-2.00332715074410e+00dB,1.53219070462157e+02°)
1.21021021021021e+05	(-2.00022594628514e+00dB,1.52466326633790e+02°)
1.21171171171171e+05	(-1.99842870447012e+00dB,1.51718408915804e+02°)
1.21321321321321e+05	(-1.99790778895878e+00dB,1.50975491531255e+02°)
1.21471471471471e+05	(-1.99863489253749e+00dB,1.50237740016616e+02°)
1.21621621621621e+05	(-2.00058111209764e+00dB,1.49505311139120e+02°)
1.21771771771771e+05	(-2.00371702287492e+00dB,1.48778352845837e+02°)
1.21921921921922e+05	(-2.00801275161922e+00dB,1.48057004243355e+02°)
1.22072072072072e+05	(-2.01343804838971e+00dB,1.47341395606774e+02°)
1.22222222222222e+05	(-2.01996235669468e+00dB,1.46631648416588e+02°)
1.22372372372372e+05	(-2.02755488172287e+00dB,1.45927875421943e+02°)
1.22522522522522e+05	(-2.03618465643953e+00dB,1.45230180728651e+02°)
1.22672672672672e+05	(-2.04582060534796e+00dB,1.44538659910285e+02°)
1.22822822822822e+05	(-2.05643160574445e+00dB,1.43853400140628e+02°)
1.22972972972973e+05	(-2.06798654632100e+00dB,1.43174480345716e+02°)
1.23123123123123e+05	(-2.08045438299650e+00dB,1.42501971373713e+02°)
1.23273273273273e+05	(-2.09380419188207e+00dB,1.41835936180832e+02°)
1.23423423423423e+05	(-2.10800521931029e+00dB,1.41176430031576e+02°)
1.23573573573573e+05	(-2.12302692888095e+00dB,1.40523500711562e+02°)
1.23723723723723e+05	(-2.13883904549736e+00dB,1.39877188751250e+02°)
1.23873873873874e+05	(-2.15541159638703e+00dB,1.39237527658957e+02°)
1.24024024024024e+05	(-2.17271494911928e+00dB,1.38604544161586e+02°)
1.24174174174174e+05	(-2.19071984664863e+00dB,1.37978258451570e+02°)
1.24324324324324e+05	(-2.20939743942851e+00dB,1.37358684438616e+02°)
1.24474474474474e+05	(-2.22871931465302e+00dB,1.36745830004889e+02°)
1.24624624624624e+05	(-2.24865752269651e+00dB,1.36139697262386e+02°)
1.24774774774774e+05	(-2.26918460083130e+00dB,1.35540282811312e+02°)
1.24924924924925e+05	(-2.29027359431247e+00dB,1.34947577998380e+02°)
1.25075075075075e+05	(-2.31189807492655e+00dB,1.34361569174003e+02°)
1.25225225225225e+05	(-2.33403215710631e+00dB,1.33782237947482e+02°)
1.25375375375375e+05	(-2.35665051171965e+00dB,1.33209561439346e+02°)
1.25525525525525e+05	(-2.37972837764304e+00dB,1.32643512530081e+02°)
1.25675675675675e+05	(-2.40324157123359e+00dB,1.32084060104591e+02°)
1.25825825825825e+05	(-2.42716649381445e+00dB,1.31531169291778e+02°)
1.25975975975976e+05	(-2.45148013728922e+00dB,1.30984801698741e+02°)
1.26126126126126e+05	(-2.47616008800080e+00dB,1.30444915639121e+02°)
1.26276276276276e+05	(-2.50118452894889e+00dB,1.29911466355223e+02°)
1.26426426426426e+05	(-2.52653224047890e+00dB,1.29384406233593e+02°)
1.26576576576576e+05	(-2.55218259955267e+00dB,1.28863685013779e+02°)
1.26726726726726e+05	(-2.57811557770891e+00dB,1.28349249990085e+02°)
1.26876876876876e+05	(-2.60431173781772e+00dB,1.27841046206147e+02°)
1.27027027027027e+05	(-2.63075222973067e+00dB,1.27339016642229e+02°)
1.27177177177177e+05	(-2.65741878492367e+00dB,1.26843102395178e+02°)
1.27327327327327e+05	(-2.68429371022614e+00dB,1.26353242851002e+02°)
1.27477477477477e+05	(-2.71135988072598e+00dB,1.25869375850081e+02°)
1.27627627627627e+05	(-2.73860073193518e+00dB,1.25391437845060e+02°)
1.27777777777777e+05	(-2.76600025129720e+00dB,1.24919364051482e+02°)
1.27927927927928e+05	(-2.79354296911232e+00dB,1.24453088591258e+02°)
1.28078078078078e+05	(-2.82121394895335e+00dB,1.23992544629092e+02°)
1.28228228228228e+05	(-2.84899877763935e+00dB,1.23537664501997e+02°)
1.28378378378378e+05	(-2.87688355483110e+00dB,1.23088379842040e+02°)
1.28528528528528e+05	(-2.90485488230772e+00dB,1.22644621692506e+02°)
1.28678678678678e+05	(-2.93289985297996e+00dB,1.22206320617633e+02°)
1.28828828828828e+05	(-2.96100603969156e+00dB,1.21773406806117e+02°)
1.28978978978979e+05	(-2.98916148385632e+00dB,1.21345810168585e+02°)
1.29129129129129e+05	(-3.01735468397518e+00dB,1.20923460429222e+02°)
1.29279279279279e+05	(-3.04557458407352e+00dB,1.20506287211772e+02°)
1.29429429429429e+05	(-3.07381056209617e+00dB,1.20094220120105e+02°)
1.29579579579579e+05	(-3.10205241829383e+00dB,1.19687188813572e+02°)
1.29729729729729e+05	(-3.13029036363226e+00dB,1.19285123077350e+02°)
1.29879879879879e+05	(-3.15851500825182e+00dB,1.18887952887978e+02°)
1.30030030030030e+05	(-3.18671735000331e+00dB,1.18495608474310e+02°)
1.30180180180180e+05	(-3.21488876308254e+00dB,1.18108020374068e+02°)
1.30330330330330e+05	(-3.24302098678416e+00dB,1.17725119486206e+02°)
1.30480480480480e+05	(-3.27110611439322e+00dB,1.17346837119285e+02°)
1.30630630630630e+05	(-3.29913658222998e+00dB,1.16973105036043e+02°)
1.30780780780780e+05	(-3.32710515886286e+00dB,1.16603855494352e+02°)
1.30930930930930e+05	(-3.35500493450117e+00dB,1.16239021284754e+02°)
1.31081081081081e+05	(-3.38282931057870e+00dB,1.15878535764735e+02°)
1.31231231231231e+05	(-3.41057198953703e+00dB,1.15522332889925e+02°)
1.31381381381381e+05	(-3.43822696481636e+00dB,1.15170347242392e+02°)
1.31531531531531e+05	(-3.46578851105991e+00dB,1.14822514056169e+02°)
1.31681681681681e+05	(-3.49325117453738e+00dB,1.14478769240203e+02°)
1.31831831831831e+05	(-3.52060976379103e+00dB,1.14139049398842e+02°)
1.31981981981982e+05	(-3.54785934050759e+00dB,1.13803291850030e+02°)
1.32132132132132e+05	(-3.57499521061803e+00dB,1.13471434641324e+02°)
1.32282282282282e+05	(-3.60201291562619e+00dB,1.13143416563884e+02°)
1.32432432432432e+05	(-3.62890822416695e+00dB,1.12819177164553e+02°)
1.32582582582582e+05	(-3.65567712379345e+00dB,1.12498656756143e+02°)
1.32732732732732e+05	(-3.68231581299259e+00dB,1.12181796426053e+02°)
1.32882882882882e+05	(-3.70882069342740e+00dB,1.11868538043316e+02°)
1.33033033033033e+05	(-3.73518836240423e+00dB,1.11558824264190e+02°)
1.33183183183183e+05	(-3.76141560556249e+00dB,1.11252598536382e+02°)
1.33333333333333e+05	(-3.78749938978422e+00dB,1.10949805102006e+02°)
1.33483483483483e+05	(-3.81343685632019e+00dB,1.10650388999360e+02°)
1.33633633633633e+05	(-3.83922531412944e+00dB,1.10354296063614e+02°)
1.33783783783783e+05	(-3.86486223342832e+00dB,1.10061472926471e+02°)
1.33933933933933e+05	(-3.89034523944543e+00dB,1.09771867014901e+02°)
1.34084084084084e+05	(-3.91567210637818e+00dB,1.09485426549003e+02°)
1.34234234234234e+05	(-3.94084075154699e+00dB,1.09202100539061e+02°)
1.34384384384384e+05	(-3.96584922974266e+00dB,1.08921838781874e+02°)
1.34534534534534e+05	(-3.99069572776252e+00dB,1.08644591856403e+02°)
1.34684684684684e+05	(-4.01537855913100e+00dB,1.08370311118796e+02°)
1.34834834834834e+05	(-4.03989615899976e+00dB,1.08098948696859e+02°)
1.34984984984984e+05	(-4.06424707922329e+00dB,1.07830457483995e+02°)
1.35135135135135e+05	(-4.08842998360486e+00dB,1.07564791132683e+02°)
1.35285285285285e+05	(-4.11244364330853e+00dB,1.07301904047534e+02°)
1.35435435435435e+05	(-4.13628693243268e+00dB,1.07041751377960e+02°)
1.35585585585585e+05	(-4.15995882374023e+00dB,1.06784289010496e+02°)
1.35735735735735e+05	(-4.18345838454127e+00dB,1.06529473560820e+02°)
1.35885885885885e+05	(-4.20678477272356e+00dB,1.06277262365496e+02°)
1.36036036036036e+05	(-4.22993723292635e+00dB,1.06027613473477e+02°)
1.36186186186186e+05	(-4.25291509285331e+00dB,1.05780485637393e+02°)
1.36336336336336e+05	(-4.27571775972029e+00dB,1.05535838304658e+02°)
1.36486486486486e+05	(-4.29834471683340e+00dB,1.05293631608417e+02°)
1.36636636636636e+05	(-4.32079552029374e+00dB,1.05053826358356e+02°)
1.36786786786786e+05	(-4.34306979582421e+00dB,1.04816384031409e+02°)
1.36936936936936e+05	(-4.36516723571483e+00dB,1.04581266762360e+02°)
1.37087087087087e+05	(-4.38708759588238e+00dB,1.04348437334390e+02°)
1.37237237237237e+05	(-4.40883069304080e+00dB,1.04117859169557e+02°)
1.37387387387387e+05	(-4.43039640197839e+00dB,1.03889496319246e+02°)
1.37537537537537e+05	(-4.45178465293840e+00dB,1.03663313454595e+02°)
1.37687687687687e+05	(-4.47299542909943e+00dB,1.03439275856913e+02°)
1.37837837837837e+05	(-4.49402876415205e+00dB,1.03217349408110e+02°)
1.37987987987987e+05	(-4.51488473996863e+00dB,1.02997500581134e+02°)
1.38138138138138e+05	(-4.53556348436268e+00dB,1.02779696430447e+02°)
1.38288288288288e+05	(-4.55606516893504e+00dB,1.02563904582537e+02°)
1.38438438438438e+05	(-4.57639000700341e+00dB,1.02350093226472e+02°)
1.38588588588588e+05	(-4.59653825161265e+00dB,1.02138231104524e+02°)
1.38738738738738e+05	(-4.61651019362257e+00dB,1.01928287502847e+02°)
1.38888888888888e+05	(-4.63630615987075e+00dB,1.01720232242228e+02°)
1.39039039039038e+05	(-4.65592651140754e+00dB,1.01514035668927e+02°)
1.39189189189189e+05	(-4.67537164180056e+00dB,1.01309668645581e+02°)
1.39339339339339e+05	(-4.69464197550628e+00dB,1.01107102542220e+02°)
1.39489489489489e+05	(-4.71373796630616e+00dB,1.00906309227359e+02°)
1.39639639639639e+05	(-4.73266009580503e+00dB,1.00707261059198e+02°)
1.39789789789789e+05	(-4.75140887198933e+00dB,1.00509930876921e+02°)
1.39939939939939e+05	(-4.76998482784302e+00dB,1.00314291992097e+02°)
1.40090090090090e+05	(-4.78838852001913e+00dB,1.00120318180198e+02°)
1.40240240240240e+05	(-4.80662052756466e+00dB,9.99279836722137e+01°)
1.40390390390390e+05	(-4.82468145069701e+00dB,9.97372631463918e+01°)
1.40540540540540e+05	(-4.84257190962999e+00dB,9.95481317200851e+01°)
1.40690690690690e+05	(-4.86029254344742e+00dB,9.93605649417168e+01°)
1.40840840840840e+05	(-4.87784400902267e+00dB,9.91745387828629e+01°)
1.40990990990990e+05	(-4.89522697998232e+00dB,9.89900296304518e+01°)
1.41141141141141e+05	(-4.91244214571230e+00dB,9.88070142790833e+01°)
1.41291291291291e+05	(-4.92949021040484e+00dB,9.86254699234667e+01°)
1.41441441441441e+05	(-4.94637189214485e+00dB,9.84453741509787e+01°)
1.41591591591591e+05	(-4.96308792203390e+00dB,9.82667049343400e+01°)
1.41741741741741e+05	(-4.97963904335075e+00dB,9.80894406244127e+01°)
1.41891891891891e+05	(-4.99602601074671e+00dB,9.79135599431161e+01°)
1.42042042042041e+05	(-5.01224958947467e+00dB,9.77390419764619e+01°)
1.42192192192192e+05	(-5.02831055465049e+00dB,9.75658661677078e+01°)
1.42342342342342e+05	(-5.04420969054539e+00dB,9.73940123106290e+01°)
