Freq.	-I(V1)
1.00000000000000e+05	(-3.30490989128685e+01dB,8.27953836996923e+01°)
1.00150150150150e+05	(-3.30010865690182e+01dB,8.26912841318948e+01°)
1.00300300300300e+05	(-3.29529124496164e+01dB,8.25855688919626e+01°)
1.00450450450450e+05	(-3.29045761776854e+01dB,8.24782105814818e+01°)
1.00600600600601e+05	(-3.28560774131998e+01dB,8.23691813137046e+01°)
1.00750750750751e+05	(-3.28074158548848e+01dB,8.22584527057671e+01°)
1.00900900900901e+05	(-3.27585912420843e+01dB,8.21459958708847e+01°)
1.01051051051051e+05	(-3.27096033567018e+01dB,8.20317814105308e+01°)
1.01201201201201e+05	(-3.26604520252152e+01dB,8.19157794066092e+01°)
1.01351351351351e+05	(-3.26111371207696e+01dB,8.17979594136299e+01°)
1.01501501501501e+05	(-3.25616585653494e+01dB,8.16782904508980e+01°)
1.01651651651652e+05	(-3.25120163320334e+01dB,8.15567409947278e+01°)
1.01801801801802e+05	(-3.24622104473351e+01dB,8.14332789706939e+01°)
1.01951951951952e+05	(-3.24122409936312e+01dB,8.13078717459329e+01°)
1.02102102102102e+05	(-3.23621081116811e+01dB,8.11804861215088e+01°)
1.02252252252252e+05	(-3.23118120032405e+01dB,8.10510883248592e+01°)
1.02402402402402e+05	(-3.22613529337719e+01dB,8.09196440023361e+01°)
1.02552552552553e+05	(-3.22107312352555e+01dB,8.07861182118612e+01°)
1.02702702702703e+05	(-3.21599473091028e+01dB,8.06504754157126e+01°)
1.02852852852853e+05	(-3.21090016291772e+01dB,8.05126794734644e+01°)
1.03003003003003e+05	(-3.20578947449238e+01dB,8.03726936350991e+01°)
1.03153153153153e+05	(-3.20066272846122e+01dB,8.02304805343172e+01°)
1.03303303303303e+05	(-3.19551999586960e+01dB,8.00860021820676e+01°)
1.03453453453453e+05	(-3.19036135632909e+01dB,7.99392199603242e+01°)
1.03603603603604e+05	(-3.18518689837771e+01dB,7.97900946161386e+01°)
1.03753753753754e+05	(-3.17999671985268e+01dB,7.96385862559959e+01°)
1.03903903903904e+05	(-3.17479092827626e+01dB,7.94846543405067e+01°)
1.04054054054054e+05	(-3.16956964125482e+01dB,7.93282576794682e+01°)
1.04204204204204e+05	(-3.16433298689167e+01dB,7.91693544273298e+01°)
1.04354354354354e+05	(-3.15908110421384e+01dB,7.90079020791008e+01°)
1.04504504504504e+05	(-3.15381414361321e+01dB,7.88438574667411e+01°)
1.04654654654655e+05	(-3.14853226730237e+01dB,7.86771767560754e+01°)
1.04804804804805e+05	(-3.14323564978544e+01dB,7.85078154442771e+01°)
1.04954954954955e+05	(-3.13792447834425e+01dB,7.83357283579699e+01°)
1.05105105105105e+05	(-3.13259895354019e+01dB,7.81608696519948e+01°)
1.05255255255255e+05	(-3.12725928973197e+01dB,7.79831928088983e+01°)
1.05405405405405e+05	(-3.12190571560968e+01dB,7.78026506391958e+01°)
1.05555555555555e+05	(-3.11653847474533e+01dB,7.76191952824699e+01°)
1.05705705705706e+05	(-3.11115782616014e+01dB,7.74327782093659e+01°)
1.05855855855856e+05	(-3.10576404490895e+01dB,7.72433502245492e+01°)
1.06006006006006e+05	(-3.10035742268177e+01dB,7.70508614706946e+01°)
1.06156156156156e+05	(-3.09493826842275e+01dB,7.68552614335782e+01°)
1.06306306306306e+05	(-3.08950690896679e+01dB,7.66564989483499e+01°)
1.06456456456456e+05	(-3.08406368969380e+01dB,7.64545222070641e+01°)
1.06606606606607e+05	(-3.07860897520077e+01dB,7.62492787675536e+01°)
1.06756756756757e+05	(-3.07314314999164e+01dB,7.60407155637334e+01°)
1.06906906906907e+05	(-3.06766661918508e+01dB,7.58287789174262e+01°)
1.07057057057057e+05	(-3.06217980923996e+01dB,7.56134145518041e+01°)
1.07207207207207e+05	(-3.05668316869857e+01dB,7.53945676065478e+01°)
1.07357357357357e+05	(-3.05117716894725e+01dB,7.51721826548252e+01°)
1.07507507507507e+05	(-3.04566230499440e+01dB,7.49462037221988e+01°)
1.07657657657658e+05	(-3.04013909626532e+01dB,7.47165743075729e+01°)
1.07807807807808e+05	(-3.03460808741368e+01dB,7.44832374062982e+01°)
1.07957957957958e+05	(-3.02906984914901e+01dB,7.42461355355539e+01°)
1.08108108108108e+05	(-3.02352497907972e+01dB,7.40052107621308e+01°)
1.08258258258258e+05	(-3.01797410257086e+01dB,7.37604047327469e+01°)
1.08408408408408e+05	(-3.01241787361598e+01dB,7.35116587070258e+01°)
1.08558558558558e+05	(-3.00685697572198e+01dB,7.32589135932752e+01°)
1.08708708708709e+05	(-3.00129212280609e+01dB,7.30021099872058e+01°)
1.08858858858859e+05	(-2.99572406010370e+01dB,7.27411882137345e+01°)
1.09009009009009e+05	(-2.99015356508563e+01dB,7.24760883720166e+01°)
1.09159159159159e+05	(-2.98458144838359e+01dB,7.22067503838590e+01°)
1.09309309309309e+05	(-2.97900855472190e+01dB,7.19331140456634e+01°)
1.09459459459459e+05	(-2.97343576385374e+01dB,7.16551190840544e+01°)
1.09609609609609e+05	(-2.96786399150002e+01dB,7.13727052153470e+01°)
1.09759759759760e+05	(-2.96229419028838e+01dB,7.10858122090095e+01°)
1.09909909909910e+05	(-2.95672735069007e+01dB,7.07943799552763e+01°)
1.10060060060060e+05	(-2.95116450195204e+01dB,7.04983485370664e+01°)
1.10210210210210e+05	(-2.94560671302120e+01dB,7.01976583063616e+01°)
1.10360360360360e+05	(-2.94005509345780e+01dB,6.98922499651934e+01°)
1.10510510510510e+05	(-2.93451079433455e+01dB,6.95820646513878e+01°)
1.10660660660661e+05	(-2.92897500911772e+01dB,6.92670440292098e+01°)
1.10810810810811e+05	(-2.92344897452632e+01dB,6.89471303850447e+01°)
1.10960960960961e+05	(-2.91793397136518e+01dB,6.86222667282446e+01°)
1.11111111111111e+05	(-2.91243132532733e+01dB,6.82923968972617e+01°)
1.11261261261261e+05	(-2.90694240776085e+01dB,6.79574656711785e+01°)
1.11411411411411e+05	(-2.90146863639517e+01dB,6.76174188867312e+01°)
1.11561561561561e+05	(-2.89601147602131e+01dB,6.72722035609120e+01°)
1.11711711711712e+05	(-2.89057243912028e+01dB,6.69217680192167e+01°)
1.11861861861862e+05	(-2.88515308643370e+01dB,6.65660620295879e+01°)
1.12012012012012e+05	(-2.87975502747021e+01dB,6.62050369420827e+01°)
1.12162162162162e+05	(-2.87437992094096e+01dB,6.58386458342707e+01°)
1.12312312312312e+05	(-2.86902947511735e+01dB,6.54668436623447e+01°)
1.12462462462462e+05	(-2.86370544810368e+01dB,6.50895874178970e+01°)
1.12612612612612e+05	(-2.85840964801717e+01dB,6.47068362902834e+01°)
1.12762762762763e+05	(-2.85314393306777e+01dB,6.43185518344670e+01°)
1.12912912912913e+05	(-2.84791021152951e+01dB,6.39246981441940e+01°)
1.13063063063063e+05	(-2.84271044159538e+01dB,6.35252420303175e+01°)
1.13213213213213e+05	(-2.83754663110737e+01dB,6.31201532040439e+01°)
1.13363363363363e+05	(-2.83242083715304e+01dB,6.27094044648324e+01°)
1.13513513513513e+05	(-2.82733516552028e+01dB,6.22929718926271e+01°)
1.13663663663663e+05	(-2.82229177000129e+01dB,6.18708350440599e+01°)
1.13813813813814e+05	(-2.81729285153763e+01dB,6.14429771522023e+01°)
1.13963963963964e+05	(-2.81234065719729e+01dB,6.10093853293931e+01°)
1.14114114114114e+05	(-2.80743747897587e+01dB,6.05700507726146e+01°)
1.14264264264264e+05	(-2.80258565241333e+01dB,6.01249689708276e+01°)
1.14414414414414e+05	(-2.79778755501860e+01dB,5.96741399136178e+01°)
1.14564564564564e+05	(-2.79304560449454e+01dB,5.92175683004465e+01°)
1.14714714714715e+05	(-2.78836225675609e+01dB,5.87552637497340e+01°)
1.14864864864865e+05	(-2.78374000373522e+01dB,5.82872410069446e+01°)
1.15015015015015e+05	(-2.77918137096688e+01dB,5.78135201507812e+01°)
1.15165165165165e+05	(-2.77468891495074e+01dB,5.73341267965343e+01°)
1.15315315315315e+05	(-2.77026522028474e+01dB,5.68490922955757e+01°)
1.15465465465465e+05	(-2.76591289656704e+01dB,5.63584539299282e+01°)
1.15615615615615e+05	(-2.76163457506446e+01dB,5.58622551007907e+01°)
1.15765765765766e+05	(-2.75743290514631e+01dB,5.53605455098516e+01°)
1.15915915915916e+05	(-2.75331055048420e+01dB,5.48533813321758e+01°)
1.16066066066066e+05	(-2.74927018501952e+01dB,5.43408253794169e+01°)
1.16216216216216e+05	(-2.74531448870199e+01dB,5.38229472520742e+01°)
1.16366366366366e+05	(-2.74144614300432e+01dB,5.32998234794906e+01°)
1.16516516516516e+05	(-2.73766782621956e+01dB,5.27715376462746e+01°)
1.16666666666666e+05	(-2.73398220854962e+01dB,5.22381805038253e+01°)
1.16816816816817e+05	(-2.73039194699535e+01dB,5.16998500656456e+01°)
1.16966966966967e+05	(-2.72689968006032e+01dB,5.11566516851457e+01°)
1.17117117117117e+05	(-2.72350802228240e+01dB,5.06086981146714e+01°)
1.17267267267267e+05	(-2.72021955860939e+01dB,5.00561095445325e+01°)
1.17417417417417e+05	(-2.71703683863653e+01dB,4.94990136208632e+01°)
1.17567567567567e+05	(-2.71396237072605e+01dB,4.89375454412193e+01°)
1.17717717717717e+05	(-2.71099861603038e+01dB,4.83718475268950e+01°)
1.17867867867868e+05	(-2.70814798244282e+01dB,4.78020697710485e+01°)
1.18018018018018e+05	(-2.70541281850083e+01dB,4.72283693618307e+01°)
1.18168168168168e+05	(-2.70279540726892e+01dB,4.66509106798397e+01°)
1.18318318318318e+05	(-2.70029796022942e+01dB,4.60698651693648e+01°)
1.18468468468468e+05	(-2.69792261121058e+01dB,4.54854111830306e+01°)
1.18618618618618e+05	(-2.69567141038272e+01dB,4.48977337996154e+01°)
1.18768768768768e+05	(-2.69354631835369e+01dB,4.43070246149938e+01°)
1.18918918918919e+05	(-2.69154920039570e+01dB,4.37134815063279e+01°)
1.19069069069069e+05	(-2.68968182083571e+01dB,4.31173083698229e+01°)
1.19219219219219e+05	(-2.68794583764167e+01dB,4.25187148325569e+01°)
1.19369369369369e+05	(-2.68634279723667e+01dB,4.19179159390837e+01°)
1.19519519519519e+05	(-2.68487412957233e+01dB,4.13151318137101e+01°)
1.19669669669669e+05	(-2.68354114349205e+01dB,4.07105872995413e+01°)
1.19819819819820e+05	(-2.68234502241334e+01dB,4.01045115755748e+01°)
1.19969969969970e+05	(-2.68128682035717e+01dB,3.94971377533139e+01°)
1.20120120120120e+05	(-2.68036745835024e+01dB,3.88887024545423e+01°)
1.20270270270270e+05	(-2.67958772122414e+01dB,3.82794453720657e+01°)
1.20420420420420e+05	(-2.67894825483296e+01dB,3.76696088153806e+01°)
1.20570570570570e+05	(-2.67844956370823e+01dB,3.70594372433614e+01°)
1.20720720720720e+05	(-2.67809200916736e+01dB,3.64491767861774e+01°)
1.20870870870871e+05	(-2.67787580788865e+01dB,3.58390747587486e+01°)
1.21021021021021e+05	(-2.67780103096287e+01dB,3.52293791681298e+01°)
1.21171171171171e+05	(-2.67786760342792e+01dB,3.46203382172640e+01°)
1.21321321321321e+05	(-2.67807530429000e+01dB,3.40121998075856e+01°)
1.21471471471471e+05	(-2.67842376703102e+01dB,3.34052110429606e+01°)
1.21621621621621e+05	(-2.67891248059884e+01dB,3.27996177374397e+01°)
1.21771771771771e+05	(-2.67954079087336e+01dB,3.21956639292662e+01°)
1.21921921921922e+05	(-2.68030790259829e+01dB,3.15935914035189e+01°)
1.22072072072072e+05	(-2.68121288176536e+01dB,3.09936392256941e+01°)
1.22222222222222e+05	(-2.68225465843443e+01dB,3.03960432884296e+01°)
1.22372372372372e+05	(-2.68343202997065e+01dB,2.98010358734523e+01°)
1.22522522522522e+05	(-2.68474366467661e+01dB,2.92088452306970e+01°)
1.22672672672672e+05	(-2.68618810579564e+01dB,2.86196951763925e+01°)
1.22822822822822e+05	(-2.68776377586000e+01dB,2.80338047117419e+01°)
1.22972972972973e+05	(-2.68946898135607e+01dB,2.74513876636539e+01°)
1.23123123123123e+05	(-2.69130191767704e+01dB,2.68726523487932e+01°)
1.23273273273273e+05	(-2.69326067433259e+01dB,2.62978012620262e+01°)
1.23423423423423e+05	(-2.69534324038402e+01dB,2.57270307901505e+01°)
1.23573573573573e+05	(-2.69754751007280e+01dB,2.51605309515910e+01°)
1.23723723723723e+05	(-2.69987128861037e+01dB,2.45984851625586e+01°)
1.23873873873874e+05	(-2.70231229809672e+01dB,2.40410700299699e+01°)
1.24024024024024e+05	(-2.70486818353610e+01dB,2.34884551712430e+01°)
1.24174174174174e+05	(-2.70753651891831e+01dB,2.29408030609016e+01°)
1.24324324324324e+05	(-2.71031481333518e+01dB,2.23982689037501e+01°)
1.24474474474474e+05	(-2.71320051710278e+01dB,2.18610005342202e+01°)
1.24624624624624e+05	(-2.71619102786116e+01dB,2.13291383413391e+01°)
1.24774774774774e+05	(-2.71928369662482e+01dB,2.08028152186332e+01°)
1.24924924924925e+05	(-2.72247583375888e+01dB,2.02821565381537e+01°)
1.25075075075075e+05	(-2.72576471485718e+01dB,1.97672801477027e+01°)
1.25225225225225e+05	(-2.72914758650103e+01dB,1.92582963902395e+01°)
1.25375375375375e+05	(-2.73262167187845e+01dB,1.87553081443625e+01°)
1.25525525525525e+05	(-2.73618417624623e+01dB,1.82584108846959e+01°)
1.25675675675675e+05	(-2.73983229221875e+01dB,1.77676927609547e+01°)
1.25825825825825e+05	(-2.74356320486973e+01dB,1.72832346944151e+01°)
1.25975975975976e+05	(-2.74737409663461e+01dB,1.68051104904961e+01°)
1.26126126126126e+05	(-2.75126215200365e+01dB,1.63333869661334e+01°)
1.26276276276276e+05	(-2.75522456199728e+01dB,1.58681240906265e+01°)
1.26426426426426e+05	(-2.75925852841713e+01dB,1.54093751386421e+01°)
1.26576576576576e+05	(-2.76336126786807e+01dB,1.49571868540729e+01°)
1.26726726726726e+05	(-2.76753001554783e+01dB,1.45115996234724e+01°)
1.26876876876876e+05	(-2.77176202880265e+01dB,1.40726476578213e+01°)
1.27027027027027e+05	(-2.77605459044849e+01dB,1.36403591814133e+01°)
1.27177177177177e+05	(-2.78040501185901e+01dB,1.32147566266991e+01°)
1.27327327327327e+05	(-2.78481063582233e+01dB,1.27958568339691e+01°)
1.27477477477477e+05	(-2.78926883916996e+01dB,1.23836712548136e+01°)
1.27627627627627e+05	(-2.79377703518216e+01dB,1.19782061583541e+01°)
1.27777777777777e+05	(-2.79833267577477e+01dB,1.15794628392953e+01°)
1.27927927927928e+05	(-2.80293325347350e+01dB,1.11874378269120e+01°)
1.28078078078078e+05	(-2.80757630318217e+01dB,1.08021230941433e+01°)
1.28228228228228e+05	(-2.81225940375192e+01dB,1.04235062660289e+01°)
1.28378378378378e+05	(-2.81698017935906e+01dB,1.00515708267856e+01°)
1.28528528528528e+05	(-2.82173630069937e+01dB,9.68629632488006e+00°)
1.28678678678678e+05	(-2.82652548600712e+01dB,9.32765857551458e+00°)
1.28828828828828e+05	(-2.83134550190720e+01dB,8.97562986000346e+00°)
1.28978978978979e+05	(-2.83619416410884e+01dB,8.63017912156888e+00°)
1.29129129129129e+05	(-2.84106933794964e+01dB,8.29127215714425e+00°)
1.29279279279279e+05	(-2.84596893879844e+01dB,7.95887180482061e+00°)
1.29429429429429e+05	(-2.85089093232564e+01dB,7.63293812662589e+00°)
1.29579579579579e+05	(-2.85583333464951e+01dB,7.31342858636738e+00°)
1.29729729729729e+05	(-2.86079421236669e+01dB,7.00029822231824e+00°)
1.29879879879879e+05	(-2.86577168247519e+01dB,6.69349981456508e+00°)
1.30030030030030e+05	(-2.87076391219787e+01dB,6.39298404687493e+00°)
1.30180180180180e+05	(-2.87576911871400e+01dB,6.09869966297386e+00°)
1.30330330330330e+05	(-2.88078556880657e+01dB,5.81059361716442e+00°)
1.30480480480480e+05	(-2.88581157843243e+01dB,5.52861121923615e+00°)
1.30630630630630e+05	(-2.89084551222226e+01dB,5.25269627365482e+00°)
1.30780780780780e+05	(-2.89588578291703e+01dB,4.98279121303734e+00°)
1.30930930930930e+05	(-2.90093085074720e+01dB,4.71883722594444e+00°)
1.31081081081081e+05	(-2.90597922276075e+01dB,4.46077437904295e+00°)
1.31231231231231e+05	(-2.91102945210579e+01dB,4.20854173370520e+00°)
1.31381381381381e+05	(-2.91608013727305e+01dB,3.96207745713362e+00°)
1.31531531531531e+05	(-2.92112992130342e+01dB,3.72131892810753e+00°)
1.31681681681681e+05	(-2.92617749096534e+01dB,3.48620283746413e+00°)
1.31831831831831e+05	(-2.93122157590650e+01dB,3.25666528343590e+00°)
1.31981981981982e+05	(-2.93626094778410e+01dB,3.03264186197380e+00°)
1.32132132132132e+05	(-2.94129441937750e+01dB,2.81406775219479e+00°)
1.32282282282282e+05	(-2.94632084368703e+01dB,2.60087779709581e+00°)
1.32432432432432e+05	(-2.95133911302226e+01dB,2.39300657968421e+00°)
1.32582582582582e+05	(-2.95634815808288e+01dB,2.19038849467353e+00°)
1.32732732732732e+05	(-2.96134694703501e+01dB,1.99295781590147e+00°)
1.32882882882882e+05	(-2.96633448458574e+01dB,1.80064875962249e+00°)
1.33033033033033e+05	(-2.97130981105816e+01dB,1.61339554383377e+00°)
1.33183183183183e+05	(-2.97627200146917e+01dB,1.43113244378825e+00°)
1.33333333333333e+05	(-2.98122016461211e+01dB,1.25379384385079e+00°)
1.33483483483483e+05	(-2.98615344214591e+01dB,1.08131428585159e+00°)
1.33633633633633e+05	(-2.99107100769262e+01dB,9.13628514087439e-01°)
1.33783783783783e+05	(-2.99597206594450e+01dB,7.50671517121024e-01°)
1.33933933933933e+05	(-3.00085585178229e+01dB,5.92378566524516e-01°)
1.34084084084084e+05	(-3.00572162940559e+01dB,4.38685252711520e-01°)
1.34234234234234e+05	(-3.01056869147654e+01dB,2.89527517996478e-01°)
1.34384384384384e+05	(-3.01539635827757e+01dB,1.44841687019082e-01°)
1.34534534534534e+05	(-3.02020397688412e+01dB,4.56449466564488e-03°)
1.34684684684684e+05	(-3.02499092035293e+01dB,-1.31366888383409e-01°)
1.34834834834834e+05	(-3.02975658692644e+01dB,-2.63014832355453e-01°)
1.34984984984984e+05	(-3.03450039925387e+01dB,-3.90441227216358e-01°)
1.35135135135135e+05	(-3.03922180362927e+01dB,-5.13707463513872e-01°)
1.35285285285285e+05	(-3.04392026924686e+01dB,-6.32874415121095e-01°)
1.35435435435435e+05	(-3.04859528747392e+01dB,-7.48002423773253e-01°)
1.35585585585585e+05	(-3.05324637114137e+01dB,-8.59151285292510e-01°)
1.35735735735735e+05	(-3.05787305385211e+01dB,-9.66380237403105e-01°)
1.35885885885885e+05	(-3.06247488930724e+01dB,-1.06974794904044e+00°)
1.36036036036036e+05	(-3.06705145065002e+01dB,-1.16931251106293e+00°)
1.36186186186186e+05	(-3.07160232982769e+01dB,-1.26513142828034e+00°)
1.36336336336336e+05	(-3.07612713697083e+01dB,-1.35726161271343e+00°)
1.36486486486486e+05	(-3.08062549979036e+01dB,-1.44575937800779e+00°)
1.36636636636636e+05	(-3.08509706299185e+01dB,-1.53068043492398e+00°)
1.36786786786786e+05	(-3.08954148770698e+01dB,-1.61207988783309e+00°)
1.36936936936936e+05	(-3.09395845094194e+01dB,-1.69001223214870e+00°)
1.37087087087087e+05	(-3.09834764504255e+01dB,-1.76453135262989e+00°)
1.37237237237237e+05	(-3.10270877717576e+01dB,-1.83569052249364e+00°)
1.37387387387387e+05	(-3.10704156882733e+01dB,-1.90354240327781e+00°)
1.37537537537537e+05	(-3.11134575531527e+01dB,-1.96813904539843e+00°)
1.37687687687687e+05	(-3.11562108531891e+01dB,-2.02953188934993e+00°)
1.37837837837837e+05	(-3.11986732042303e+01dB,-2.08777176749676e+00°)
1.37987987987987e+05	(-3.12408423467704e+01dB,-2.14290890641039e+00°)
1.38138138138138e+05	(-3.12827161416849e+01dB,-2.19499292970667e+00°)
1.38288288288288e+05	(-3.13242925661091e+01dB,-2.24407286134161e+00°)
1.38438438438438e+05	(-3.13655697094543e+01dB,-2.29019712932542e+00°)
1.38588588588588e+05	(-3.14065457695588e+01dB,-2.33341356981868e+00°)
1.38738738738738e+05	(-3.14472190489704e+01dB,-2.37376943157361e+00°)
1.38888888888888e+05	(-3.14875879513569e+01dB,-2.41131138068926e+00°)
1.39039039039038e+05	(-3.15276509780403e+01dB,-2.44608550564776e+00°)
1.39189189189189e+05	(-3.15674067246528e+01dB,-2.47813732260371e+00°)
1.39339339339339e+05	(-3.16068538779090e+01dB,-2.50751178089879e+00°)
1.39489489489489e+05	(-3.16459912124930e+01dB,-2.53425326877527e+00°)
1.39639639639639e+05	(-3.16848175880557e+01dB,-2.55840561926587e+00°)
1.39789789789789e+05	(-3.17233319463190e+01dB,-2.58001211623569e+00°)
1.39939939939939e+05	(-3.17615333082838e+01dB,-2.59911550055654e+00°)
1.40090090090090e+05	(-3.17994207715396e+01dB,-2.61575797639296e+00°)
1.40240240240240e+05	(-3.18369935076697e+01dB,-2.62998121758271e+00°)
1.40390390390390e+05	(-3.18742507597526e+01dB,-2.64182637409346e+00°)
1.40540540540540e+05	(-3.19111918399530e+01dB,-2.65133407854066e+00°)
1.40690690690690e+05	(-3.19478161272016e+01dB,-2.65854445275133e+00°)
1.40840840840840e+05	(-3.19841230649603e+01dB,-2.66349711436058e+00°)
1.40990990990990e+05	(-3.20201121590690e+01dB,-2.66623118342723e+00°)
1.41141141141141e+05	(-3.20557829756725e+01dB,-2.66678528905817e+00°)
1.41291291291291e+05	(-3.20911351392235e+01dB,-2.66519757602887e+00°)
1.41441441441441e+05	(-3.21261683305603e+01dB,-2.66150571139176e+00°)
1.41591591591591e+05	(-3.21608822850553e+01dB,-2.65574689106209e+00°)
1.41741741741741e+05	(-3.21952767908323e+01dB,-2.64795784637296e+00°)
1.41891891891891e+05	(-3.22293516870509e+01dB,-2.63817485059263e+00°)
1.42042042042041e+05	(-3.22631068622535e+01dB,-2.62643372539549e+00°)
1.42192192192192e+05	(-3.22965422527757e+01dB,-2.61276984728193e+00°)
1.42342342342342e+05	(-3.23296578412139e+01dB,-2.59721815393983e+00°)
1.42492492492492e+05	(-3.23624536549518e+01dB,-2.57981315054321e+00°)
