Freq.	-I(V1)
1.00000000000000e+05	(-3.26360547108365e+01dB,8.05674945939617e+01°)
1.00150150150150e+05	(-3.25845442731758e+01dB,8.04267827099254e+01°)
1.00300300300300e+05	(-3.25328610347522e+01dB,8.02837942753783e+01°)
1.00450450450450e+05	(-3.24810054614123e+01dB,8.01384892394890e+01°)
1.00600600600601e+05	(-3.24289781030129e+01dB,7.99908268448937e+01°)
1.00750750750751e+05	(-3.23767795972002e+01dB,7.98407656191106e+01°)
1.00900900900901e+05	(-3.23244106733295e+01dB,7.96882633661892e+01°)
1.01051051051051e+05	(-3.22718721565344e+01dB,7.95332771586269e+01°)
1.01201201201201e+05	(-3.22191649719451e+01dB,7.93757633295843e+01°)
1.01351351351351e+05	(-3.21662901490642e+01dB,7.92156774654382e+01°)
1.01501501501501e+05	(-3.21132488263022e+01dB,7.90529743987090e+01°)
1.01651651651652e+05	(-3.20600422556789e+01dB,7.88876082014028e+01°)
1.01801801801802e+05	(-3.20066718076931e+01dB,7.87195321788143e+01°)
1.01951951951952e+05	(-3.19531389763680e+01dB,7.85486988638354e+01°)
1.02102102102102e+05	(-3.18994453844749e+01dB,7.83750600118188e+01°)
1.02252252252252e+05	(-3.18455927889397e+01dB,7.81985665960511e+01°)
1.02402402402402e+05	(-3.17915830864387e+01dB,7.80191688038897e+01°)
1.02552552552553e+05	(-3.17374183191854e+01dB,7.78368160336241e+01°)
1.02702702702703e+05	(-3.16831006809149e+01dB,7.76514568921238e+01°)
1.02852852852853e+05	(-3.16286325230685e+01dB,7.74630391933407e+01°)
1.03003003003003e+05	(-3.15740163611839e+01dB,7.72715099577365e+01°)
1.03153153153153e+05	(-3.15192548814941e+01dB,7.70768154127087e+01°)
1.03303303303303e+05	(-3.14643509477387e+01dB,7.68789009940977e+01°)
1.03453453453453e+05	(-3.14093076081910e+01dB,7.66777113488542e+01°)
1.03603603603604e+05	(-3.13541281029050e+01dB,7.64731903389594e+01°)
1.03753753753754e+05	(-3.12988158711837e+01dB,7.62652810466885e+01°)
1.03903903903904e+05	(-3.12433745592719e+01dB,7.60539257813159e+01°)
1.04054054054054e+05	(-3.11878080282755e+01dB,7.58390660873658e+01°)
1.04204204204204e+05	(-3.11321203623092e+01dB,7.56206427545165e+01°)
1.04354354354354e+05	(-3.10763158768720e+01dB,7.53985958292708e+01°)
1.04504504504504e+05	(-3.10203991274533e+01dB,7.51728646285136e+01°)
1.04654654654655e+05	(-3.09643749183669e+01dB,7.49433877550797e+01°)
1.04804804804805e+05	(-3.09082483118138e+01dB,7.47101031154642e+01°)
1.04954954954955e+05	(-3.08520246371705e+01dB,7.44729479398094e+01°)
1.05105105105105e+05	(-3.07957095005008e+01dB,7.42318588043135e+01°)
1.05255255255255e+05	(-3.07393087942871e+01dB,7.39867716562059e+01°)
1.05405405405405e+05	(-3.06828287073762e+01dB,7.37376218414459e+01°)
1.05555555555555e+05	(-3.06262757351337e+01dB,7.34843441353026e+01°)
1.05705705705706e+05	(-3.05696566897990e+01dB,7.32268727759838e+01°)
1.05855855855856e+05	(-3.05129787110338e+01dB,7.29651415014825e+01°)
1.06006006006006e+05	(-3.04562492766506e+01dB,7.26990835898204e+01°)
1.06156156156156e+05	(-3.03994762135130e+01dB,7.24286319028702e+01°)
1.06306306306306e+05	(-3.03426677085904e+01dB,7.21537189339423e+01°)
1.06456456456456e+05	(-3.02858323201543e+01dB,7.18742768593300e+01°)
1.06606606606607e+05	(-3.02289789890961e+01dB,7.15902375940090e+01°)
1.06756756756757e+05	(-3.01721170503477e+01dB,7.13015328516900e+01°)
1.06906906906907e+05	(-3.01152562443821e+01dB,7.10080942094301e+01°)
1.07057057057057e+05	(-3.00584067287688e+01dB,7.07098531770072e+01°)
1.07207207207207e+05	(-3.00015790897569e+01dB,7.04067412712655e+01°)
1.07357357357357e+05	(-2.99447843538547e+01dB,7.00986900956414e+01°)
1.07507507507507e+05	(-2.98880339993732e+01dB,6.97856314250779e+01°)
1.07657657657658e+05	(-2.98313399678961e+01dB,6.94674972965342e+01°)
1.07807807807808e+05	(-2.97747146756366e+01dB,6.91442201052966e+01°)
1.07957957957958e+05	(-2.97181710246379e+01dB,6.88157327072898e+01°)
1.08108108108108e+05	(-2.96617224137698e+01dB,6.84819685275851e+01°)
1.08258258258258e+05	(-2.96053827494707e+01dB,6.81428616752927e+01°)
1.08408408408408e+05	(-2.95491664561804e+01dB,6.77983470650169e+01°)
1.08558558558558e+05	(-2.94930884864053e+01dB,6.74483605450418e+01°)
1.08708708708709e+05	(-2.94371643303515e+01dB,6.70928390324003e+01°)
1.08858858858859e+05	(-2.93814100250614e+01dB,6.67317206549659e+01°)
1.09009009009009e+05	(-2.93258421629792e+01dB,6.63649449006840e+01°)
1.09159159159159e+05	(-2.92704778998722e+01dB,6.59924527740426e+01°)
1.09309309309309e+05	(-2.92153349620262e+01dB,6.56141869598523e+01°)
1.09459459459459e+05	(-2.91604316526319e+01dB,6.52300919943846e+01°)
1.09609609609609e+05	(-2.91057868572717e+01dB,6.48401144438783e+01°)
1.09759759759760e+05	(-2.90514200484163e+01dB,6.44442030903960e+01°)
1.09909909909910e+05	(-2.89973512888333e+01dB,6.40423091249712e+01°)
1.10060060060060e+05	(-2.89436012338066e+01dB,6.36343863479427e+01°)
1.10210210210210e+05	(-2.88901911320640e+01dB,6.32203913763315e+01°)
1.10360360360360e+05	(-2.88371428253046e+01dB,6.28002838580598e+01°)
1.10510510510510e+05	(-2.87844787462160e+01dB,6.23740266927619e+01°)
1.10660660660661e+05	(-2.87322219148702e+01dB,6.19415862588748e+01°)
1.10810810810811e+05	(-2.86803959333822e+01dB,6.15029326466381e+01°)
1.10960960960961e+05	(-2.86290249787178e+01dB,6.10580398965613e+01°)
1.11111111111111e+05	(-2.85781337935337e+01dB,6.06068862428509e+01°)
1.11261261261261e+05	(-2.85277476749359e+01dB,6.01494543612147e+01°)
1.11411411411411e+05	(-2.84778924610419e+01dB,5.96857316203818e+01°)
1.11561561561561e+05	(-2.84285945152342e+01dB,5.92157103366000e+01°)
1.11711711711712e+05	(-2.83798807079996e+01dB,5.87393880302878e+01°)
1.11861861861862e+05	(-2.83317783962482e+01dB,5.82567676839342e+01°)
1.12012012012012e+05	(-2.82843154000154e+01dB,5.77678580002547e+01°)
1.12162162162162e+05	(-2.82375199764570e+01dB,5.72726736595245e+01°)
1.12312312312312e+05	(-2.81914207910547e+01dB,5.67712355749258e+01°)
1.12462462462462e+05	(-2.81460468859615e+01dB,5.62635711446582e+01°)
1.12612612612612e+05	(-2.81014276454250e+01dB,5.57497144994816e+01°)
1.12762762762763e+05	(-2.80575927582451e+01dB,5.52297067442803e+01°)
1.12912912912913e+05	(-2.80145721772309e+01dB,5.47035961921619e+01°)
1.13063063063063e+05	(-2.79723960756444e+01dB,5.41714385895353e+01°)
1.13213213213213e+05	(-2.79310948006316e+01dB,5.36332973305524e+01°)
1.13363363363363e+05	(-2.78906988236661e+01dB,5.30892436592403e+01°)
1.13513513513513e+05	(-2.78512386880459e+01dB,5.25393568576115e+01°)
1.13663663663663e+05	(-2.78127449535124e+01dB,5.19837244180047e+01°)
1.13813813813814e+05	(-2.77752481380806e+01dB,5.14224421978918e+01°)
1.13963963963964e+05	(-2.77387786571953e+01dB,5.08556145553771e+01°)
1.14114114114114e+05	(-2.77033667603558e+01dB,5.02833544636319e+01°)
1.14264264264264e+05	(-2.76690424653749e+01dB,4.97057836025289e+01°)
1.14414414414414e+05	(-2.76358354904684e+01dB,4.91230324257886e+01°)
1.14564564564564e+05	(-2.76037751843972e+01dB,4.85352402020145e+01°)
1.14714714714715e+05	(-2.75728904549094e+01dB,4.79425550280768e+01°)
1.14864864864865e+05	(-2.75432096957605e+01dB,4.73451338134079e+01°)
1.15015015015015e+05	(-2.75147607126114e+01dB,4.67431422338991e+01°)
1.15165165165165e+05	(-2.74875706481311e+01dB,4.61367546542298e+01°)
1.15315315315315e+05	(-2.74616659066527e+01dB,4.55261540176302e+01°)
1.15465465465465e+05	(-2.74370720787540e+01dB,4.49115317022589e+01°)
1.15615615615615e+05	(-2.74138138661491e+01dB,4.42930873435797e+01°)
1.15765765765766e+05	(-2.73919150072970e+01dB,4.36710286223474e+01°)
1.15915915915916e+05	(-2.73713982041448e+01dB,4.30455710180398e+01°)
1.16066066066066e+05	(-2.73522850504291e+01dB,4.24169375278284e+01°)
1.16216216216216e+05	(-2.73345959619700e+01dB,4.17853583514354e+01°)
1.16366366366366e+05	(-2.73183501093897e+01dB,4.11510705424945e+01°)
1.16516516516516e+05	(-2.73035653536843e+01dB,4.05143176273035e+01°)
1.16666666666666e+05	(-2.72902581850737e+01dB,3.98753491921314e+01°)
1.16816816816817e+05	(-2.72784436655391e+01dB,3.92344204405160e+01°)
1.16966966966967e+05	(-2.72681353754428e+01dB,3.85917917222522e+01°)
1.17117117117117e+05	(-2.72593453646032e+01dB,3.79477280360315e+01°)
1.17267267267267e+05	(-2.72520841081747e+01dB,3.73024985079370e+01°)
1.17417417417417e+05	(-2.72463604676497e+01dB,3.66563758482266e+01°)
1.17567567567567e+05	(-2.72421816572700e+01dB,3.60096357890490e+01°)
1.17717717717717e+05	(-2.72395532160943e+01dB,3.53625565059180e+01°)
1.17867867867868e+05	(-2.72384789859332e+01dB,3.47154180259370e+01°)
1.18018018018018e+05	(-2.72389610953149e+01dB,3.40685016258946e+01°)
1.18168168168168e+05	(-2.72409999496060e+01dB,3.34220892234531e+01°)
1.18318318318318e+05	(-2.72445942273603e+01dB,3.27764627647250e+01°)
1.18468468468468e+05	(-2.72497408829245e+01dB,3.21319036115660e+01°)
1.18618618618618e+05	(-2.72564351552812e+01dB,3.14886919319162e+01°)
1.18768768768768e+05	(-2.72646705830604e+01dB,3.08471060964930e+01°)
1.18918918918919e+05	(-2.72744390256083e+01dB,3.02074220850713e+01°)
1.19069069069069e+05	(-2.72857306899517e+01dB,2.95699129054914e+01°)
1.19219219219219e+05	(-2.72985341634590e+01dB,2.89348480284100e+01°)
1.19369369369369e+05	(-2.73128364519529e+01dB,2.83024928406492e+01°)
1.19519519519519e+05	(-2.73286230229974e+01dB,2.76731081198204e+01°)
1.19669669669669e+05	(-2.73458778540441e+01dB,2.70469495326936e+01°)
1.19819819819820e+05	(-2.73645834850949e+01dB,2.64242671595531e+01°)
1.19969969969970e+05	(-2.73847210755115e+01dB,2.58053050465446e+01°)
1.20120120120120e+05	(-2.74062704645797e+01dB,2.51903007877577e+01°)
1.20270270270270e+05	(-2.74292102354218e+01dB,2.45794851385231e+01°)
1.20420420420420e+05	(-2.74535177818346e+01dB,2.39730816611340e+01°)
1.20570570570570e+05	(-2.74791693776248e+01dB,2.33713064039272e+01°)
1.20720720720720e+05	(-2.75061402480087e+01dB,2.27743676143826e+01°)
1.20870870870871e+05	(-2.75344046426442e+01dB,2.21824654866379e+01°)
1.21021021021021e+05	(-2.75639359098685e+01dB,2.15957919435493e+01°)
1.21171171171171e+05	(-2.75947065717214e+01dB,2.10145304531803e+01°)
1.21321321321321e+05	(-2.76266883993480e+01dB,2.04388558793632e+01°)
1.21471471471471e+05	(-2.76598524883907e+01dB,1.98689343657547e+01°)
1.21621621621621e+05	(-2.76941693339946e+01dB,1.93049232526016e+01°)
1.21771771771771e+05	(-2.77296089050767e+01dB,1.87469710252445e+01°)
1.21921921921922e+05	(-2.77661407175261e+01dB,1.81952172932184e+01°)
1.22072072072072e+05	(-2.78037339060312e+01dB,1.76497927986624e+01°)
1.22222222222222e+05	(-2.78423572942538e+01dB,1.71108194526216e+01°)
1.22372372372372e+05	(-2.78819794630954e+01dB,1.65784103977166e+01°)
1.22522522522522e+05	(-2.79225688168307e+01dB,1.60526700955707e+01°)
1.22672672672672e+05	(-2.79640936469070e+01dB,1.55336944373150e+01°)
1.22822822822822e+05	(-2.80065221932401e+01dB,1.50215708754459e+01°)
1.22972972972973e+05	(-2.80498227028585e+01dB,1.45163785752763e+01°)
1.23123123123123e+05	(-2.80939634857783e+01dB,1.40181885842130e+01°)
1.23273273273273e+05	(-2.81389129680138e+01dB,1.35270640170900e+01°)
1.23423423423423e+05	(-2.81846397416536e+01dB,1.30430602558086e+01°)
1.23573573573573e+05	(-2.82311126119554e+01dB,1.25662251615649e+01°)
1.23723723723723e+05	(-2.82783006414325e+01dB,1.20965992979840e+01°)
1.23873873873874e+05	(-2.83261731909269e+01dB,1.16342161635366e+01°)
1.24024024024024e+05	(-2.83746999576811e+01dB,1.11791024316702e+01°)
1.24174174174174e+05	(-2.84238510104372e+01dB,1.07312781971586e+01°)
1.24324324324324e+05	(-2.84735968216087e+01dB,1.02907572272451e+01°)
1.24474474474474e+05	(-2.85239082965817e+01dB,9.85754721623424e+00°)
1.24624624624624e+05	(-2.85747568002156e+01dB,9.43165004226988e+00°)
1.24774774774774e+05	(-2.86261141806251e+01dB,9.01306202511990e+00°)
1.24924924924925e+05	(-2.86779527903294e+01dB,8.60177418387690e+00°)
1.25075075075075e+05	(-2.87302455048687e+01dB,8.19777249356678e+00°)
1.25225225225225e+05	(-2.87829657389878e+01dB,7.80103813974638e+00°)
1.25375375375375e+05	(-2.88360874604963e+01dB,7.41154777025266e+00°)
1.25525525525525e+05	(-2.88895852019150e+01dB,7.02927374335165e+00°)
1.25675675675675e+05	(-2.89434340700231e+01dB,6.65418437161413e+00°)
1.25825825825825e+05	(-2.89976097534209e+01dB,6.28624416092204e+00°)
1.25975975975976e+05	(-2.90520885282225e+01dB,5.92541404408576e+00°)
1.26126126126126e+05	(-2.91068472619967e+01dB,5.57165160862057e+00°)
1.26276276276276e+05	(-2.91618634160667e+01dB,5.22491131830074e+00°)
1.26426426426426e+05	(-2.92171150462849e+01dB,4.88514472816936e+00°)
1.26576576576576e+05	(-2.92725808023901e+01dB,4.55230069274381e+00°)
1.26726726726726e+05	(-2.93282399260575e+01dB,4.22632556720998e+00°)
1.26876876876876e+05	(-2.93840722477445e+01dB,3.90716340145041e+00°)
1.27027027027027e+05	(-2.94400581824340e+01dB,3.59475612679655e+00°)
1.27177177177177e+05	(-2.94961787243724e+01dB,3.28904373544198e+00°)
1.27327327327327e+05	(-2.95524154408966e+01dB,2.98996445248733e+00°)
1.27477477477477e+05	(-2.96087504654383e+01dB,2.69745490062686e+00°)
1.27627627627627e+05	(-2.96651664897911e+01dB,2.41145025751805e+00°)
1.27777777777777e+05	(-2.97216467557215e+01dB,2.13188440590119e+00°)
1.27927927927928e+05	(-2.97781750459999e+01dB,1.85869007656453e+00°)
1.28078078078078e+05	(-2.98347356749243e+01dB,1.59179898426982e+00°)
1.28228228228228e+05	(-2.98913134784035e+01dB,1.33114195677442e+00°)
1.28378378378378e+05	(-2.99478938036645e+01dB,1.07664905710020e+00°)
1.28528528528528e+05	(-3.00044624986431e+01dB,8.28249699216925e-01°)
1.28678678678678e+05	(-3.00610059011132e+01dB,5.85872757314858e-01°)
1.28828828828828e+05	(-3.01175108276058e+01dB,3.49446668855921e-01°)
1.28978978978979e+05	(-3.01739645621663e+01dB,1.18899531595994e-01°)
1.29129129129129e+05	(-3.02303548449933e+01dB,-1.05840805220144e-01°)
1.29279279279279e+05	(-3.02866698610002e+01dB,-3.24846655287365e-01°)
1.29429429429429e+05	(-3.03428982283359e+01dB,-5.38190415083926e-01°)
1.29579579579579e+05	(-3.03990289868990e+01dB,-7.45944488923571e-01°)
1.29729729729729e+05	(-3.04550515868773e+01dB,-9.48181219004245e-01°)
1.29879879879879e+05	(-3.05109558773386e+01dB,-1.14497282024751e+00°)
1.30030030030030e+05	(-3.05667320949004e+01dB,-1.33639131971999e+00°)
1.30180180180180e+05	(-3.06223708525001e+01dB,-1.52250850043411e+00°)
1.30330330330330e+05	(-3.06778631282859e+01dB,-1.70339584932581e+00°)
1.30480480480480e+05	(-3.07332002546481e+01dB,-1.87912450921254e+00°)
1.30630630630630e+05	(-3.07883739074046e+01dB,-2.04976523453810e+00°)
1.30780780780780e+05	(-3.08433760951564e+01dB,-2.21538835071550e+00°)
1.30930930930930e+05	(-3.08981991488257e+01dB,-2.37606371688520e+00°)
1.31081081081081e+05	(-3.09528357113849e+01dB,-2.53186069190913e+00°)
1.31231231231231e+05	(-3.10072787277882e+01dB,-2.68284810342935e+00°)
1.31381381381381e+05	(-3.10615214351122e+01dB,-2.82909421982290e+00°)
1.31531531531531e+05	(-3.11155573529114e+01dB,-2.97066672489262e+00°)
1.31681681681681e+05	(-3.11693802737941e+01dB,-3.10763269513801e+00°)
1.31831831831831e+05	(-3.12229842542231e+01dB,-3.24005857945681e+00°)
1.31981981981982e+05	(-3.12763636055438e+01dB,-3.36801018113373e+00°)
1.32132132132132e+05	(-3.13295128852401e+01dB,-3.49155264197871e+00°)
1.32282282282282e+05	(-3.13824268884228e+01dB,-3.61075042848282e+00°)
1.32432432432432e+05	(-3.14351006395474e+01dB,-3.72566731986540e+00°)
1.32582582582582e+05	(-3.14875293843621e+01dB,-3.83636639789257e+00°)
1.32732732732732e+05	(-3.15397085820867e+01dB,-3.94291003835132e+00°)
1.32882882882882e+05	(-3.15916338978183e+01dB,-4.04535990407061e+00°)
1.33033033033033e+05	(-3.16433011951634e+01dB,-4.14377693938415e+00°)
1.33183183183183e+05	(-3.16947065290938e+01dB,-4.23822136593664e+00°)
1.33333333333333e+05	(-3.17458461390232e+01dB,-4.32875267973888e+00°)
1.33483483483483e+05	(-3.17967164421014e+01dB,-4.41542964938187e+00°)
1.33633633633633e+05	(-3.18473140267227e+01dB,-4.49831031532637e+00°)
1.33783783783783e+05	(-3.18976356462449e+01dB,-4.57745199018636e+00°)
1.33933933933933e+05	(-3.19476782129148e+01dB,-4.65291125993152e+00°)
1.34084084084084e+05	(-3.19974387919962e+01dB,-4.72474398593601e+00°)
1.34234234234234e+05	(-3.20469145960965e+01dB,-4.79300530780648e+00°)
1.34384384384384e+05	(-3.20961029796859e+01dB,-4.85774964692477e+00°)
1.34534534534534e+05	(-3.21450014338076e+01dB,-4.91903071064553e+00°)
1.34684684684684e+05	(-3.21936075809718e+01dB,-4.97690149709104e+00°)
1.34834834834834e+05	(-3.22419191702295e+01dB,-5.03141430049065e+00°)
1.34984984984984e+05	(-3.22899340724231e+01dB,-5.08262071701365e+00°)
1.35135135135135e+05	(-3.23376502756067e+01dB,-5.13057165104904e+00°)
1.35285285285285e+05	(-3.23850658806330e+01dB,-5.17531732188701e+00°)
1.35435435435435e+05	(-3.24321790969016e+01dB,-5.21690727076112e+00°)
1.35585585585585e+05	(-3.24789882382646e+01dB,-5.25539036821168e+00°)
1.35735735735735e+05	(-3.25254917190836e+01dB,-5.29081482173382e+00°)
1.35885885885885e+05	(-3.25716880504355e+01dB,-5.32322818367638e+00°)
1.36036036036036e+05	(-3.26175758364603e+01dB,-5.35267735935889e+00°)
1.36186186186186e+05	(-3.26631537708490e+01dB,-5.37920861537775e+00°)
1.36336336336336e+05	(-3.27084206334644e+01dB,-5.40286758807252e+00°)
1.36486486486486e+05	(-3.27533752870934e+01dB,-5.42369929212779e+00°)
1.36636636636636e+05	(-3.27980166743241e+01dB,-5.44174812928483e+00°)
1.36786786786786e+05	(-3.28423438145450e+01dB,-5.45705789714196e+00°)
1.36936936936936e+05	(-3.28863558010621e+01dB,-5.46967179802179e+00°)
1.37087087087087e+05	(-3.29300517983287e+01dB,-5.47963244788638e+00°)
1.37237237237237e+05	(-3.29734310392863e+01dB,-5.48698188528221e+00°)
1.37387387387387e+05	(-3.30164928228102e+01dB,-5.49176158029851e+00°)
1.37537537537537e+05	(-3.30592365112581e+01dB,-5.49401244352296e+00°)
1.37687687687687e+05	(-3.31016615281171e+01dB,-5.49377483498174e+00°)
1.37837837837837e+05	(-3.31437673557459e+01dB,-5.49108857304991e+00°)
1.37987987987987e+05	(-3.31855535332084e+01dB,-5.48599294332011e+00°)
1.38138138138138e+05	(-3.32270196541960e+01dB,-5.47852670741962e+00°)
1.38288288288288e+05	(-3.32681653650351e+01dB,-5.46872811176432e+00°)
1.38438438438438e+05	(-3.33089903627758e+01dB,-5.45663489624131e+00°)
1.38588588588588e+05	(-3.33494943933604e+01dB,-5.44228430281164e+00°)
1.38738738738738e+05	(-3.33896772498673e+01dB,-5.42571308402512e+00°)
1.38888888888888e+05	(-3.34295387708281e+01dB,-5.40695751144093e+00°)
1.39039039039038e+05	(-3.34690788386150e+01dB,-5.38605338394735e+00°)
1.39189189189189e+05	(-3.35082973778954e+01dB,-5.36303603597528e+00°)
1.39339339339339e+05	(-3.35471943541521e+01dB,-5.33794034560055e+00°)
1.39489489489489e+05	(-3.35857697722650e+01dB,-5.31080074253037e+00°)
1.39639639639639e+05	(-3.36240236751537e+01dB,-5.28165121597049e+00°)
1.39789789789789e+05	(-3.36619561424766e+01dB,-5.25052532236898e+00°)
1.39939939939939e+05	(-3.36995672893859e+01dB,-5.21745619303450e+00°)
1.40090090090090e+05	(-3.37368572653356e+01dB,-5.18247654162547e+00°)
1.40240240240240e+05	(-3.37738262529402e+01dB,-5.14561867150915e+00°)
1.40390390390390e+05	(-3.38104744668819e+01dB,-5.10691448298786e+00°)
1.40540540540540e+05	(-3.38468021528651e+01dB,-5.06639548039156e+00°)
1.40690690690690e+05	(-3.38828095866153e+01dB,-5.02409277903508e+00°)
1.40840840840840e+05	(-3.39184970729212e+01dB,-4.98003711203995e+00°)
1.40990990990990e+05	(-3.39538649447178e+01dB,-4.93425883701926e+00°)
1.41141141141141e+05	(-3.39889135622089e+01dB,-4.88678794262663e+00°)
1.41291291291291e+05	(-3.40236433120273e+01dB,-4.83765405496739e+00°)
1.41441441441441e+05	(-3.40580546064310e+01dB,-4.78688644387404e+00°)
1.41591591591591e+05	(-3.40921478825344e+01dB,-4.73451402904505e+00°)
1.41741741741741e+05	(-3.41259236015714e+01dB,-4.68056538604787e+00°)
1.41891891891891e+05	(-3.41593822481914e+01dB,-4.62506875218749e+00°)
1.42042042042041e+05	(-3.41925243297844e+01dB,-4.56805203224006e+00°)
1.42192192192192e+05	(-3.42253503758353e+01dB,-4.50954280405434e+00°)
1.42342342342342e+05	(-3.42578609373053e+01dB,-4.44956832402055e+00°)
1.42492492492492e+05	(-3.42900565860405e+01dB,-4.38815553240906e+00°)
