Freq.	-I(V1)
1.00000000000000e+05	(-3.45020701552131e+01dB,8.94443852099358e+01°)
1.00150150150150e+05	(-3.44669081619440e+01dB,8.94372333783374e+01°)
1.00300300300300e+05	(-3.44316738808687e+01dB,8.94299881039544e+01°)
1.00450450450450e+05	(-3.43963667116089e+01dB,8.94226481122740e+01°)
1.00600600600601e+05	(-3.43609860494818e+01dB,8.94152121103454e+01°)
1.00750750750751e+05	(-3.43255312854536e+01dB,8.94076787864953e+01°)
1.00900900900901e+05	(-3.42900018060913e+01dB,8.94000468100390e+01°)
1.01051051051051e+05	(-3.42543969935147e+01dB,8.93923148309872e+01°)
1.01201201201201e+05	(-3.42187162253475e+01dB,8.93844814797468e+01°)
1.01351351351351e+05	(-3.41829588746686e+01dB,8.93765453668182e+01°)
1.01501501501501e+05	(-3.41471243099614e+01dB,8.93685050824860e+01°)
1.01651651651652e+05	(-3.41112118950643e+01dB,8.93603591965062e+01°)
1.01801801801802e+05	(-3.40752209891192e+01dB,8.93521062577867e+01°)
1.01951951951952e+05	(-3.40391509465203e+01dB,8.93437447940637e+01°)
1.02102102102102e+05	(-3.40030011168618e+01dB,8.93352733115721e+01°)
1.02252252252252e+05	(-3.39667708448856e+01dB,8.93266902947100e+01°)
1.02402402402402e+05	(-3.39304594704277e+01dB,8.93179942056989e+01°)
1.02552552552553e+05	(-3.38940663283649e+01dB,8.93091834842365e+01°)
1.02702702702703e+05	(-3.38575907485594e+01dB,8.93002565471454e+01°)
1.02852852852853e+05	(-3.38210320558049e+01dB,8.92912117880143e+01°)
1.03003003003003e+05	(-3.37843895697699e+01dB,8.92820475768346e+01°)
1.03153153153153e+05	(-3.37476626049420e+01dB,8.92727622596296e+01°)
1.03303303303303e+05	(-3.37108504705709e+01dB,8.92633541580786e+01°)
1.03453453453453e+05	(-3.36739524706101e+01dB,8.92538215691336e+01°)
1.03603603603604e+05	(-3.36369679036596e+01dB,8.92441627646302e+01°)
1.03753753753754e+05	(-3.35998960629061e+01dB,8.92343759908920e+01°)
1.03903903903904e+05	(-3.35627362360639e+01dB,8.92244594683273e+01°)
1.04054054054054e+05	(-3.35254877053139e+01dB,8.92144113910202e+01°)
1.04204204204204e+05	(-3.34881497472434e+01dB,8.92042299263137e+01°)
1.04354354354354e+05	(-3.34507216327835e+01dB,8.91939132143863e+01°)
1.04504504504504e+05	(-3.34132026271472e+01dB,8.91834593678214e+01°)
1.04654654654655e+05	(-3.33755919897655e+01dB,8.91728664711684e+01°)
1.04804804804805e+05	(-3.33378889742242e+01dB,8.91621325804976e+01°)
1.04954954954955e+05	(-3.33000928281984e+01dB,8.91512557229464e+01°)
1.05105105105105e+05	(-3.32622027933873e+01dB,8.91402338962578e+01°)
1.05255255255255e+05	(-3.32242181054478e+01dB,8.91290650683119e+01°)
1.05405405405405e+05	(-3.31861379939275e+01dB,8.91177471766476e+01°)
1.05555555555555e+05	(-3.31479616821965e+01dB,8.91062781279776e+01°)
1.05705705705706e+05	(-3.31096883873787e+01dB,8.90946557976941e+01°)
1.05855855855856e+05	(-3.30713173202823e+01dB,8.90828780293657e+01°)
1.06006006006006e+05	(-3.30328476853292e+01dB,8.90709426342265e+01°)
1.06156156156156e+05	(-3.29942786804837e+01dB,8.90588473906550e+01°)
1.06306306306306e+05	(-3.29556094971804e+01dB,8.90465900436452e+01°)
1.06456456456456e+05	(-3.29168393202507e+01dB,8.90341683042667e+01°)
1.06606606606607e+05	(-3.28779673278493e+01dB,8.90215798491172e+01°)
1.06756756756757e+05	(-3.28389926913788e+01dB,8.90088223197638e+01°)
1.06906906906907e+05	(-3.27999145754142e+01dB,8.89958933221753e+01°)
1.07057057057057e+05	(-3.27607321376254e+01dB,8.89827904261439e+01°)
1.07207207207207e+05	(-3.27214445287003e+01dB,8.89695111646966e+01°)
1.07357357357357e+05	(-3.26820508922651e+01dB,8.89560530334971e+01°)
1.07507507507507e+05	(-3.26425503648051e+01dB,8.89424134902351e+01°)
1.07657657657658e+05	(-3.26029420755834e+01dB,8.89285899540068e+01°)
1.07807807807808e+05	(-3.25632251465594e+01dB,8.89145798046822e+01°)
1.07957957957958e+05	(-3.25233986923054e+01dB,8.89003803822630e+01°)
1.08108108108108e+05	(-3.24834618199232e+01dB,8.88859889862271e+01°)
1.08258258258258e+05	(-3.24434136289583e+01dB,8.88714028748624e+01°)
1.08408408408408e+05	(-3.24032532113141e+01dB,8.88566192645879e+01°)
1.08558558558558e+05	(-3.23629796511644e+01dB,8.88416353292627e+01°)
1.08708708708709e+05	(-3.23225920248650e+01dB,8.88264481994825e+01°)
1.08858858858859e+05	(-3.22820894008635e+01dB,8.88110549618626e+01°)
1.09009009009009e+05	(-3.22414708396090e+01dB,8.87954526583081e+01°)
1.09159159159159e+05	(-3.22007353934599e+01dB,8.87796382852712e+01°)
1.09309309309309e+05	(-3.21598821065900e+01dB,8.87636087929935e+01°)
1.09459459459459e+05	(-3.21189100148946e+01dB,8.87473610847353e+01°)
1.09609609609609e+05	(-3.20778181458940e+01dB,8.87308920159902e+01°)
1.09759759759760e+05	(-3.20366055186366e+01dB,8.87141983936850e+01°)
1.09909909909910e+05	(-3.19952711436004e+01dB,8.86972769753643e+01°)
1.10060060060060e+05	(-3.19538140225928e+01dB,8.86801244683608e+01°)
1.10210210210210e+05	(-3.19122331486496e+01dB,8.86627375289485e+01°)
1.10360360360360e+05	(-3.18705275059321e+01dB,8.86451127614813e+01°)
1.10510510510510e+05	(-3.18286960696230e+01dB,8.86272467175140e+01°)
1.10660660660661e+05	(-3.17867378058210e+01dB,8.86091358949076e+01°)
1.10810810810811e+05	(-3.17446516714333e+01dB,8.85907767369169e+01°)
1.10960960960961e+05	(-3.17024366140676e+01dB,8.85721656312606e+01°)
1.11111111111111e+05	(-3.16600915719212e+01dB,8.85532989091738e+01°)
1.11261261261261e+05	(-3.16176154736701e+01dB,8.85341728444417e+01°)
1.11411411411411e+05	(-3.15750072383549e+01dB,8.85147836524156e+01°)
1.11561561561561e+05	(-3.15322657752662e+01dB,8.84951274890080e+01°)
1.11711711711712e+05	(-3.14893899838281e+01dB,8.84752004496699e+01°)
1.11861861861862e+05	(-3.14463787534797e+01dB,8.84549985683469e+01°)
1.12012012012012e+05	(-3.14032309635548e+01dB,8.84345178164150e+01°)
1.12162162162162e+05	(-3.13599454831604e+01dB,8.84137541015954e+01°)
1.12312312312312e+05	(-3.13165211710529e+01dB,8.83927032668482e+01°)
1.12462462462462e+05	(-3.12729568755126e+01dB,8.83713610892428e+01°)
1.12612612612612e+05	(-3.12292514342164e+01dB,8.83497232788071e+01°)
1.12762762762763e+05	(-3.11854036741086e+01dB,8.83277854773530e+01°)
1.12912912912913e+05	(-3.11414124112693e+01dB,8.83055432572778e+01°)
1.13063063063063e+05	(-3.10972764507816e+01dB,8.82829921203420e+01°)
1.13213213213213e+05	(-3.10529945865963e+01dB,8.82601274964215e+01°)
1.13363363363363e+05	(-3.10085656013944e+01dB,8.82369447422352e+01°)
1.13513513513513e+05	(-3.09639882664477e+01dB,8.82134391400455e+01°)
1.13663663663663e+05	(-3.09192613414772e+01dB,8.81896058963326e+01°)
1.13813813813814e+05	(-3.08743835745097e+01dB,8.81654401404412e+01°)
1.13963963963964e+05	(-3.08293537017311e+01dB,8.81409369231989e+01°)
1.14114114114114e+05	(-3.07841704473388e+01dB,8.81160912155060e+01°)
1.14264264264264e+05	(-3.07388325233903e+01dB,8.80908979068949e+01°)
1.14414414414414e+05	(-3.06933386296508e+01dB,8.80653518040605e+01°)
1.14564564564564e+05	(-3.06476874534376e+01dB,8.80394476293578e+01°)
1.14714714714715e+05	(-3.06018776694616e+01dB,8.80131800192687e+01°)
1.14864864864865e+05	(-3.05559079396677e+01dB,8.79865435228352e+01°)
1.15015015015015e+05	(-3.05097769130709e+01dB,8.79595326000597e+01°)
1.15165165165165e+05	(-3.04634832255912e+01dB,8.79321416202694e+01°)
1.15315315315315e+05	(-3.04170254998848e+01dB,8.79043648604466e+01°)
1.15465465465465e+05	(-3.03704023451732e+01dB,8.78761965035215e+01°)
1.15615615615615e+05	(-3.03236123570688e+01dB,8.78476306366280e+01°)
1.15765765765766e+05	(-3.02766541173987e+01dB,8.78186612493205e+01°)
1.15915915915916e+05	(-3.02295261940245e+01dB,8.77892822317520e+01°)
1.16066066066066e+05	(-3.01822271406595e+01dB,8.77594873728104e+01°)
1.16216216216216e+05	(-3.01347554966833e+01dB,8.77292703582142e+01°)
1.16366366366366e+05	(-3.00871097869524e+01dB,8.76986247685641e+01°)
1.16516516516516e+05	(-3.00392885216086e+01dB,8.76675440773517e+01°)
1.16666666666666e+05	(-2.99912901958831e+01dB,8.76360216489214e+01°)
1.16816816816817e+05	(-2.99431132898986e+01dB,8.76040507363868e+01°)
1.16966966966967e+05	(-2.98947562684666e+01dB,8.75716244794984e+01°)
1.17117117117117e+05	(-2.98462175808821e+01dB,8.75387359024624e+01°)
1.17267267267267e+05	(-2.97974956607151e+01dB,8.75053779117080e+01°)
1.17417417417417e+05	(-2.97485889255974e+01dB,8.74715432936030e+01°)
1.17567567567567e+05	(-2.96994957770066e+01dB,8.74372247121155e+01°)
1.17717717717717e+05	(-2.96502146000462e+01dB,8.74024147064195e+01°)
1.17867867867868e+05	(-2.96007437632217e+01dB,8.73671056884447e+01°)
1.18018018018018e+05	(-2.95510816182129e+01dB,8.73312899403665e+01°)
1.18168168168168e+05	(-2.95012264996424e+01dB,8.72949596120356e+01°)
1.18318318318318e+05	(-2.94511767248395e+01dB,8.72581067183460e+01°)
1.18468468468468e+05	(-2.94009305936009e+01dB,8.72207231365382e+01°)
1.18618618618618e+05	(-2.93504863879460e+01dB,8.71828006034362e+01°)
1.18768768768768e+05	(-2.92998423718690e+01dB,8.71443307126165e+01°)
1.18918918918919e+05	(-2.92489967910861e+01dB,8.71053049115071e+01°)
1.19069069069069e+05	(-2.91979478727780e+01dB,8.70657144984135e+01°)
1.19219219219219e+05	(-2.91466938253281e+01dB,8.70255506194707e+01°)
1.19369369369369e+05	(-2.90952328380565e+01dB,8.69848042655171e+01°)
1.19519519519519e+05	(-2.90435630809483e+01dB,8.69434662688904e+01°)
1.19669669669669e+05	(-2.89916827043779e+01dB,8.69015273001400e+01°)
1.19819819819820e+05	(-2.89395898388280e+01dB,8.68589778646563e+01°)
1.19969969969970e+05	(-2.88872825946035e+01dB,8.68158082992117e+01°)
1.20120120120120e+05	(-2.88347590615409e+01dB,8.67720087684118e+01°)
1.20270270270270e+05	(-2.87820173087114e+01dB,8.67275692610541e+01°)
1.20420420420420e+05	(-2.87290553841201e+01dB,8.66824795863900e+01°)
1.20570570570570e+05	(-2.86758713143985e+01dB,8.66367293702883e+01°)
1.20720720720720e+05	(-2.86224631044925e+01dB,8.65903080512959e+01°)
1.20870870870871e+05	(-2.85688287373443e+01dB,8.65432048765932e+01°)
1.21021021021021e+05	(-2.85149661735689e+01dB,8.64954088978399e+01°)
1.21171171171171e+05	(-2.84608733511246e+01dB,8.64469089669081e+01°)
1.21321321321321e+05	(-2.84065481849780e+01dB,8.63976937314992e+01°)
1.21471471471471e+05	(-2.83519885667628e+01dB,8.63477516306389e+01°)
1.21621621621621e+05	(-2.82971923644323e+01dB,8.62970708900497e+01°)
1.21771771771771e+05	(-2.82421574219069e+01dB,8.62456395173923e+01°)
1.21921921921922e+05	(-2.81868815587137e+01dB,8.61934452973757e+01°)
1.22072072072072e+05	(-2.81313625696215e+01dB,8.61404757867280e+01°)
1.22222222222222e+05	(-2.80755982242682e+01dB,8.60867183090257e+01°)
1.22372372372372e+05	(-2.80195862667827e+01dB,8.60321599493751e+01°)
1.22522522522522e+05	(-2.79633244153992e+01dB,8.59767875489410e+01°)
1.22672672672672e+05	(-2.79068103620659e+01dB,8.59205876993176e+01°)
1.22822822822822e+05	(-2.78500417720464e+01dB,8.58635467367362e+01°)
1.22972972972973e+05	(-2.77930162835151e+01dB,8.58056507361032e+01°)
1.23123123123123e+05	(-2.77357315071444e+01dB,8.57468855048633e+01°)
1.23273273273273e+05	(-2.76781850256870e+01dB,8.56872365766814e+01°)
1.23423423423423e+05	(-2.76203743935493e+01dB,8.56266892049357e+01°)
1.23573573573573e+05	(-2.75622971363595e+01dB,8.55652283560174e+01°)
1.23723723723723e+05	(-2.75039507505277e+01dB,8.55028387024279e+01°)
1.23873873873874e+05	(-2.74453327027995e+01dB,8.54395046156675e+01°)
1.24024024024024e+05	(-2.73864404298023e+01dB,8.53752101589071e+01°)
1.24174174174174e+05	(-2.73272713375848e+01dB,8.53099390794364e+01°)
1.24324324324324e+05	(-2.72678228011496e+01dB,8.52436748008782e+01°)
1.24474474474474e+05	(-2.72080921639780e+01dB,8.51764004151627e+01°)
1.24624624624624e+05	(-2.71480767375493e+01dB,8.51080986742513e+01°)
1.24774774774774e+05	(-2.70877738008516e+01dB,8.50387519816004e+01°)
1.24924924924925e+05	(-2.70271805998869e+01dB,8.49683423833575e+01°)
1.25075075075075e+05	(-2.69662943471689e+01dB,8.48968515592772e+01°)
1.25225225225225e+05	(-2.69051122212140e+01dB,8.48242608133480e+01°)
1.25375375375375e+05	(-2.68436313660266e+01dB,8.47505510641189e+01°)
1.25525525525525e+05	(-2.67818488905765e+01dB,8.46757028347142e+01°)
1.25675675675675e+05	(-2.67197618682718e+01dB,8.45996962425245e+01°)
1.25825825825825e+05	(-2.66573673364242e+01dB,8.45225109885619e+01°)
1.25975975975976e+05	(-2.65946622957097e+01dB,8.44441263464669e+01°)
1.26126126126126e+05	(-2.65316437096226e+01dB,8.43645211511526e+01°)
1.26276276276276e+05	(-2.64683085039253e+01dB,8.42836737870731e+01°)
1.26426426426426e+05	(-2.64046535660926e+01dB,8.42015621761019e+01°)
1.26576576576576e+05	(-2.63406757447510e+01dB,8.41181637650039e+01°)
1.26726726726726e+05	(-2.62763718491148e+01dB,8.40334555124864e+01°)
1.26876876876876e+05	(-2.62117386484178e+01dB,8.39474138758124e+01°)
1.27027027027027e+05	(-2.61467728713415e+01dB,8.38600147969585e+01°)
1.27177177177177e+05	(-2.60814712054419e+01dB,8.37712336883003e+01°)
1.27327327327327e+05	(-2.60158302965724e+01dB,8.36810454178068e+01°)
1.27477477477477e+05	(-2.59498467483072e+01dB,8.35894242937229e+01°)
1.27627627627627e+05	(-2.58835171213625e+01dB,8.34963440487217e+01°)
1.27777777777777e+05	(-2.58168379330192e+01dB,8.34017778235047e+01°)
1.27927927927928e+05	(-2.57498056565457e+01dB,8.33056981498274e+01°)
1.28078078078078e+05	(-2.56824167206236e+01dB,8.32080769329283e+01°)
1.28228228228228e+05	(-2.56146675087757e+01dB,8.31088854333362e+01°)
1.28378378378378e+05	(-2.55465543587992e+01dB,8.30080942480329e+01°)
1.28528528528528e+05	(-2.54780735622041e+01dB,8.29056732909426e+01°)
1.28678678678678e+05	(-2.54092213636586e+01dB,8.28015917727235e+01°)
1.28828828828828e+05	(-2.53399939604433e+01dB,8.26958181798307e+01°)
1.28978978978979e+05	(-2.52703875019154e+01dB,8.25883202528242e+01°)
1.29129129129129e+05	(-2.52003980889850e+01dB,8.24790649638875e+01°)
1.29279279279279e+05	(-2.51300217736054e+01dB,8.23680184935278e+01°)
1.29429429429429e+05	(-2.50592545582797e+01dB,8.22551462064229e+01°)
1.29579579579579e+05	(-2.49880923955854e+01dB,8.21404126263799e+01°)
1.29729729729729e+05	(-2.49165311877201e+01dB,8.20237814103701e+01°)
1.29879879879879e+05	(-2.48445667860711e+01dB,8.19052153216010e+01°)
1.30030030030030e+05	(-2.47721949908114e+01dB,8.17846762015878e+01°)
1.30180180180180e+05	(-2.46994115505249e+01dB,8.16621249411804e+01°)
1.30330330330330e+05	(-2.46262121618658e+01dB,8.15375214505064e+01°)
1.30480480480480e+05	(-2.45525924692539e+01dB,8.14108246277814e+01°)
1.30630630630630e+05	(-2.44785480646115e+01dB,8.12819923269441e+01°)
1.30780780780780e+05	(-2.44040744871454e+01dB,8.11509813240635e+01°)
1.30930930930930e+05	(-2.43291672231782e+01dB,8.10177472824712e+01°)
1.31081081081081e+05	(-2.42538217060360e+01dB,8.08822447165634e+01°)
1.31231231231231e+05	(-2.41780333159950e+01dB,8.07444269542186e+01°)
1.31381381381381e+05	(-2.41017973802958e+01dB,8.06042460977742e+01°)
1.31531531531531e+05	(-2.40251091732297e+01dB,8.04616529835019e+01°)
1.31681681681681e+05	(-2.39479639163051e+01dB,8.03165971395195e+01°)
1.31831831831831e+05	(-2.38703567785006e+01dB,8.01690267420756e+01°)
1.31981981981982e+05	(-2.37922828766140e+01dB,8.00188885701399e+01°)
1.32132132132132e+05	(-2.37137372757143e+01dB,7.98661279582278e+01°)
1.32282282282282e+05	(-2.36347149897071e+01dB,7.97106887473899e+01°)
1.32432432432432e+05	(-2.35552109820236e+01dB,7.95525132342876e+01°)
1.32582582582582e+05	(-2.34752201664427e+01dB,7.93915421182795e+01°)
1.32732732732732e+05	(-2.33947374080601e+01dB,7.92277144464359e+01°)
1.32882882882882e+05	(-2.33137575244146e+01dB,7.90609675563979e+01°)
1.33033033033033e+05	(-2.32322752867872e+01dB,7.88912370169937e+01°)
1.33183183183183e+05	(-2.31502854216863e+01dB,7.87184565665222e+01°)
1.33333333333333e+05	(-2.30677826125356e+01dB,7.85425580486097e+01°)
1.33483483483483e+05	(-2.29847615015817e+01dB,7.83634713455450e+01°)
1.33633633633633e+05	(-2.29012166920389e+01dB,7.81811243089907e+01°)
1.33783783783783e+05	(-2.28171427504917e+01dB,7.79954426879700e+01°)
1.33933933933933e+05	(-2.27325342095771e+01dB,7.78063500540220e+01°)
1.34084084084084e+05	(-2.26473855709674e+01dB,7.76137677234174e+01°)
1.34234234234234e+05	(-2.25616913086806e+01dB,7.74176146763210e+01°)
1.34384384384384e+05	(-2.24754458727435e+01dB,7.72178074727887e+01°)
1.34534534534534e+05	(-2.23886436932370e+01dB,7.70142601654789e+01°)
1.34684684684684e+05	(-2.23012791847540e+01dB,7.68068842089605e+01°)
1.34834834834834e+05	(-2.22133467513037e+01dB,7.65955883654941e+01°)
1.34984984984984e+05	(-2.21248407916976e+01dB,7.63802786071621e+01°)
1.35135135135135e+05	(-2.20357557054560e+01dB,7.61608580142227e+01°)
1.35285285285285e+05	(-2.19460858992772e+01dB,7.59372266695605e+01°)
1.35435435435435e+05	(-2.18558257941129e+01dB,7.57092815491059e+01°)
1.35585585585585e+05	(-2.17649698328987e+01dB,7.54769164080960e+01°)
1.35735735735735e+05	(-2.16735124889921e+01dB,7.52400216630508e+01°)
1.35885885885885e+05	(-2.15814482753723e+01dB,7.49984842693377e+01°)
1.36036036036036e+05	(-2.14887717546627e+01dB,7.47521875942036e+01°)
1.36186186186186e+05	(-2.13954775500412e+01dB,7.45010112851549e+01°)
1.36336336336336e+05	(-2.13015603571064e+01dB,7.42448311335699e+01°)
1.36486486486486e+05	(-2.12070149567744e+01dB,7.39835189334395e+01°)
1.36636636636636e+05	(-2.11118362292886e+01dB,7.37169423351333e+01°)
1.36786786786786e+05	(-2.10160191694246e+01dB,7.34449646941055e+01°)
1.36936936936936e+05	(-2.09195589029869e+01dB,7.31674449144614e+01°)
1.37087087087087e+05	(-2.08224507046938e+01dB,7.28842372873270e+01°)
1.37237237237237e+05	(-2.07246900175584e+01dB,7.25951913239743e+01°)
1.37387387387387e+05	(-2.06262724738795e+01dB,7.23001515836858e+01°)
1.37537537537537e+05	(-2.05271939179658e+01dB,7.19989574963581e+01°)
1.37687687687687e+05	(-2.04274504307226e+01dB,7.16914431798803e+01°)
1.37837837837837e+05	(-2.03270383562449e+01dB,7.13774372523556e+01°)
1.37987987987987e+05	(-2.02259543305637e+01dB,7.10567626392731e+01°)
1.38138138138138e+05	(-2.01241953127090e+01dB,7.07292363757856e+01°)
1.38288288288288e+05	(-2.00217586182591e+01dB,7.03946694043002e+01°)
1.38438438438438e+05	(-1.99186419555618e+01dB,7.00528663676522e+01°)
1.38588588588588e+05	(-1.98148434648192e+01dB,6.97036253981982e+01°)
1.38738738738738e+05	(-1.97103617602481e+01dB,6.93467379032515e+01°)
1.38888888888888e+05	(-1.96051959755325e+01dB,6.89819883473640e+01°)
1.39039039039038e+05	(-1.94993458128062e+01dB,6.86091540320709e+01°)
1.39189189189189e+05	(-1.93928115954106e+01dB,6.82280048738247e+01°)
1.39339339339339e+05	(-1.92855943246930e+01dB,6.78383031809807e+01°)
1.39489489489489e+05	(-1.91776957411193e+01dB,6.74398034308417e+01°)
1.39639639639639e+05	(-1.90691183899948e+01dB,6.70322520479391e+01°)
1.39789789789789e+05	(-1.89598656920969e+01dB,6.66153871849145e+01°)
1.39939939939939e+05	(-1.88499420195404e+01dB,6.61889385075761e+01°)
1.40090090090090e+05	(-1.87393527772080e+01dB,6.57526269859375e+01°)
1.40240240240240e+05	(-1.86281044900919e+01dB,6.53061646933122e+01°)
1.40390390390390e+05	(-1.85162048969026e+01dB,6.48492546158253e+01°)
1.40540540540540e+05	(-1.84036630503120e+01dB,6.43815904750283e+01°)
1.40690690690690e+05	(-1.82904894242053e+01dB,6.39028565666621e+01°)
1.40840840840840e+05	(-1.81766960283171e+01dB,6.34127276190073e+01°)
1.40990990990990e+05	(-1.80622965306341e+01dB,6.29108686746967e+01°)
1.41141141141141e+05	(-1.79473063879365e+01dB,6.23969350003401e+01°)
1.41291291291291e+05	(-1.78317429848460e+01dB,6.18705720288390e+01°)
1.41441441441441e+05	(-1.77156257817297e+01dB,6.13314153398256e+01°)
1.41591591591591e+05	(-1.75989764717860e+01dB,6.07790906842890e+01°)
1.41741741741741e+05	(-1.74818191476065e+01dB,6.02132140601053e+01°)
1.41891891891891e+05	(-1.73641804774611e+01dB,5.96333918459044e+01°)
1.42042042042041e+05	(-1.72460898914992e+01dB,5.90392210014688e+01°)
1.42192192192192e+05	(-1.71275797779843e+01dB,5.84302893436549e+01°)
1.42342342342342e+05	(-1.70086856895905e+01dB,5.78061759076809e+01°)
1.42492492492492e+05	(-1.68894465596805e+01dB,5.71664514044965e+01°)
1.42642642642642e+05	(-1.67699049283483e+01dB,5.65106787858487e+01°)
