Freq.	-I(V1)
1.00000000000000e+05	(-3.42016208237291e+01dB,8.81993474522070e+01°)
1.00150150150150e+05	(-3.41637981312586e+01dB,8.81756035873819e+01°)
1.00300300300300e+05	(-3.41258818839576e+01dB,8.81515374147832e+01°)
1.00450450450450e+05	(-3.40878713550781e+01dB,8.81271442914365e+01°)
1.00600600600601e+05	(-3.40497658142091e+01dB,8.81024195024303e+01°)
1.00750750750751e+05	(-3.40115645272885e+01dB,8.80773582597254e+01°)
1.00900900900901e+05	(-3.39732667566158e+01dB,8.80519557009442e+01°)
1.01051051051051e+05	(-3.39348717608671e+01dB,8.80262068881392e+01°)
1.01201201201201e+05	(-3.38963787951110e+01dB,8.80001068065395e+01°)
1.01351351351351e+05	(-3.38577871108274e+01dB,8.79736503632772e+01°)
1.01501501501501e+05	(-3.38190959559271e+01dB,8.79468323860907e+01°)
1.01651651651652e+05	(-3.37803045747744e+01dB,8.79196476220067e+01°)
1.01801801801802e+05	(-3.37414122082108e+01dB,8.78920907359988e+01°)
1.01951951951952e+05	(-3.37024180935811e+01dB,8.78641563096239e+01°)
1.02102102102102e+05	(-3.36633214647621e+01dB,8.78358388396345e+01°)
1.02252252252252e+05	(-3.36241215521930e+01dB,8.78071327365686e+01°)
1.02402402402402e+05	(-3.35848175829083e+01dB,8.77780323233137e+01°)
1.02552552552553e+05	(-3.35454087805730e+01dB,8.77485318336477e+01°)
1.02702702702703e+05	(-3.35058943655209e+01dB,8.77186254107549e+01°)
1.02852852852853e+05	(-3.34662735547947e+01dB,8.76883071057159e+01°)
1.03003003003003e+05	(-3.34265455621890e+01dB,8.76575708759727e+01°)
1.03153153153153e+05	(-3.33867095982967e+01dB,8.76264105837672e+01°)
1.03303303303303e+05	(-3.33467648705575e+01dB,8.75948199945538e+01°)
1.03453453453453e+05	(-3.33067105833097e+01dB,8.75627927753846e+01°)
1.03603603603604e+05	(-3.32665459378454e+01dB,8.75303224932679e+01°)
1.03753753753754e+05	(-3.32262701324682e+01dB,8.74974026134984e+01°)
1.03903903903904e+05	(-3.31858823625550e+01dB,8.74640264979598e+01°)
1.04054054054054e+05	(-3.31453818206208e+01dB,8.74301874033990e+01°)
1.04204204204204e+05	(-3.31047676963871e+01dB,8.73958784796709e+01°)
1.04354354354354e+05	(-3.30640391768540e+01dB,8.73610927679542e+01°)
1.04504504504504e+05	(-3.30231954463766e+01dB,8.73258231989374e+01°)
1.04654654654655e+05	(-3.29822356867442e+01dB,8.72900625909745e+01°)
1.04804804804805e+05	(-3.29411590772650e+01dB,8.72538036482104e+01°)
1.04954954954955e+05	(-3.28999647948541e+01dB,8.72170389586747e+01°)
1.05105105105105e+05	(-3.28586520141262e+01dB,8.71797609923448e+01°)
1.05255255255255e+05	(-3.28172199074925e+01dB,8.71419620991767e+01°)
1.05405405405405e+05	(-3.27756676452632e+01dB,8.71036345071031e+01°)
1.05555555555555e+05	(-3.27339943957536e+01dB,8.70647703199998e+01°)
1.05705705705706e+05	(-3.26921993253964e+01dB,8.70253615156179e+01°)
1.05855855855856e+05	(-3.26502815988583e+01dB,8.69853999434832e+01°)
1.06006006006006e+05	(-3.26082403791627e+01dB,8.69448773227612e+01°)
1.06156156156156e+05	(-3.25660748278172e+01dB,8.69037852400878e+01°)
1.06306306306306e+05	(-3.25237841049477e+01dB,8.68621151473653e+01°)
1.06456456456456e+05	(-3.24813673694379e+01dB,8.68198583595232e+01°)
1.06606606606607e+05	(-3.24388237790749e+01dB,8.67770060522432e+01°)
1.06756756756757e+05	(-3.23961524907016e+01dB,8.67335492596484e+01°)
1.06906906906907e+05	(-3.23533526603754e+01dB,8.66894788719558e+01°)
1.07057057057057e+05	(-3.23104234435336e+01dB,8.66447856330929e+01°)
1.07207207207207e+05	(-3.22673639951663e+01dB,8.65994601382758e+01°)
1.07357357357357e+05	(-3.22241734699958e+01dB,8.65534928315514e+01°)
1.07507507507507e+05	(-3.21808510226646e+01dB,8.65068740033001e+01°)
1.07657657657658e+05	(-3.21373958079299e+01dB,8.64595937877020e+01°)
1.07807807807808e+05	(-3.20938069808673e+01dB,8.64116421601632e+01°)
1.07957957957958e+05	(-3.20500836970822e+01dB,8.63630089347043e+01°)
1.08108108108108e+05	(-3.20062251129295e+01dB,8.63136837613092e+01°)
1.08258258258258e+05	(-3.19622303857433e+01dB,8.62636561232349e+01°)
1.08408408408408e+05	(-3.19180986740744e+01dB,8.62129153342817e+01°)
1.08558558558558e+05	(-3.18738291379382e+01dB,8.61614505360230e+01°)
1.08708708708709e+05	(-3.18294209390721e+01dB,8.61092506949960e+01°)
1.08858858858859e+05	(-3.17848732412027e+01dB,8.60563045998514e+01°)
1.09009009009009e+05	(-3.17401852103243e+01dB,8.60026008584626e+01°)
1.09159159159159e+05	(-3.16953560149871e+01dB,8.59481278949953e+01°)
1.09309309309309e+05	(-3.16503848265976e+01dB,8.58928739469355e+01°)
1.09459459459459e+05	(-3.16052708197296e+01dB,8.58368270620771e+01°)
1.09609609609609e+05	(-3.15600131724477e+01dB,8.57799750954692e+01°)
1.09759759759760e+05	(-3.15146110666429e+01dB,8.57223057063215e+01°)
1.09909909909910e+05	(-3.14690636883808e+01dB,8.56638063548707e+01°)
1.10060060060060e+05	(-3.14233702282630e+01dB,8.56044642992045e+01°)
1.10210210210210e+05	(-3.13775298818020e+01dB,8.55442665920464e+01°)
1.10360360360360e+05	(-3.13315418498101e+01dB,8.54832000774997e+01°)
1.10510510510510e+05	(-3.12854053388027e+01dB,8.54212513877511e+01°)
1.10660660660661e+05	(-3.12391195614162e+01dB,8.53584069397353e+01°)
1.10810810810811e+05	(-3.11926837368417e+01dB,8.52946529317594e+01°)
1.10960960960961e+05	(-3.11460970912743e+01dB,8.52299753400884e+01°)
1.11111111111111e+05	(-3.10993588583789e+01dB,8.51643599154928e+01°)
1.11261261261261e+05	(-3.10524682797726e+01dB,8.50977921797568e+01°)
1.11411411411411e+05	(-3.10054246055249e+01dB,8.50302574221505e+01°)
1.11561561561561e+05	(-3.09582270946753e+01dB,8.49617406958647e+01°)
1.11711711711712e+05	(-3.09108750157703e+01dB,8.48922268144095e+01°)
1.11861861861862e+05	(-3.08633676474186e+01dB,8.48217003479784e+01°)
1.12012012012012e+05	(-3.08157042788666e+01dB,8.47501456197781e+01°)
1.12162162162162e+05	(-3.07678842105939e+01dB,8.46775467023249e+01°)
1.12312312312312e+05	(-3.07199067549302e+01dB,8.46038874137100e+01°)
1.12462462462462e+05	(-3.06717712366933e+01dB,8.45291513138334e+01°)
1.12612612612612e+05	(-3.06234769938497e+01dB,8.44533217006092e+01°)
1.12762762762763e+05	(-3.05750233781981e+01dB,8.43763816061432e+01°)
1.12912912912913e+05	(-3.05264097560764e+01dB,8.42983137928842e+01°)
1.13063063063063e+05	(-3.04776355090937e+01dB,8.42191007497514e+01°)
1.13213213213213e+05	(-3.04287000348864e+01dB,8.41387246882395e+01°)
1.13363363363363e+05	(-3.03796027479012e+01dB,8.40571675385040e+01°)
1.13513513513513e+05	(-3.03303430802044e+01dB,8.39744109454282e+01°)
1.13663663663663e+05	(-3.02809204823181e+01dB,8.38904362646751e+01°)
1.13813813813814e+05	(-3.02313344240860e+01dB,8.38052245587266e+01°)
1.13963963963964e+05	(-3.01815843955669e+01dB,8.37187565929128e+01°)
1.14114114114114e+05	(-3.01316699079591e+01dB,8.36310128314342e+01°)
1.14264264264264e+05	(-3.00815904945552e+01dB,8.35419734333806e+01°)
1.14414414414414e+05	(-3.00313457117290e+01dB,8.34516182487495e+01°)
1.14564564564564e+05	(-2.99809351399547e+01dB,8.33599268144687e+01°)
1.14714714714715e+05	(-2.99303583848599e+01dB,8.32668783504258e+01°)
1.14864864864865e+05	(-2.98796150783130e+01dB,8.31724517555092e+01°)
1.15015015015015e+05	(-2.98287048795465e+01dB,8.30766256036668e+01°)
1.15165165165165e+05	(-2.97776274763161e+01dB,8.29793781399839e+01°)
1.15315315315315e+05	(-2.97263825860978e+01dB,8.28806872767885e+01°)
1.15465465465465e+05	(-2.96749699573237e+01dB,8.27805305897880e+01°)
1.15615615615615e+05	(-2.96233893706566e+01dB,8.26788853142423e+01°)
1.15765765765766e+05	(-2.95716406403063e+01dB,8.25757283411819e+01°)
1.15915915915916e+05	(-2.95197236153866e+01dB,8.24710362136741e+01°)
1.16066066066066e+05	(-2.94676381813157e+01dB,8.23647851231474e+01°)
1.16216216216216e+05	(-2.94153842612603e+01dB,8.22569509057789e+01°)
1.16366366366366e+05	(-2.93629618176249e+01dB,8.21475090389541e+01°)
1.16516516516516e+05	(-2.93103708535869e+01dB,8.20364346378057e+01°)
1.16666666666666e+05	(-2.92576114146792e+01dB,8.19237024518415e+01°)
1.16816816816817e+05	(-2.92046835904214e+01dB,8.18092868616693e+01°)
1.16966966966967e+05	(-2.91515875160005e+01dB,8.16931618758288e+01°)
1.17117117117117e+05	(-2.90983233740019e+01dB,8.15753011277409e+01°)
1.17267267267267e+05	(-2.90448913961932e+01dB,8.14556778727842e+01°)
1.17417417417417e+05	(-2.89912918653606e+01dB,8.13342649855107e+01°)
1.17567567567567e+05	(-2.89375251171993e+01dB,8.12110349570127e+01°)
1.17717717717717e+05	(-2.88835915422599e+01dB,8.10859598924516e+01°)
1.17867867867868e+05	(-2.88294915879515e+01dB,8.09590115087646e+01°)
1.18018018018018e+05	(-2.87752257606015e+01dB,8.08301611325595e+01°)
1.18168168168168e+05	(-2.87207946275759e+01dB,8.06993796982157e+01°)
1.18318318318318e+05	(-2.86661988194581e+01dB,8.05666377462032e+01°)
1.18468468468468e+05	(-2.86114390322901e+01dB,8.04319054216383e+01°)
1.18618618618618e+05	(-2.85565160298746e+01dB,8.02951524730902e+01°)
1.18768768768768e+05	(-2.85014306461420e+01dB,8.01563482516585e+01°)
1.18918918918919e+05	(-2.84461837875800e+01dB,8.00154617103376e+01°)
1.19069069069069e+05	(-2.83907764357296e+01dB,7.98724614036887e+01°)
1.19219219219219e+05	(-2.83352096497471e+01dB,7.97273154878390e+01°)
1.19369369369369e+05	(-2.82794845690324e+01dB,7.95799917208287e+01°)
1.19519519519519e+05	(-2.82236024159266e+01dB,7.94304574633285e+01°)
1.19669669669669e+05	(-2.81675644984768e+01dB,7.92786796797499e+01°)
1.19819819819820e+05	(-2.81113722132715e+01dB,7.91246249397727e+01°)
1.19969969969970e+05	(-2.80550270483447e+01dB,7.89682594203134e+01°)
1.20120120120120e+05	(-2.79985305861519e+01dB,7.88095489079629e+01°)
1.20270270270270e+05	(-2.79418845066155e+01dB,7.86484588019176e+01°)
1.20420420420420e+05	(-2.78850905902427e+01dB,7.84849541174344e+01°)
1.20570570570570e+05	(-2.78281507213136e+01dB,7.83189994898379e+01°)
1.20720720720720e+05	(-2.77710668911419e+01dB,7.81505591791100e+01°)
1.20870870870871e+05	(-2.77138412014056e+01dB,7.79795970750939e+01°)
1.21021021021021e+05	(-2.76564758675505e+01dB,7.78060767033459e+01°)
1.21171171171171e+05	(-2.75989732222623e+01dB,7.76299612316668e+01°)
1.21321321321321e+05	(-2.75413357190107e+01dB,7.74512134773511e+01°)
1.21471471471471e+05	(-2.74835659356618e+01dB,7.72697959151875e+01°)
1.21621621621621e+05	(-2.74256665781586e+01dB,7.70856706862503e+01°)
1.21771771771771e+05	(-2.73676404842696e+01dB,7.68987996075194e+01°)
1.21921921921922e+05	(-2.73094906274016e+01dB,7.67091441823694e+01°)
1.22072072072072e+05	(-2.72512201204773e+01dB,7.65166656119689e+01°)
1.22222222222222e+05	(-2.71928322198746e+01dB,7.63213248076319e+01°)
1.22372372372372e+05	(-2.71343303294248e+01dB,7.61230824041659e+01°)
1.22522522522522e+05	(-2.70757180044682e+01dB,7.59218987742600e+01°)
1.22672672672672e+05	(-2.70169989559629e+01dB,7.57177340439601e+01°)
1.22822822822822e+05	(-2.69581770546449e+01dB,7.55105481092772e+01°)
1.22972972972973e+05	(-2.68992563352336e+01dB,7.53003006539761e+01°)
1.23123123123123e+05	(-2.68402410006814e+01dB,7.50869511685947e+01°)
1.23273273273273e+05	(-2.67811354264593e+01dB,7.48704589707421e+01°)
1.23423423423423e+05	(-2.67219441648771e+01dB,7.46507832267263e+01°)
1.23573573573573e+05	(-2.66626719494296e+01dB,7.44278829745626e+01°)
1.23723723723723e+05	(-2.66033236991646e+01dB,7.42017171484139e+01°)
1.23873873873874e+05	(-2.65439045230653e+01dB,7.39722446045149e+01°)
1.24024024024024e+05	(-2.64844197244397e+01dB,7.37394241486328e+01°)
1.24174174174174e+05	(-2.64248748053105e+01dB,7.35032145651162e+01°)
1.24324324324324e+05	(-2.63652754707952e+01dB,7.32635746475850e+01°)
1.24474474474474e+05	(-2.63056276334693e+01dB,7.30204632313130e+01°)
1.24624624624624e+05	(-2.62459374177010e+01dB,7.27738392273547e+01°)
1.24774774774774e+05	(-2.61862111639487e+01dB,7.25236616584678e+01°)
1.24924924924925e+05	(-2.61264554330091e+01dB,7.22698896968799e+01°)
1.25075075075075e+05	(-2.60666770102041e+01dB,7.20124827039503e+01°)
1.25225225225225e+05	(-2.60068829094946e+01dB,7.17514002717717e+01°)
1.25375375375375e+05	(-2.59470803775065e+01dB,7.14866022667584e+01°)
1.25525525525525e+05	(-2.58872768974555e+01dB,7.12180488752640e+01°)
1.25675675675675e+05	(-2.58274801929556e+01dB,7.09457006512695e+01°)
1.25825825825825e+05	(-2.57676982316947e+01dB,7.06695185661780e+01°)
1.25975975975976e+05	(-2.57079392289611e+01dB,7.03894640607521e+01°)
1.26126126126126e+05	(-2.56482116510026e+01dB,7.01054990992226e+01°)
1.26276276276276e+05	(-2.55885242182001e+01dB,6.98175862255962e+01°)
1.26426426426426e+05	(-2.55288859080362e+01dB,6.95256886221826e+01°)
1.26576576576576e+05	(-2.54693059578375e+01dB,6.92297701703563e+01°)
1.26726726726726e+05	(-2.54097938672709e+01dB,6.89297955135653e+01°)
1.26876876876876e+05	(-2.53503594005703e+01dB,6.86257301225879e+01°)
1.27027027027027e+05	(-2.52910125884715e+01dB,6.83175403630352e+01°)
1.27177177177177e+05	(-2.52317637298313e+01dB,6.80051935650899e+01°)
1.27327327327327e+05	(-2.51726233929065e+01dB,6.76886580954579e+01°)
1.27477477477477e+05	(-2.51136024162665e+01dB,6.73679034315088e+01°)
1.27627627627627e+05	(-2.50547119093149e+01dB,6.70429002375647e+01°)
1.27777777777777e+05	(-2.49959632523918e+01dB,6.67136204432892e+01°)
1.27927927927928e+05	(-2.49373680964305e+01dB,6.63800373241189e+01°)
1.28078078078078e+05	(-2.48789383621413e+01dB,6.60421255836644e+01°)
1.28228228228228e+05	(-2.48206862386921e+01dB,6.56998614379992e+01°)
1.28378378378378e+05	(-2.47626241818596e+01dB,6.53532227017389e+01°)
1.28528528528528e+05	(-2.47047649116212e+01dB,6.50021888758028e+01°)
1.28678678678678e+05	(-2.46471214091583e+01dB,6.46467412367307e+01°)
1.28828828828828e+05	(-2.45897069132439e+01dB,6.42868629274181e+01°)
1.28978978978979e+05	(-2.45325349159832e+01dB,6.39225390491144e+01°)
1.29129129129129e+05	(-2.44756191578824e+01dB,6.35537567545127e+01°)
1.29279279279279e+05	(-2.44189736222144e+01dB,6.31805053417457e+01°)
1.29429429429429e+05	(-2.43626125286573e+01dB,6.28027763490819e+01°)
1.29579579579579e+05	(-2.43065503261776e+01dB,6.24205636501013e+01°)
1.29729729729729e+05	(-2.42508016851345e+01dB,6.20338635491134e+01°)
1.29879879879879e+05	(-2.41953814885806e+01dB,6.16426748765590e+01°)
1.30030030030030e+05	(-2.41403048227373e+01dB,6.12469990841230e+01°)
1.30180180180180e+05	(-2.40855869666252e+01dB,6.08468403392663e+01°)
1.30330330330330e+05	(-2.40312433808304e+01dB,6.04422056188693e+01°)
1.30480480480480e+05	(-2.39772896953911e+01dB,6.00331048016577e+01°)
1.30630630630630e+05	(-2.39237416967918e+01dB,5.96195507590724e+01°)
1.30780780780780e+05	(-2.38706153140538e+01dB,5.92015594442216e+01°)
1.30930930930930e+05	(-2.38179266039156e+01dB,5.87791499785437e+01°)
1.31081081081081e+05	(-2.37656917350982e+01dB,5.83523447357934e+01°)
1.31231231231231e+05	(-2.37139269716568e+01dB,5.79211694229495e+01°)
1.31381381381381e+05	(-2.36626486554205e+01dB,5.74856531576341e+01°)
1.31531531531531e+05	(-2.36118731875295e+01dB,5.70458285416206e+01°)
1.31681681681681e+05	(-2.35616170090822e+01dB,5.66017317300016e+01°)
1.31831831831831e+05	(-2.35118965809079e+01dB,5.61534024955789e+01°)
1.31981981981982e+05	(-2.34627283624885e+01dB,5.57008842880391e+01°)
1.32132132132132e+05	(-2.34141287900552e+01dB,5.52442242874690e+01°)
1.32282282282282e+05	(-2.33661142538927e+01dB,5.47834734517741e+01°)
1.32432432432432e+05	(-2.33187010748894e+01dB,5.43186865575611e+01°)
1.32582582582582e+05	(-2.32719054803748e+01dB,5.38499222340548e+01°)
1.32732732732732e+05	(-2.32257435792943e+01dB,5.33772429896290e+01°)
1.32882882882882e+05	(-2.31802313367755e+01dB,5.29007152305427e+01°)
1.33033033033033e+05	(-2.31353845481448e+01dB,5.24204092714914e+01°)
1.33183183183183e+05	(-2.30912188124601e+01dB,5.19363993375995e+01°)
1.33333333333333e+05	(-2.30477495056312e+01dB,5.14487635575050e+01°)
1.33483483483483e+05	(-2.30049917532016e+01dB,5.09575839472147e+01°)
1.33633633633633e+05	(-2.29629604028751e+01dB,5.04629463844340e+01°)
1.33783783783783e+05	(-2.29216699968708e+01dB,4.99649405731134e+01°)
1.33933933933933e+05	(-2.28811347441982e+01dB,4.94636599979861e+01°)
1.34084084084084e+05	(-2.28413684929452e+01dB,4.89592018689150e+01°)
1.34234234234234e+05	(-2.28023847026780e+01dB,4.84516670549042e+01°)
1.34384384384384e+05	(-2.27641964170534e+01dB,4.79411600076823e+01°)
1.34534534534534e+05	(-2.27268162367462e+01dB,4.74277886748070e+01°)
1.34684684684684e+05	(-2.26902562927997e+01dB,4.69116644022942e+01°)
1.34834834834834e+05	(-2.26545282205030e+01dB,4.63929018268270e+01°)
1.34984984984984e+05	(-2.26196431339065e+01dB,4.58716187576503e+01°)
1.35135135135135e+05	(-2.25856116010812e+01dB,4.53479360483173e+01°)
1.35285285285285e+05	(-2.25524436202291e+01dB,4.48219774585045e+01°)
1.35435435435435e+05	(-2.25201485967527e+01dB,4.42938695061722e+01°)
1.35585585585585e+05	(-2.24887353213845e+01dB,4.37637413103995e+01°)
1.35735735735735e+05	(-2.24582119494799e+01dB,4.32317244252830e+01°)
1.35885885885885e+05	(-2.24285859815689e+01dB,4.26979526653362e+01°)
1.36036036036036e+05	(-2.23998642452606e+01dB,4.21625619228849e+01°)
1.36186186186186e+05	(-2.23720528785871e+01dB,4.16256899780014e+01°)
1.36336336336336e+05	(-2.23451573148706e+01dB,4.10874763015666e+01°)
1.36486486486486e+05	(-2.23191822691855e+01dB,4.05480618520974e+01°)
1.36636636636636e+05	(-2.22941317264879e+01dB,4.00075888670142e+01°)
1.36786786786786e+05	(-2.22700089314700e+01dB,3.94662006490610e+01°)
1.36936936936936e+05	(-2.22468163801919e+01dB,3.89240413486252e+01°)
1.37087087087087e+05	(-2.22245558135366e+01dB,3.83812557427289e+01°)
1.37237237237237e+05	(-2.22032282125199e+01dB,3.78379890114879e+01°)
1.37387387387387e+05	(-2.21828337954820e+01dB,3.72943865128518e+01°)
1.37537537537537e+05	(-2.21633720171763e+01dB,3.67505935564508e+01°)
1.37687687687687e+05	(-2.21448415697611e+01dB,3.62067551773795e+01°)
1.37837837837837e+05	(-2.21272403856899e+01dB,3.56630159107512e+01°)
1.37987987987987e+05	(-2.21105656424876e+01dB,3.51195195678497e+01°)
1.38138138138138e+05	(-2.20948137693887e+01dB,3.45764090146933e+01°)
1.38288288288288e+05	(-2.20799804558057e+01dB,3.40338259538145e+01°)
1.38438438438438e+05	(-2.20660606615846e+01dB,3.34919107100308e+01°)
1.38588588588588e+05	(-2.20530486289988e+01dB,3.29508020209607e+01°)
1.38738738738738e+05	(-2.20409378964212e+01dB,3.24106368330065e+01°)
1.38888888888888e+05	(-2.20297213136085e+01dB,3.18715501034850e+01°)
1.39039039039038e+05	(-2.20193910585235e+01dB,3.13336746095556e+01°)
1.39189189189189e+05	(-2.20099386556151e+01dB,3.07971407645433e+01°)
1.39339339339339e+05	(-2.20013549954695e+01dB,3.02620764422124e+01°)
1.39489489489489e+05	(-2.19936303557401e+01dB,2.97286068094955e+01°)
1.39639639639639e+05	(-2.19867544232605e+01dB,2.91968541681279e+01°)
1.39789789789789e+05	(-2.19807163172398e+01dB,2.86669378055904e+01°)
1.39939939939939e+05	(-2.19755046134364e+01dB,2.81389738556983e+01°)
1.40090090090090e+05	(-2.19711073692064e+01dB,2.76130751691308e+01°)
1.40240240240240e+05	(-2.19675121493168e+01dB,2.70893511941257e+01°)
1.40390390390390e+05	(-2.19647060524177e+01dB,2.65679078675214e+01°)
1.40540540540540e+05	(-2.19626757380642e+01dB,2.60488475162616e+01°)
1.40690690690690e+05	(-2.19614074541812e+01dB,2.55322687694323e+01°)
1.40840840840840e+05	(-2.19608870648637e+01dB,2.50182664808439e+01°)
1.40990990990990e+05	(-2.19611000784097e+01dB,2.45069316621203e+01°)
1.41141141141141e+05	(-2.19620316754836e+01dB,2.39983514262094e+01°)
1.41291291291291e+05	(-2.19636667373100e+01dB,2.34926089411867e+01°)
1.41441441441441e+05	(-2.19659898738050e+01dB,2.29897833941702e+01°)
1.41591591591591e+05	(-2.19689854515514e+01dB,2.24899499651385e+01°)
1.41741741741741e+05	(-2.19726376215326e+01dB,2.19931798103935e+01°)
1.41891891891891e+05	(-2.19769303465422e+01dB,2.14995400553846e+01°)
1.42042042042041e+05	(-2.19818474281920e+01dB,2.10090937965768e+01°)
1.42192192192192e+05	(-2.19873725334472e+01dB,2.05219001120164e+01°)
1.42342342342342e+05	(-2.19934892206207e+01dB,2.00380140802285e+01°)
1.42492492492492e+05	(-2.20001809647669e+01dB,1.95574868070578e+01°)
1.42642642642642e+05	(-2.20074311824180e+01dB,1.90803654600460e+01°)
