Freq.	-I(V1)
1.00000000000000e+05	(-3.39850349778671e+01dB,8.72633878577061e+01°)
1.00150150150150e+05	(-3.39452854413740e+01dB,8.72266706678184e+01°)
1.00300300300300e+05	(-3.39054273759120e+01dB,8.71894415212079e+01°)
1.00450450450450e+05	(-3.38654599944750e+01dB,8.71516927689156e+01°)
1.00600600600601e+05	(-3.38253825082970e+01dB,8.71134166384475e+01°)
1.00750750750751e+05	(-3.37851941269620e+01dB,8.70746052316608e+01°)
1.00900900900901e+05	(-3.37448940585205e+01dB,8.70352505226144e+01°)
1.01051051051051e+05	(-3.37044815096104e+01dB,8.69953443553830e+01°)
1.01201201201201e+05	(-3.36639556855841e+01dB,8.69548784418341e+01°)
1.01351351351351e+05	(-3.36233157906417e+01dB,8.69138443593680e+01°)
1.01501501501501e+05	(-3.35825610279695e+01dB,8.68722335486189e+01°)
1.01651651651652e+05	(-3.35416905998855e+01dB,8.68300373111186e+01°)
1.01801801801802e+05	(-3.35007037079911e+01dB,8.67872468069208e+01°)
1.01951951951952e+05	(-3.34595995533293e+01dB,8.67438530521859e+01°)
1.02102102102102e+05	(-3.34183773365505e+01dB,8.66998469167260e+01°)
1.02252252252252e+05	(-3.33770362580850e+01dB,8.66552191215099e+01°)
1.02402402402402e+05	(-3.33355755183230e+01dB,8.66099602361267e+01°)
1.02552552552553e+05	(-3.32939943178025e+01dB,8.65640606762089e+01°)
1.02702702702703e+05	(-3.32522918574052e+01dB,8.65175107008130e+01°)
1.02852852852853e+05	(-3.32104673385605e+01dB,8.64703004097587e+01°)
1.03003003003003e+05	(-3.31685199634583e+01dB,8.64224197409252e+01°)
1.03153153153153e+05	(-3.31264489352705e+01dB,8.63738584675047e+01°)
1.03303303303303e+05	(-3.30842534583815e+01dB,8.63246061952124e+01°)
1.03453453453453e+05	(-3.30419327386286e+01dB,8.62746523594532e+01°)
1.03603603603604e+05	(-3.29994859835521e+01dB,8.62239862224442e+01°)
1.03753753753754e+05	(-3.29569124026551e+01dB,8.61725968702925e+01°)
1.03903903903904e+05	(-3.29142112076745e+01dB,8.61204732100292e+01°)
1.04054054054054e+05	(-3.28713816128622e+01dB,8.60676039665976e+01°)
1.04204204204204e+05	(-3.28284228352782e+01dB,8.60139776797963e+01°)
1.04354354354354e+05	(-3.27853340950945e+01dB,8.59595827011781e+01°)
1.04504504504504e+05	(-3.27421146159120e+01dB,8.59044071909011e+01°)
1.04654654654655e+05	(-3.26987636250890e+01dB,8.58484391145364e+01°)
1.04804804804805e+05	(-3.26552803540827e+01dB,8.57916662398282e+01°)
1.04954954954955e+05	(-3.26116640388045e+01dB,8.57340761334086e+01°)
1.05105105105105e+05	(-3.25679139199885e+01dB,8.56756561574668e+01°)
1.05255255255255e+05	(-3.25240292435741e+01dB,8.56163934663710e+01°)
1.05405405405405e+05	(-3.24800092611039e+01dB,8.55562750032459e+01°)
1.05555555555555e+05	(-3.24358532301364e+01dB,8.54952874965034e+01°)
1.05705705705706e+05	(-3.23915604146740e+01dB,8.54334174563279e+01°)
1.05855855855856e+05	(-3.23471300856079e+01dB,8.53706511711160e+01°)
1.06006006006006e+05	(-3.23025615211793e+01dB,8.53069747038709e+01°)
1.06156156156156e+05	(-3.22578540074581e+01dB,8.52423738885528e+01°)
1.06306306306306e+05	(-3.22130068388391e+01dB,8.51768343263838e+01°)
1.06456456456456e+05	(-3.21680193185575e+01dB,8.51103413821094e+01°)
1.06606606606607e+05	(-3.21228907592224e+01dB,8.50428801802171e+01°)
1.06756756756757e+05	(-3.20776204833708e+01dB,8.49744356011113e+01°)
1.06906906906907e+05	(-3.20322078240417e+01dB,8.49049922772477e+01°)
1.07057057057057e+05	(-3.19866521253711e+01dB,8.48345345892255e+01°)
1.07207207207207e+05	(-3.19409527432088e+01dB,8.47630466618403e+01°)
1.07357357357357e+05	(-3.18951090457578e+01dB,8.46905123600980e+01°)
1.07507507507507e+05	(-3.18491204142365e+01dB,8.46169152851905e+01°)
1.07657657657658e+05	(-3.18029862435649e+01dB,8.45422387704356e+01°)
1.07807807807808e+05	(-3.17567059430755e+01dB,8.44664658771818e+01°)
1.07957957957958e+05	(-3.17102789372498e+01dB,8.43895793906795e+01°)
1.08108108108108e+05	(-3.16637046664806e+01dB,8.43115618159215e+01°)
1.08258258258258e+05	(-3.16169825878618e+01dB,8.42323953734524e+01°)
1.08408408408408e+05	(-3.15701121760061e+01dB,8.41520619951525e+01°)
1.08558558558558e+05	(-3.15230929238910e+01dB,8.40705433199944e+01°)
1.08708708708709e+05	(-3.14759243437354e+01dB,8.39878206897785e+01°)
1.08858858858859e+05	(-3.14286059679061e+01dB,8.39038751448473e+01°)
1.09009009009009e+05	(-3.13811373498560e+01dB,8.38186874197832e+01°)
1.09159159159159e+05	(-3.13335180650955e+01dB,8.37322379390917e+01°)
1.09309309309309e+05	(-3.12857477121965e+01dB,8.36445068128738e+01°)
1.09459459459459e+05	(-3.12378259138317e+01dB,8.35554738324917e+01°)
1.09609609609609e+05	(-3.11897523178494e+01dB,8.34651184662306e+01°)
1.09759759759760e+05	(-3.11415265983846e+01dB,8.33734198549617e+01°)
1.09909909909910e+05	(-3.10931484570082e+01dB,8.32803568078100e+01°)
1.10060060060060e+05	(-3.10446176239155e+01dB,8.31859077978324e+01°)
1.10210210210210e+05	(-3.09959338591537e+01dB,8.30900509577107e+01°)
1.10360360360360e+05	(-3.09470969538917e+01dB,8.29927640754645e+01°)
1.10510510510510e+05	(-3.08981067317319e+01dB,8.28940245901913e+01°)
1.10660660660661e+05	(-3.08489630500651e+01dB,8.27938095878375e+01°)
1.10810810810811e+05	(-3.07996658014711e+01dB,8.26920957970092e+01°)
1.10960960960961e+05	(-3.07502149151648e+01dB,8.25888595848283e+01°)
1.11111111111111e+05	(-3.07006103584901e+01dB,8.24840769528421e+01°)
1.11261261261261e+05	(-3.06508521384619e+01dB,8.23777235329927e+01°)
1.11411411411411e+05	(-3.06009403033589e+01dB,8.22697745836575e+01°)
1.11561561561561e+05	(-3.05508749443668e+01dB,8.21602049857657e+01°)
1.11711711711712e+05	(-3.05006561972750e+01dB,8.20489892390043e+01°)
1.11861861861862e+05	(-3.04502842442268e+01dB,8.19361014581192e+01°)
1.12012012012012e+05	(-3.03997593155250e+01dB,8.18215153693263e+01°)
1.12162162162162e+05	(-3.03490816914951e+01dB,8.17052043068399e+01°)
1.12312312312312e+05	(-3.02982517044054e+01dB,8.15871412095324e+01°)
1.12462462462462e+05	(-3.02472697404477e+01dB,8.14672986177369e+01°)
1.12612612612612e+05	(-3.01961362417791e+01dB,8.13456486702057e+01°)
1.12762762762763e+05	(-3.01448517086252e+01dB,8.12221631012390e+01°)
1.12912912912913e+05	(-3.00934167014483e+01dB,8.10968132379974e+01°)
1.13063063063063e+05	(-3.00418318431801e+01dB,8.09695699980150e+01°)
1.13213213213213e+05	(-2.99900978215217e+01dB,8.08404038869275e+01°)
1.13363363363363e+05	(-2.99382153913109e+01dB,8.07092849964338e+01°)
1.13513513513513e+05	(-2.98861853769594e+01dB,8.05761830025081e+01°)
1.13663663663663e+05	(-2.98340086749607e+01dB,8.04410671638814e+01°)
1.13813813813814e+05	(-2.97816862564700e+01dB,8.03039063208128e+01°)
1.13963963963964e+05	(-2.97292191699575e+01dB,8.01646688941702e+01°)
1.14114114114114e+05	(-2.96766085439361e+01dB,8.00233228848433e+01°)
1.14264264264264e+05	(-2.96238555897653e+01dB,7.98798358735112e+01°)
1.14414414414414e+05	(-2.95709616045316e+01dB,7.97341750207881e+01°)
1.14564564564564e+05	(-2.95179279740073e+01dB,7.95863070677732e+01°)
1.14714714714715e+05	(-2.94647561756885e+01dB,7.94361983370299e+01°)
1.14864864864865e+05	(-2.94114477819122e+01dB,7.92838147340229e+01°)
1.15015015015015e+05	(-2.93580044630553e+01dB,7.91291217490404e+01°)
1.15165165165165e+05	(-2.93044279908147e+01dB,7.89720844596328e+01°)
1.15315315315315e+05	(-2.92507202415696e+01dB,7.88126675335985e+01°)
1.15465465465465e+05	(-2.91968831998265e+01dB,7.86508352325491e+01°)
1.15615615615615e+05	(-2.91429189617476e+01dB,7.84865514160885e+01°)
1.15765765765766e+05	(-2.90888297387624e+01dB,7.83197795466407e+01°)
1.15915915915916e+05	(-2.90346178612629e+01dB,7.81504826949644e+01°)
1.16066066066066e+05	(-2.89802857823814e+01dB,7.79786235463905e+01°)
1.16216216216216e+05	(-2.89258360818528e+01dB,7.78041644078244e+01°)
1.16366366366366e+05	(-2.88712714699579e+01dB,7.76270672155523e+01°)
1.16516516516516e+05	(-2.88165947915492e+01dB,7.74472935438965e+01°)
1.16666666666666e+05	(-2.87618090301580e+01dB,7.72648046147619e+01°)
1.16816816816817e+05	(-2.87069173121797e+01dB,7.70795613081199e+01°)
1.16966966966967e+05	(-2.86519229111386e+01dB,7.68915241734783e+01°)
1.17117117117117e+05	(-2.85968292520279e+01dB,7.67006534423843e+01°)
1.17267267267267e+05	(-2.85416399157240e+01dB,7.65069090420114e+01°)
1.17417417417417e+05	(-2.84863586434719e+01dB,7.63102506098826e+01°)
1.17567567567567e+05	(-2.84309893414399e+01dB,7.61106375097826e+01°)
1.17717717717717e+05	(-2.83755360853385e+01dB,7.59080288489128e+01°)
1.17867867867868e+05	(-2.83200031251012e+01dB,7.57023834963465e+01°)
1.18018018018018e+05	(-2.82643948896221e+01dB,7.54936601028408e+01°)
1.18168168168168e+05	(-2.82087159915465e+01dB,7.52818171220633e+01°)
1.18318318318318e+05	(-2.81529712321077e+01dB,7.50668128332939e+01°)
1.18468468468468e+05	(-2.80971656060057e+01dB,7.48486053656615e+01°)
1.18618618618618e+05	(-2.80413043063203e+01dB,7.46271527239779e+01°)
1.18768768768768e+05	(-2.79853927294527e+01dB,7.44024128162307e+01°)
1.18918918918919e+05	(-2.79294364800862e+01dB,7.41743434827977e+01°)
1.19069069069069e+05	(-2.78734413761594e+01dB,7.39429025274469e+01°)
1.19219219219219e+05	(-2.78174134538414e+01dB,7.37080477501858e+01°)
1.19369369369369e+05	(-2.77613589725001e+01dB,7.34697369820217e+01°)
1.19519519519519e+05	(-2.77052844196517e+01dB,7.32279281216991e+01°)
1.19669669669669e+05	(-2.76491965158820e+01dB,7.29825791744756e+01°)
1.19819819819820e+05	(-2.75931022197244e+01dB,7.27336482929980e+01°)
1.19969969969970e+05	(-2.75370087324830e+01dB,7.24810938203407e+01°)
1.20120120120120e+05	(-2.74809235029872e+01dB,7.22248743352663e+01°)
1.20270270270270e+05	(-2.74248542322604e+01dB,7.19649486997646e+01°)
1.20420420420420e+05	(-2.73688088780887e+01dB,7.17012761089275e+01°)
1.20570570570570e+05	(-2.73127956594710e+01dB,7.14338161432120e+01°)
1.20720720720720e+05	(-2.72568230609338e+01dB,7.11625288231409e+01°)
1.20870870870871e+05	(-2.72008998366898e+01dB,7.08873746664880e+01°)
1.21021021021021e+05	(-2.71450350146202e+01dB,7.06083147479898e+01°)
1.21171171171171e+05	(-2.70892379000606e+01dB,7.03253107616209e+01°)
1.21321321321321e+05	(-2.70335180793662e+01dB,7.00383250854658e+01°)
1.21471471471471e+05	(-2.69778854232334e+01dB,6.97473208492118e+01°)
1.21621621621621e+05	(-2.69223500897529e+01dB,6.94522620042837e+01°)
1.21771771771771e+05	(-2.68669225271682e+01dB,6.91531133966326e+01°)
1.21921921921922e+05	(-2.68116134763131e+01dB,6.88498408421807e+01°)
1.22072072072072e+05	(-2.67564339726984e+01dB,6.85424112049195e+01°)
1.22222222222222e+05	(-2.67013953482214e+01dB,6.82307924776456e+01°)
1.22372372372372e+05	(-2.66465092324655e+01dB,6.79149538653088e+01°)
1.22522522522522e+05	(-2.65917875535603e+01dB,6.75948658709366e+01°)
1.22672672672672e+05	(-2.65372425385698e+01dB,6.72705003840865e+01°)
1.22822822822822e+05	(-2.64828867133762e+01dB,6.69418307717634e+01°)
1.22972972972973e+05	(-2.64287329020258e+01dB,6.66088319717274e+01°)
1.23123123123123e+05	(-2.63747942255024e+01dB,6.62714805881009e+01°)
1.23273273273273e+05	(-2.63210840998948e+01dB,6.59297549891689e+01°)
1.23423423423423e+05	(-2.62676162339221e+01dB,6.55836354072491e+01°)
1.23573573573573e+05	(-2.62144046257835e+01dB,6.52331040404928e+01°)
1.23723723723723e+05	(-2.61614635592950e+01dB,6.48781451564556e+01°)
1.23873873873874e+05	(-2.61088075992805e+01dB,6.45187451972636e+01°)
1.24024024024024e+05	(-2.60564515861807e+01dB,6.41548928861743e+01°)
1.24174174174174e+05	(-2.60044106298463e+01dB,6.37865793353178e+01°)
1.24324324324324e+05	(-2.59527001024829e+01dB,6.34137981543772e+01°)
1.24474474474474e+05	(-2.59013356307133e+01dB,6.30365455599496e+01°)
1.24624624624624e+05	(-2.58503330867279e+01dB,6.26548204853054e+01°)
1.24774774774774e+05	(-2.57997085784928e+01dB,6.22686246902423e+01°)
1.24924924924925e+05	(-2.57494784389878e+01dB,6.18779628707077e+01°)
1.25075075075075e+05	(-2.56996592144495e+01dB,6.14828427678423e+01°)
1.25225225225225e+05	(-2.56502676515952e+01dB,6.10832752760736e+01°)
1.25375375375375e+05	(-2.56013206838087e+01dB,6.06792745498686e+01°)
1.25525525525525e+05	(-2.55528354162699e+01dB,6.02708581087337e+01°)
1.25675675675675e+05	(-2.55048291100153e+01dB,5.98580469400281e+01°)
1.25825825825825e+05	(-2.54573191649190e+01dB,5.94408655991391e+01°)
1.25975975975976e+05	(-2.54103231015895e+01dB,5.90193423065510e+01°)
1.26126126126126e+05	(-2.53638585421800e+01dB,5.85935090413195e+01°)
1.26276276276276e+05	(-2.53179431901182e+01dB,5.81634016304515e+01°)
1.26426426426426e+05	(-2.52725948087623e+01dB,5.77290598336781e+01°)
1.26576576576576e+05	(-2.52278311989996e+01dB,5.72905274230949e+01°)
1.26726726726726e+05	(-2.51836701758080e+01dB,5.68478522571391e+01°)
1.26876876876876e+05	(-2.51401295438060e+01dB,5.64010863483663e+01°)
1.27027027027027e+05	(-2.50972270718256e+01dB,5.59502859244872e+01°)
1.27177177177177e+05	(-2.50549804665468e+01dB,5.54955114821287e+01°)
1.27327327327327e+05	(-2.50134073452401e+01dB,5.50368278327843e+01°)
1.27477477477477e+05	(-2.49725252076710e+01dB,5.45743041404300e+01°)
1.27627627627627e+05	(-2.49323514072254e+01dB,5.41080139502959e+01°)
1.27777777777777e+05	(-2.48929031213245e+01dB,5.36380352082957e+01°)
1.27927927927928e+05	(-2.48541973212022e+01dB,5.31644502706406e+01°)
1.28078078078078e+05	(-2.48162507411269e+01dB,5.26873459031905e+01°)
1.28228228228228e+05	(-2.47790798471550e+01dB,5.22068132701195e+01°)
1.28378378378378e+05	(-2.47427008055103e+01dB,5.17229479115148e+01°)
1.28528528528528e+05	(-2.47071294506910e+01dB,5.12358497095582e+01°)
1.28678678678678e+05	(-2.46723812534081e+01dB,5.07456228429893e+01°)
1.28828828828828e+05	(-2.46384712884705e+01dB,5.02523757295923e+01°)
1.28978978978979e+05	(-2.46054142027305e+01dB,4.97562209565013e+01°)
1.29129129129129e+05	(-2.45732241832116e+01dB,4.92572751981740e+01°)
1.29279279279279e+05	(-2.45419149255453e+01dB,4.87556591219396e+01°)
1.29429429429429e+05	(-2.45114996028408e+01dB,4.82514972810942e+01°)
1.29579579579579e+05	(-2.44819908351215e+01dB,4.77449179955727e+01°)
1.29729729729729e+05	(-2.44534006594567e+01dB,4.72360532203020e+01°)
1.29879879879879e+05	(-2.44257405009221e+01dB,4.67250384014019e+01°)
1.30030030030030e+05	(-2.43990211445190e+01dB,4.62120123204724e+01°)
1.30180180180180e+05	(-2.43732527081843e+01dB,4.56971169272774e+01°)
1.30330330330330e+05	(-2.43484446170168e+01dB,4.51804971612037e+01°)
1.30480480480480e+05	(-2.43246055788458e+01dB,4.46623007619425e+01°)
1.30630630630630e+05	(-2.43017435612613e+01dB,4.41426780699137e+01°)
1.30780780780780e+05	(-2.42798657702213e+01dB,4.36217818170146e+01°)
1.30930930930930e+05	(-2.42589786303446e+01dB,4.30997669083415e+01°)
1.31081081081081e+05	(-2.42390877669901e+01dB,4.25767901955934e+01°)
1.31231231231231e+05	(-2.42201979902170e+01dB,4.20530102429206e+01°)
1.31381381381381e+05	(-2.42023132807105e+01dB,4.15285870860387e+01°)
1.31531531531531e+05	(-2.41854367777474e+01dB,4.10036819854691e+01°)
1.31681681681681e+05	(-2.41695707692670e+01dB,4.04784571748138e+01°)
1.31831831831831e+05	(-2.41547166841016e+01dB,3.99530756050045e+01°)
1.31981981981982e+05	(-2.41408750864091e+01dB,3.94277006854970e+01°)
1.32132132132132e+05	(-2.41280456723378e+01dB,3.89024960234020e+01°)
1.32282282282282e+05	(-2.41162272689446e+01dB,3.83776251615592e+01°)
1.32432432432432e+05	(-2.41054178353706e+01dB,3.78532513165718e+01°)
1.32582582582582e+05	(-2.40956144662711e+01dB,3.73295371178121e+01°)
1.32732732732732e+05	(-2.40868133974807e+01dB,3.68066443484127e+01°)
1.32882882882882e+05	(-2.40790100138847e+01dB,3.62847336892304e+01°)
1.33033033033033e+05	(-2.40721988594551e+01dB,3.57639644667629e+01°)
1.33183183183183e+05	(-2.40663736493979e+01dB,3.52444944059571e+01°)
1.33333333333333e+05	(-2.40615272843491e+01dB,3.47264793888220e+01°)
1.33483483483483e+05	(-2.40576518665439e+01dB,3.42100732197169e+01°)
1.33633633633633e+05	(-2.40547387178768e+01dB,3.36954273981338e+01°)
1.33783783783783e+05	(-2.40527783997586e+01dB,3.31826908997492e+01°)
1.33933933933933e+05	(-2.40517607346710e+01dB,3.26720099664583e+01°)
1.34084084084084e+05	(-2.40516748293096e+01dB,3.21635279060477e+01°)
1.34234234234234e+05	(-2.40525090992013e+01dB,3.16573849020970e+01°)
1.34384384384384e+05	(-2.40542512946776e+01dB,3.11537178346352e+01°)
1.34534534534534e+05	(-2.40568885280777e+01dB,3.06526601120085e+01°)
1.34684684684684e+05	(-2.40604073020559e+01dB,3.01543415143471e+01°)
1.34834834834834e+05	(-2.40647935388613e+01dB,2.96588880489476e+01°)
1.34984984984984e+05	(-2.40700326104610e+01dB,2.91664218178178e+01°)
1.35135135135135e+05	(-2.40761093693723e+01dB,2.86770608975606e+01°)
1.35285285285285e+05	(-2.40830081800744e+01dB,2.81909192317059e+01°)
1.35435435435435e+05	(-2.40907129508677e+01dB,2.77081065355304e+01°)
1.35585585585585e+05	(-2.40992071660541e+01dB,2.72287282133437e+01°)
1.35735735735735e+05	(-2.41084739183121e+01dB,2.67528852881542e+01°)
1.35885885885885e+05	(-2.41184959411457e+01dB,2.62806743435708e+01°)
1.36036036036036e+05	(-2.41292556412890e+01dB,2.58121874777418e+01°)
1.36186186186186e+05	(-2.41407351309548e+01dB,2.53475122690786e+01°)
1.36336336336336e+05	(-2.41529162598197e+01dB,2.48867317534665e+01°)
1.36486486486486e+05	(-2.41657806466447e+01dB,2.44299244126196e+01°)
1.36636636636636e+05	(-2.41793097104355e+01dB,2.39771641731998e+01°)
1.36786786786786e+05	(-2.41934847010546e+01dB,2.35285204162823e+01°)
1.36936936936936e+05	(-2.42082867292025e+01dB,2.30840579967233e+01°)
1.37087087087087e+05	(-2.42236967956944e+01dB,2.26438372719573e+01°)
1.37237237237237e+05	(-2.42396958199621e+01dB,2.22079141397302e+01°)
1.37387387387387e+05	(-2.42562646677218e+01dB,2.17763400842588e+01°)
1.37537537537537e+05	(-2.42733841777529e+01dB,2.13491622302936e+01°)
1.37687687687687e+05	(-2.42910351877409e+01dB,2.09264234045504e+01°)
1.37837837837837e+05	(-2.43091985591434e+01dB,2.05081622039760e+01°)
1.37987987987987e+05	(-2.43278552010463e+01dB,2.00944130703073e+01°)
1.38138138138138e+05	(-2.43469860929813e+01dB,1.96852063703850e+01°)
1.38288288288288e+05	(-2.43665723066854e+01dB,1.92805684816917e+01°)
1.38438438438438e+05	(-2.43865950267845e+01dB,1.88805218825867e+01°)
1.38588588588588e+05	(-2.44070355703940e+01dB,1.84850852467234e+01°)
1.38738738738738e+05	(-2.44278754056289e+01dB,1.80942735411462e+01°)
1.38888888888888e+05	(-2.44490961690268e+01dB,1.77080981275788e+01°)
1.39039039039038e+05	(-2.44706796818859e+01dB,1.73265668664311e+01°)
1.39189189189189e+05	(-2.44926079655292e+01dB,1.69496842230717e+01°)
1.39339339339339e+05	(-2.45148632555071e+01dB,1.65774513759282e+01°)
1.39489489489489e+05	(-2.45374280147552e+01dB,1.62098663260037e+01°)
1.39639639639639e+05	(-2.45602849457273e+01dB,1.58469240074097e+01°)
1.39789789789789e+05	(-2.45834170015256e+01dB,1.54886163985492e+01°)
1.39939939939939e+05	(-2.46068073960550e+01dB,1.51349326335915e+01°)
1.40090090090090e+05	(-2.46304396132260e+01dB,1.47858591139165e+01°)
1.40240240240240e+05	(-2.46542974152390e+01dB,1.44413796192159e+01°)
1.40390390390390e+05	(-2.46783648499779e+01dB,1.41014754179706e+01°)
1.40540540540540e+05	(-2.47026262575469e+01dB,1.37661253770381e+01°)
1.40690690690690e+05	(-2.47270662759833e+01dB,1.34353060701115e+01°)
1.40840840840840e+05	(-2.47516698461804e+01dB,1.31089918848261e+01°)
1.40990990990990e+05	(-2.47764222160545e+01dB,1.27871551283162e+01°)
1.41141141141141e+05	(-2.48013089439923e+01dB,1.24697661310391e+01°)
1.41291291291291e+05	(-2.48263159016124e+01dB,1.21567933487085e+01°)
1.41441441441441e+05	(-2.48514292758767e+01dB,1.18482034621898e+01°)
1.41591591591591e+05	(-2.48766355705867e+01dB,1.15439614752360e+01°)
1.41741741741741e+05	(-2.49019216072993e+01dB,1.12440308099527e+01°)
1.41891891891891e+05	(-2.49272745256947e+01dB,1.09483733999002e+01°)
1.42042042042041e+05	(-2.49526817834328e+01dB,1.06569497807550e+01°)
1.42192192192192e+05	(-2.49781311555277e+01dB,1.03697191784657e+01°)
1.42342342342342e+05	(-2.50036107332744e+01dB,1.00866395948532e+01°)
1.42492492492492e+05	(-2.50291089227586e+01dB,9.80766789061765e+00°)
1.42642642642642e+05	(-2.50546144429783e+01dB,9.53275986572179e+00°)
