Freq.	-I(V1)
1.00000000000000e+05	(-3.37219991074986e+01dB,8.60803207120352e+01°)
1.00150150150150e+05	(-3.36799077564778e+01dB,8.60266144459945e+01°)
1.00300300300300e+05	(-3.36376905247375e+01dB,8.59721352625485e+01°)
1.00450450450450e+05	(-3.35953466065182e+01dB,8.59168711318224e+01°)
1.00600600600601e+05	(-3.35528751990957e+01dB,8.58608098214152e+01°)
1.00750750750751e+05	(-3.35102755031137e+01dB,8.58039388928653e+01°)
1.00900900900901e+05	(-3.34675467229288e+01dB,8.57462456980610e+01°)
1.01051051051051e+05	(-3.34246880669710e+01dB,8.56877173755934e+01°)
1.01201201201201e+05	(-3.33816987481174e+01dB,8.56283408470540e+01°)
1.01351351351351e+05	(-3.33385779840824e+01dB,8.55681028132750e+01°)
1.01501501501501e+05	(-3.32953249978227e+01dB,8.55069897505124e+01°)
1.01651651651652e+05	(-3.32519390179583e+01dB,8.54449879065720e+01°)
1.01801801801802e+05	(-3.32084192792112e+01dB,8.53820832968785e+01°)
1.01951951951952e+05	(-3.31647650228610e+01dB,8.53182617004863e+01°)
1.02102102102102e+05	(-3.31209754972180e+01dB,8.52535086560342e+01°)
1.02252252252252e+05	(-3.30770499581157e+01dB,8.51878094576416e+01°)
1.02402402402402e+05	(-3.30329876694224e+01dB,8.51211491507486e+01°)
1.02552552552553e+05	(-3.29887879035723e+01dB,8.50535125278982e+01°)
1.02702702702703e+05	(-3.29444499421175e+01dB,8.49848841244625e+01°)
1.02852852852853e+05	(-3.28999730763019e+01dB,8.49152482143129e+01°)
1.03003003003003e+05	(-3.28553566076560e+01dB,8.48445888054338e+01°)
1.03153153153153e+05	(-3.28105998486157e+01dB,8.47728896354815e+01°)
1.03303303303303e+05	(-3.27657021231644e+01dB,8.47001341672893e+01°)
1.03453453453453e+05	(-3.27206627674988e+01dB,8.46263055843176e+01°)
1.03603603603604e+05	(-3.26754811307216e+01dB,8.45513867860528e+01°)
1.03753753753754e+05	(-3.26301565755584e+01dB,8.44753603833532e+01°)
1.03903903903904e+05	(-3.25846884791036e+01dB,8.43982086937456e+01°)
1.04054054054054e+05	(-3.25390762335926e+01dB,8.43199137366722e+01°)
1.04204204204204e+05	(-3.24933192472042e+01dB,8.42404572286901e+01°)
1.04354354354354e+05	(-3.24474169448919e+01dB,8.41598205786249e+01°)
1.04504504504504e+05	(-3.24013687692470e+01dB,8.40779848826805e+01°)
1.04654654654655e+05	(-3.23551741813928e+01dB,8.39949309195067e+01°)
1.04804804804805e+05	(-3.23088326619120e+01dB,8.39106391452276e+01°)
1.04954954954955e+05	(-3.22623437118092e+01dB,8.38250896884323e+01°)
1.05105105105105e+05	(-3.22157068535065e+01dB,8.37382623451311e+01°)
1.05255255255255e+05	(-3.21689216318780e+01dB,8.36501365736812e+01°)
1.05405405405405e+05	(-3.21219876153193e+01dB,8.35606914896827e+01°)
1.05555555555555e+05	(-3.20749043968581e+01dB,8.34699058608504e+01°)
1.05705705705706e+05	(-3.20276715953032e+01dB,8.33777581018654e+01°)
1.05855855855856e+05	(-3.19802888564353e+01dB,8.32842262692082e+01°)
1.06006006006006e+05	(-3.19327558542409e+01dB,8.31892880559804e+01°)
1.06156156156156e+05	(-3.18850722921893e+01dB,8.30929207867184e+01°)
1.06306306306306e+05	(-3.18372379045558e+01dB,8.29951014122042e+01°)
1.06456456456456e+05	(-3.17892524577912e+01dB,8.28958065042790e+01°)
1.06606606606607e+05	(-3.17411157519397e+01dB,8.27950122506663e+01°)
1.06756756756757e+05	(-3.16928276221064e+01dB,8.26926944498091e+01°)
1.06906906906907e+05	(-3.16443879399762e+01dB,8.25888285057292e+01°)
1.07057057057057e+05	(-3.15957966153857e+01dB,8.24833894229166e+01°)
1.07207207207207e+05	(-3.15470535979488e+01dB,8.23763518012544e+01°)
1.07357357357357e+05	(-3.14981588787390e+01dB,8.22676898309897e+01°)
1.07507507507507e+05	(-3.14491124920289e+01dB,8.21573772877586e+01°)
1.07657657657658e+05	(-3.13999145170897e+01dB,8.20453875276742e+01°)
1.07807807807808e+05	(-3.13505650800505e+01dB,8.19316934824886e+01°)
1.07957957957958e+05	(-3.13010643558218e+01dB,8.18162676548388e+01°)
1.08108108108108e+05	(-3.12514125700824e+01dB,8.16990821135885e+01°)
1.08258258258258e+05	(-3.12016100013332e+01dB,8.15801084892772e+01°)
1.08408408408408e+05	(-3.11516569830191e+01dB,8.14593179696904e+01°)
1.08558558558558e+05	(-3.11015539057204e+01dB,8.13366812955636e+01°)
1.08708708708709e+05	(-3.10513012194165e+01dB,8.12121687564350e+01°)
1.08858858858859e+05	(-3.10008994358233e+01dB,8.10857501866623e+01°)
1.09009009009009e+05	(-3.09503491308051e+01dB,8.09573949616196e+01°)
1.09159159159159e+05	(-3.08996509468655e+01dB,8.08270719940916e+01°)
1.09309309309309e+05	(-3.08488055957162e+01dB,8.06947497308837e+01°)
1.09459459459459e+05	(-3.07978138609274e+01dB,8.05603961496667e+01°)
1.09609609609609e+05	(-3.07466766006616e+01dB,8.04239787560760e+01°)
1.09759759759760e+05	(-3.06953947504918e+01dB,8.02854645810882e+01°)
1.09909909909910e+05	(-3.06439693263066e+01dB,8.01448201786962e+01°)
1.10060060060060e+05	(-3.05924014273036e+01dB,8.00020116239074e+01°)
1.10210210210210e+05	(-3.05406922390737e+01dB,7.98570045110896e+01°)
1.10360360360360e+05	(-3.04888430367770e+01dB,7.97097639526913e+01°)
1.10510510510510e+05	(-3.04368551884128e+01dB,7.95602545783649e+01°)
1.10660660660661e+05	(-3.03847301581846e+01dB,7.94084405345204e+01°)
1.10810810810811e+05	(-3.03324695099624e+01dB,7.92542854843417e+01°)
1.10960960960961e+05	(-3.02800749108442e+01dB,7.90977526082974e+01°)
1.11111111111111e+05	(-3.02275481348160e+01dB,7.89388046051796e+01°)
1.11261261261261e+05	(-3.01748910665144e+01dB,7.87774036937065e+01°)
1.11411411411411e+05	(-3.01221057050908e+01dB,7.86135116147261e+01°)
1.11561561561561e+05	(-3.00691941681801e+01dB,7.84470896340592e+01°)
1.11711711711712e+05	(-3.00161586959726e+01dB,7.82780985460236e+01°)
1.11861861861862e+05	(-2.99630016553926e+01dB,7.81064986776808e+01°)
1.12012012012012e+05	(-2.99097255443817e+01dB,7.79322498938506e+01°)
1.12162162162162e+05	(-2.98563329962888e+01dB,7.77553116029392e+01°)
1.12312312312312e+05	(-2.98028267843669e+01dB,7.75756427636302e+01°)
1.12462462462462e+05	(-2.97492098263758e+01dB,7.73932018924875e+01°)
1.12612612612612e+05	(-2.96954851892908e+01dB,7.72079470725235e+01°)
1.12762762762763e+05	(-2.96416560941176e+01dB,7.70198359627867e+01°)
1.12912912912913e+05	(-2.95877259208106e+01dB,7.68288258090254e+01°)
1.13063063063063e+05	(-2.95336982132959e+01dB,7.66348734554861e+01°)
1.13213213213213e+05	(-2.94795766845945e+01dB,7.64379353579068e+01°)
1.13363363363363e+05	(-2.94253652220465e+01dB,7.62379675977698e+01°)
1.13513513513513e+05	(-2.93710678926312e+01dB,7.60349258978763e+01°)
1.13663663663663e+05	(-2.93166889483830e+01dB,7.58287656393129e+01°)
1.13813813813814e+05	(-2.92622328318966e+01dB,7.56194418798767e+01°)
1.13963963963964e+05	(-2.92077041819203e+01dB,7.54069093740311e+01°)
1.14114114114114e+05	(-2.91531078390311e+01dB,7.51911225944660e+01°)
1.14264264264264e+05	(-2.90984488513873e+01dB,7.49720357553361e+01°)
1.14414414414414e+05	(-2.90437324805521e+01dB,7.47496028372552e+01°)
1.14564564564564e+05	(-2.89889642073831e+01dB,7.45237776141234e+01°)
1.14714714714715e+05	(-2.89341497379784e+01dB,7.42945136818696e+01°)
1.14864864864865e+05	(-2.88792950096731e+01dB,7.40617644891873e+01°)
1.15015015015015e+05	(-2.88244061970763e+01dB,7.38254833703500e+01°)
1.15165165165165e+05	(-2.87694897181392e+01dB,7.35856235801861e+01°)
1.15315315315315e+05	(-2.87145522402433e+01dB,7.33421383313000e+01°)
1.15465465465465e+05	(-2.86596006862980e+01dB,7.30949808336237e+01°)
1.15615615615615e+05	(-2.86046422408329e+01dB,7.28441043363827e+01°)
1.15765765765766e+05	(-2.85496843560730e+01dB,7.25894621725631e+01°)
1.15915915915916e+05	(-2.84947347579815e+01dB,7.23310078059621e+01°)
1.16066066066066e+05	(-2.84398014522521e+01dB,7.20686948809072e+01°)
1.16216216216216e+05	(-2.83848927302365e+01dB,7.18024772747248e+01°)
1.16366366366366e+05	(-2.83300171747861e+01dB,7.15323091530397e+01°)
1.16516516516516e+05	(-2.82751836659885e+01dB,7.12581450279826e+01°)
1.16666666666666e+05	(-2.82204013867782e+01dB,7.09799398193808e+01°)
1.16816816816817e+05	(-2.81656798283978e+01dB,7.06976489190036e+01°)
1.16966966966967e+05	(-2.81110287956859e+01dB,7.04112282579296e+01°)
1.17117117117117e+05	(-2.80564584121655e+01dB,7.01206343770981e+01°)
1.17267267267267e+05	(-2.80019791249066e+01dB,6.98258245011006e+01°)
1.17417417417417e+05	(-2.79476017091333e+01dB,6.95267566152629e+01°)
1.17567567567567e+05	(-2.78933372725458e+01dB,6.92233895460599e+01°)
1.17717717717717e+05	(-2.78391972593244e+01dB,6.89156830448969e+01°)
1.17867867867868e+05	(-2.77851934537836e+01dB,6.86035978752817e+01°)
1.18018018018018e+05	(-2.77313379836401e+01dB,6.82870959034027e+01°)
1.18168168168168e+05	(-2.76776433228586e+01dB,6.79661401921147e+01°)
1.18318318318318e+05	(-2.76241222940377e+01dB,6.76406950983220e+01°)
1.18468468468468e+05	(-2.75707880702963e+01dB,6.73107263737368e+01°)
1.18618618618618e+05	(-2.75176541766199e+01dB,6.69762012689710e+01°)
1.18768768768768e+05	(-2.74647344906244e+01dB,6.66370886409097e+01°)
1.18918918918919e+05	(-2.74120432426950e+01dB,6.62933590632911e+01°)
1.19069069069069e+05	(-2.73595950154549e+01dB,6.59449849404022e+01°)
1.19219219219219e+05	(-2.73074047425202e+01dB,6.55919406237797e+01°)
1.19369369369369e+05	(-2.72554877064927e+01dB,6.52342025317813e+01°)
1.19519519519519e+05	(-2.72038595361465e+01dB,6.48717492718733e+01°)
1.19669669669669e+05	(-2.71525362027606e+01dB,6.45045617654550e+01°)
1.19819819819820e+05	(-2.71015340155491e+01dB,6.41326233750143e+01°)
1.19969969969970e+05	(-2.70508696161449e+01dB,6.37559200333856e+01°)
1.20120120120120e+05	(-2.70005599720871e+01dB,6.33744403748503e+01°)
1.20270270270270e+05	(-2.69506223692692e+01dB,6.29881758677948e+01°)
1.20420420420420e+05	(-2.69010744033010e+01dB,6.25971209486112e+01°)
1.20570570570570e+05	(-2.68519339697419e+01dB,6.22012731564944e+01°)
1.20720720720720e+05	(-2.68032192531636e+01dB,6.18006332687608e+01°)
1.20870870870871e+05	(-2.67549487150023e+01dB,6.13952054362843e+01°)
1.21021021021021e+05	(-2.67071410801640e+01dB,6.09849973186091e+01°)
1.21171171171171e+05	(-2.66598153223483e+01dB,6.05700202182759e+01°)
1.21321321321321e+05	(-2.66129906480610e+01dB,6.01502892138590e+01°)
1.21471471471471e+05	(-2.65666864792881e+01dB,5.97258232911898e+01°)
1.21621621621621e+05	(-2.65209224348097e+01dB,5.92966454722067e+01°)
1.21771771771771e+05	(-2.64757183101378e+01dB,5.88627829408489e+01°)
1.21921921921922e+05	(-2.64310940560636e+01dB,5.84242671653803e+01°)
1.22072072072072e+05	(-2.63870697558130e+01dB,5.79811340165087e+01°)
1.22222222222222e+05	(-2.63436656008069e+01dB,5.75334238806441e+01°)
1.22372372372372e+05	(-2.63009018650379e+01dB,5.70811817676159e+01°)
1.22522522522522e+05	(-2.62587988780769e+01dB,5.66244574121572e+01°)
1.22672672672672e+05	(-2.62173769967335e+01dB,5.61633053684502e+01°)
1.22822822822822e+05	(-2.61766565754023e+01dB,5.56977850970142e+01°)
1.22972972972973e+05	(-2.61366579351351e+01dB,5.52279610432198e+01°)
1.23123123123123e+05	(-2.60974013314892e+01dB,5.47539027067060e+01°)
1.23273273273273e+05	(-2.60589069212101e+01dB,5.42756847009842e+01°)
1.23423423423423e+05	(-2.60211947278172e+01dB,5.37933868025269e+01°)
1.23573573573573e+05	(-2.59842846061711e+01dB,5.33070939886480e+01°)
1.23723723723723e+05	(-2.59481962061100e+01dB,5.28168964635088e+01°)
1.23873873873874e+05	(-2.59129489352523e+01dB,5.23228896716101e+01°)
1.24024024024024e+05	(-2.58785619210744e+01dB,5.18251742981639e+01°)
1.24174174174174e+05	(-2.58450539723778e+01dB,5.13238562557809e+01°)
1.24324324324324e+05	(-2.58124435402743e+01dB,5.08190466569563e+01°)
1.24474474474474e+05	(-2.57807486788208e+01dB,5.03108617718881e+01°)
1.24624624624624e+05	(-2.57499870054483e+01dB,4.97994229712270e+01°)
1.24774774774774e+05	(-2.57201756613349e+01dB,4.92848566534170e+01°)
1.24924924924925e+05	(-2.56913312718786e+01dB,4.87672941563616e+01°)
1.25075075075075e+05	(-2.56634699074346e+01dB,4.82468716532276e+01°)
1.25225225225225e+05	(-2.56366070444825e+01dB,4.77237300322795e+01°)
1.25375375375375e+05	(-2.56107575273978e+01dB,4.71980147607233e+01°)
1.25525525525525e+05	(-2.55859355309999e+01dB,4.66698757326343e+01°)
1.25675675675675e+05	(-2.55621545240540e+01dB,4.61394671011305e+01°)
1.25825825825825e+05	(-2.55394272339022e+01dB,4.56069470950541e+01°)
1.25975975975976e+05	(-2.55177656124002e+01dB,4.50724778205197e+01°)
1.26126126126126e+05	(-2.54971808033310e+01dB,4.45362250477849e+01°)
1.26276276276276e+05	(-2.54776831114652e+01dB,4.39983579839992e+01°)
1.26426426426426e+05	(-2.54592819734314e+01dB,4.34590490324811e+01°)
1.26576576576576e+05	(-2.54419859305530e+01dB,4.29184735392686e+01°)
1.26726726726726e+05	(-2.54258026038000e+01dB,4.23768095277782e+01°)
1.26876876876876e+05	(-2.54107386709951e+01dB,4.18342374224945e+01°)
1.27027027027027e+05	(-2.53967998464024e+01dB,4.12909397626924e+01°)
1.27177177177177e+05	(-2.53839908628148e+01dB,4.07471009072694e+01°)
1.27327327327327e+05	(-2.53723154562429e+01dB,4.02029067318305e+01°)
1.27477477477477e+05	(-2.53617763532950e+01dB,3.96585443192307e+01°)
1.27627627627627e+05	(-2.53523752613215e+01dB,3.91142016448281e+01°)
1.27777777777777e+05	(-2.53441128613830e+01dB,3.85700672577419e+01°)
1.27927927927928e+05	(-2.53369888040825e+01dB,3.80263299594417e+01°)
1.28078078078078e+05	(-2.53310017082882e+01dB,3.74831784810165e+01°)
1.28228228228228e+05	(-2.53261491627547e+01dB,3.69408011604774e+01°)
1.28378378378378e+05	(-2.53224277306329e+01dB,3.63993856214551e+01°)
1.28528528528528e+05	(-2.53198329568444e+01dB,3.58591184546365e+01°)
1.28678678678678e+05	(-2.53183593782761e+01dB,3.53201849032649e+01°)
1.28828828828828e+05	(-2.53180005367367e+01dB,3.47827685539988e+01°)
1.28978978978979e+05	(-2.53187489946012e+01dB,3.42470510343801e+01°)
1.29129129129129e+05	(-2.53205963530528e+01dB,3.37132117181122e+01°)
1.29279279279279e+05	(-2.53235332728188e+01dB,3.31814274392908e+01°)
1.29429429429429e+05	(-2.53275494972836e+01dB,3.26518722166609e+01°)
1.29579579579579e+05	(-2.53326338778515e+01dB,3.21247169888976e+01°)
1.29729729729729e+05	(-2.53387744014168e+01dB,3.16001293618318e+01°)
1.29879879879879e+05	(-2.53459582197954e+01dB,3.10782733684501e+01°)
1.30030030030030e+05	(-2.53541716809592e+01dB,3.05593092424115e+01°)
1.30180180180180e+05	(-2.53634003619097e+01dB,3.00433932057269e+01°)
1.30330330330330e+05	(-2.53736291030222e+01dB,2.95306772711536e+01°)
1.30480480480480e+05	(-2.53848420436875e+01dB,2.90213090597543e+01°)
1.30630630630630e+05	(-2.53970226590759e+01dB,2.85154316339801e+01°)
1.30780780780780e+05	(-2.54101537978473e+01dB,2.80131833465291e+01°)
1.30930930930930e+05	(-2.54242177206309e+01dB,2.75146977051457e+01°)
1.31081081081081e+05	(-2.54391961391011e+01dB,2.70201032534270e+01°)
1.31231231231231e+05	(-2.54550702554764e+01dB,2.65295234676111e+01°)
1.31381381381381e+05	(-2.54718208022760e+01dB,2.60430766692408e+01°)
1.31531531531531e+05	(-2.54894280821690e+01dB,2.55608759535077e+01°)
1.31681681681681e+05	(-2.55078720077613e+01dB,2.50830291330099e+01°)
1.31831831831831e+05	(-2.55271321411693e+01dB,2.46096386965810e+01°)
1.31981981981982e+05	(-2.55471877332391e+01dB,2.41408017827850e+01°)
1.32132132132132e+05	(-2.55680177622760e+01dB,2.36766101676093e+01°)
1.32282282282282e+05	(-2.55896009721597e+01dB,2.32171502658387e+01°)
1.32432432432432e+05	(-2.56119159097280e+01dB,2.27625031455416e+01°)
1.32582582582582e+05	(-2.56349409613234e+01dB,2.23127445550624e+01°)
1.32732732732732e+05	(-2.56586543884041e+01dB,2.18679449618802e+01°)
1.32882882882882e+05	(-2.56830343621321e+01dB,2.14281696026629e+01°)
1.33033033033033e+05	(-2.57080589968618e+01dB,2.09934785438293e+01°)
1.33183183183183e+05	(-2.57337063824589e+01dB,2.05639267519109e+01°)
1.33333333333333e+05	(-2.57599546153930e+01dB,2.01395641729989e+01°)
1.33483483483483e+05	(-2.57867818285539e+01dB,1.97204358205562e+01°)
1.33633633633633e+05	(-2.58141662197507e+01dB,1.93065818708729e+01°)
1.33783783783783e+05	(-2.58420860788640e+01dB,1.88980377654511e+01°)
1.33933933933933e+05	(-2.58705198136262e+01dB,1.84948343196127e+01°)
1.34084084084084e+05	(-2.58994459740155e+01dB,1.80969978366380e+01°)
1.34234234234234e+05	(-2.59288432752566e+01dB,1.77045502267568e+01°)
1.34384384384384e+05	(-2.59586906194258e+01dB,1.73175091303375e+01°)
1.34534534534534e+05	(-2.59889671156669e+01dB,1.69358880446370e+01°)
1.34684684684684e+05	(-2.60196520990304e+01dB,1.65596964535038e+01°)
1.34834834834834e+05	(-2.60507251479515e+01dB,1.61889399594483e+01°)
1.34984984984984e+05	(-2.60821661003908e+01dB,1.58236204175251e+01°)
1.35135135135135e+05	(-2.61139550686625e+01dB,1.54637360705017e+01°)
1.35285285285285e+05	(-2.61460724529829e+01dB,1.51092816848135e+01°)
1.35435435435435e+05	(-2.61784989537702e+01dB,1.47602486868424e+01°)
1.35585585585585e+05	(-2.62112155827364e+01dB,1.44166252990812e+01°)
1.35735735735735e+05	(-2.62442036728072e+01dB,1.40783966757789e+01°)
1.35885885885885e+05	(-2.62774448869144e+01dB,1.37455450376945e+01°)
1.36036036036036e+05	(-2.63109212257028e+01dB,1.34180498056142e+01°)
1.36186186186186e+05	(-2.63446150341974e+01dB,1.30958877323184e+01°)
1.36336336336336e+05	(-2.63785090074758e+01dB,1.27790330327138e+01°)
1.36486486486486e+05	(-2.64125861953930e+01dB,1.24674575118736e+01°)
1.36636636636636e+05	(-2.64468300064056e+01dB,1.21611306907568e+01°)
1.36786786786786e+05	(-2.64812242105415e+01dB,1.18600199294012e+01°)
1.36936936936936e+05	(-2.65157529415633e+01dB,1.15640905474145e+01°)
1.37087087087087e+05	(-2.65504006983702e+01dB,1.12733059416073e+01°)
1.37237237237237e+05	(-2.65851523456860e+01dB,1.09876277006351e+01°)
1.37387387387387e+05	(-2.66199931140765e+01dB,1.07070157165402e+01°)
1.37537537537537e+05	(-2.66549085993423e+01dB,1.04314282931029e+01°)
1.37687687687687e+05	(-2.66898847613280e+01dB,1.01608222509268e+01°)
1.37837837837837e+05	(-2.67249079221918e+01dB,9.89515302920863e+00°)
1.37987987987987e+05	(-2.67599647641744e+01dB,9.63437478414980e+00°)
1.38138138138138e+05	(-2.67950423269076e+01dB,9.37844048398865e+00°)
1.38288288288288e+05	(-2.68301280042995e+01dB,9.12730200064352e+00°)
1.38438438438438e+05	(-2.68652095410338e+01dB,8.88091019796872e+00°)
1.38588588588588e+05	(-2.69002750287162e+01dB,8.63921501663832e+00°)
1.38738738738738e+05	(-2.69353129017037e+01dB,8.40216555568332e+00°)
1.38888888888888e+05	(-2.69703119326461e+01dB,8.16971015071456e+00°)
1.39039039039038e+05	(-2.70052612277712e+01dB,7.94179644887545e+00°)
1.39189189189189e+05	(-2.70401502219422e+01dB,7.71837148057365e+00°)
1.39339339339339e+05	(-2.70749686735146e+01dB,7.49938172804827e+00°)
1.39489489489489e+05	(-2.71097066590168e+01dB,7.28477319083532e+00°)
1.39639639639639e+05	(-2.71443545676808e+01dB,7.07449144819656e+00°)
1.39789789789789e+05	(-2.71789030958438e+01dB,6.86848171858627e+00°)
1.39939939939939e+05	(-2.72133432412424e+01dB,6.66668891622740e+00°)
1.40090090090090e+05	(-2.72476662972204e+01dB,6.46905770487737e+00°)
1.40240240240240e+05	(-2.72818638468666e+01dB,6.27553254886177e+00°)
1.40390390390390e+05	(-2.73159277571019e+01dB,6.08605776145941e+00°)
1.40540540540540e+05	(-2.73498501727308e+01dB,5.90057755072014e+00°)
1.40690690690690e+05	(-2.73836235104719e+01dB,5.71903606280136e+00°)
1.40840840840840e+05	(-2.74172404529818e+01dB,5.54137742290603e+00°)
1.40990990990990e+05	(-2.74506939428849e+01dB,5.36754577390808e+00°)
1.41141141141141e+05	(-2.74839771768194e+01dB,5.19748531274821e+00°)
1.41291291291291e+05	(-2.75170835995129e+01dB,5.03114032468585e+00°)
1.41441441441441e+05	(-2.75500068978938e+01dB,4.86845521548799e+00°)
1.41591591591591e+05	(-2.75827409952504e+01dB,4.70937454163910e+00°)
1.41741741741741e+05	(-2.76152800454436e+01dB,4.55384303865139e+00°)
1.41891891891891e+05	(-2.76476184271810e+01dB,4.40180564755536e+00°)
1.42042042042041e+05	(-2.76797507383597e+01dB,4.25320753964931e+00°)
1.42192192192192e+05	(-2.77116717904816e+01dB,4.10799413958219e+00°)
1.42342342342342e+05	(-2.77433766031483e+01dB,3.96611114684589e+00°)
1.42492492492492e+05	(-2.77748603986386e+01dB,3.82750455574868e+00°)
1.42642642642642e+05	(-2.78061185965737e+01dB,3.69212067393995e+00°)
