Freq.	-I(V1)
1.00000000000000e+05	(-3.43734817133714e+01dB,8.89188635938499e+01°)
1.00150150150150e+05	(-3.43371833517592e+01dB,8.89048027566119e+01°)
1.00300300300300e+05	(-3.43008035626148e+01dB,8.88905551527618e+01°)
1.00450450450450e+05	(-3.42643416868455e+01dB,8.88761181731601e+01°)
1.00600600600601e+05	(-3.42277970611075e+01dB,8.88614891697350e+01°)
1.00750750750751e+05	(-3.41911690177747e+01dB,8.88466654548622e+01°)
1.00900900900901e+05	(-3.41544568849088e+01dB,8.88316443007331e+01°)
1.01051051051051e+05	(-3.41176599862278e+01dB,8.88164229387126e+01°)
1.01201201201201e+05	(-3.40807776410767e+01dB,8.88009985586869e+01°)
1.01351351351351e+05	(-3.40438091643961e+01dB,8.87853683083985e+01°)
1.01501501501501e+05	(-3.40067538666927e+01dB,8.87695292927722e+01°)
1.01651651651652e+05	(-3.39696110540090e+01dB,8.87534785732273e+01°)
1.01801801801802e+05	(-3.39323800278933e+01dB,8.87372131669799e+01°)
1.01951951951952e+05	(-3.38950600853703e+01dB,8.87207300463325e+01°)
1.02102102102102e+05	(-3.38576505189114e+01dB,8.87040261379519e+01°)
1.02252252252252e+05	(-3.38201506164054e+01dB,8.86870983221340e+01°)
1.02402402402402e+05	(-3.37825596611294e+01dB,8.86699434320576e+01°)
1.02552552552553e+05	(-3.37448769317199e+01dB,8.86525582530239e+01°)
1.02702702702703e+05	(-3.37071017021442e+01dB,8.86349395216838e+01°)
1.02852852852853e+05	(-3.36692332416723e+01dB,8.86170839252521e+01°)
1.03003003003003e+05	(-3.36312708148483e+01dB,8.85989881007082e+01°)
1.03153153153153e+05	(-3.35932136814633e+01dB,8.85806486339824e+01°)
1.03303303303303e+05	(-3.35550610965275e+01dB,8.85620620591298e+01°)
1.03453453453453e+05	(-3.35168123102432e+01dB,8.85432248574884e+01°)
1.03603603603604e+05	(-3.34784665679783e+01dB,8.85241334568239e+01°)
1.03753753753754e+05	(-3.34400231102398e+01dB,8.85047842304595e+01°)
1.03903903903904e+05	(-3.34014811726480e+01dB,8.84851734963906e+01°)
1.04054054054054e+05	(-3.33628399859108e+01dB,8.84652975163847e+01°)
1.04204204204204e+05	(-3.33240987757989e+01dB,8.84451524950653e+01°)
1.04354354354354e+05	(-3.32852567631210e+01dB,8.84247345789807e+01°)
1.04504504504504e+05	(-3.32463131637002e+01dB,8.84040398556562e+01°)
1.04654654654655e+05	(-3.32072671883501e+01dB,8.83830643526304e+01°)
1.04804804804805e+05	(-3.31681180428518e+01dB,8.83618040364747e+01°)
1.04954954954955e+05	(-3.31288649279319e+01dB,8.83402548117959e+01°)
1.05105105105105e+05	(-3.30895070392405e+01dB,8.83184125202220e+01°)
1.05255255255255e+05	(-3.30500435673302e+01dB,8.82962729393695e+01°)
1.05405405405405e+05	(-3.30104736976357e+01dB,8.82738317817944e+01°)
1.05555555555555e+05	(-3.29707966104539e+01dB,8.82510846939238e+01°)
1.05705705705706e+05	(-3.29310114809252e+01dB,8.82280272549693e+01°)
1.05855855855856e+05	(-3.28911174790154e+01dB,8.82046549758225e+01°)
1.06006006006006e+05	(-3.28511137694979e+01dB,8.81809632979298e+01°)
1.06156156156156e+05	(-3.28109995119376e+01dB,8.81569475921497e+01°)
1.06306306306306e+05	(-3.27707738606751e+01dB,8.81326031575884e+01°)
1.06456456456456e+05	(-3.27304359648121e+01dB,8.81079252204165e+01°)
1.06606606606607e+05	(-3.26899849681976e+01dB,8.80829089326648e+01°)
1.06756756756757e+05	(-3.26494200094155e+01dB,8.80575493709992e+01°)
1.06906906906907e+05	(-3.26087402217725e+01dB,8.80318415354744e+01°)
1.07057057057057e+05	(-3.25679447332878e+01dB,8.80057803482660e+01°)
1.07207207207207e+05	(-3.25270326666838e+01dB,8.79793606523805e+01°)
1.07357357357357e+05	(-3.24860031393779e+01dB,8.79525772103433e+01°)
1.07507507507507e+05	(-3.24448552634756e+01dB,8.79254247028629e+01°)
1.07657657657658e+05	(-3.24035881457646e+01dB,8.78978977274733e+01°)
1.07807807807808e+05	(-3.23622008877108e+01dB,8.78699907971521e+01°)
1.07957957957958e+05	(-3.23206925854556e+01dB,8.78416983389138e+01°)
1.08108108108108e+05	(-3.22790623298141e+01dB,8.78130146923804e+01°)
1.08258258258258e+05	(-3.22373092062755e+01dB,8.77839341083256e+01°)
1.08408408408408e+05	(-3.21954322950049e+01dB,8.77544507471943e+01°)
1.08558558558558e+05	(-3.21534306708466e+01dB,8.77245586775965e+01°)
1.08708708708709e+05	(-3.21113034033292e+01dB,8.76942518747745e+01°)
1.08858858858859e+05	(-3.20690495566725e+01dB,8.76635242190441e+01°)
1.09009009009009e+05	(-3.20266681897963e+01dB,8.76323694942078e+01°)
1.09159159159159e+05	(-3.19841583563312e+01dB,8.76007813859413e+01°)
1.09309309309309e+05	(-3.19415191046312e+01dB,8.75687534801511e+01°)
1.09459459459459e+05	(-3.18987494777884e+01dB,8.75362792613042e+01°)
1.09609609609609e+05	(-3.18558485136501e+01dB,8.75033521107281e+01°)
1.09759759759760e+05	(-3.18128152448381e+01dB,8.74699653048817e+01°)
1.09909909909910e+05	(-3.17696486987699e+01dB,8.74361120135959e+01°)
1.10060060060060e+05	(-3.17263478976831e+01dB,8.74017852982834e+01°)
1.10210210210210e+05	(-3.16829118586615e+01dB,8.73669781101177e+01°)
1.10360360360360e+05	(-3.16393395936645e+01dB,8.73316832881803e+01°)
1.10510510510510e+05	(-3.15956301095585e+01dB,8.72958935575754e+01°)
1.10660660660661e+05	(-3.15517824081521e+01dB,8.72596015275122e+01°)
1.10810810810811e+05	(-3.15077954862331e+01dB,8.72227996893536e+01°)
1.10960960960961e+05	(-3.14636683356093e+01dB,8.71854804146310e+01°)
1.11111111111111e+05	(-3.14193999431521e+01dB,8.71476359530250e+01°)
1.11261261261261e+05	(-3.13749892908435e+01dB,8.71092584303103e+01°)
1.11411411411411e+05	(-3.13304353558264e+01dB,8.70703398462656e+01°)
1.11561561561561e+05	(-3.12857371104585e+01dB,8.70308720725468e+01°)
1.11711711711712e+05	(-3.12408935223694e+01dB,8.69908468505238e+01°)
1.11861861861862e+05	(-3.11959035545221e+01dB,8.69502557890792e+01°)
1.12012012012012e+05	(-3.11507661652781e+01dB,8.69090903623694e+01°)
1.12162162162162e+05	(-3.11054803084664e+01dB,8.68673419075469e+01°)
1.12312312312312e+05	(-3.10600449334566e+01dB,8.68250016224427e+01°)
1.12462462462462e+05	(-3.10144589852369e+01dB,8.67820605632097e+01°)
1.12612612612612e+05	(-3.09687214044963e+01dB,8.67385096419242e+01°)
1.12762762762763e+05	(-3.09228311277106e+01dB,8.66943396241471e+01°)
1.12912912912913e+05	(-3.08767870872351e+01dB,8.66495411264427e+01°)
1.13063063063063e+05	(-3.08305882114002e+01dB,8.66041046138544e+01°)
1.13213213213213e+05	(-3.07842334246138e+01dB,8.65580203973383e+01°)
1.13363363363363e+05	(-3.07377216474681e+01dB,8.65112786311511e+01°)
1.13513513513513e+05	(-3.06910517968526e+01dB,8.64638693101948e+01°)
1.13663663663663e+05	(-3.06442227860718e+01dB,8.64157822673152e+01°)
1.13813813813814e+05	(-3.05972335249704e+01dB,8.63670071705542e+01°)
1.13963963963964e+05	(-3.05500829200633e+01dB,8.63175335203558e+01°)
1.14114114114114e+05	(-3.05027698746726e+01dB,8.62673506467243e+01°)
1.14264264264264e+05	(-3.04552932890713e+01dB,8.62164477063343e+01°)
1.14414414414414e+05	(-3.04076520606332e+01dB,8.61648136795914e+01°)
1.14564564564564e+05	(-3.03598450839909e+01dB,8.61124373676443e+01°)
1.14714714714715e+05	(-3.03118712512000e+01dB,8.60593073893450e+01°)
1.14864864864865e+05	(-3.02637294519120e+01dB,8.60054121781592e+01°)
1.15015015015015e+05	(-3.02154185735539e+01dB,8.59507399790244e+01°)
1.15165165165165e+05	(-3.01669375015172e+01dB,8.58952788451550e+01°)
1.15315315315315e+05	(-3.01182851193539e+01dB,8.58390166347949e+01°)
1.15465465465465e+05	(-3.00694603089828e+01dB,8.57819410079158e+01°)
1.15615615615615e+05	(-3.00204619509033e+01dB,8.57240394228606e+01°)
1.15765765765766e+05	(-2.99712889244195e+01dB,8.56652991329315e+01°)
1.15915915915916e+05	(-2.99219401078740e+01dB,8.56057071829224e+01°)
1.16066066066066e+05	(-2.98724143788907e+01dB,8.55452504055936e+01°)
1.16216216216216e+05	(-2.98227106146292e+01dB,8.54839154180900e+01°)
1.16366366366366e+05	(-2.97728276920493e+01dB,8.54216886183002e+01°)
1.16516516516516e+05	(-2.97227644881864e+01dB,8.53585561811574e+01°)
1.16666666666666e+05	(-2.96725198804386e+01dB,8.52945040548802e+01°)
1.16816816816817e+05	(-2.96220927468660e+01dB,8.52295179571537e+01°)
1.16966966966967e+05	(-2.95714819665017e+01dB,8.51635833712497e+01°)
1.17117117117117e+05	(-2.95206864196756e+01dB,8.50966855420848e+01°)
1.17267267267267e+05	(-2.94697049883521e+01dB,8.50288094722176e+01°)
1.17417417417417e+05	(-2.94185365564802e+01dB,8.49599399177820e+01°)
1.17567567567567e+05	(-2.93671800103584e+01dB,8.48900613843588e+01°)
1.17717717717717e+05	(-2.93156342390144e+01dB,8.48191581227818e+01°)
1.17867867867868e+05	(-2.92638981345992e+01dB,8.47472141248817e+01°)
1.18018018018018e+05	(-2.92119705927972e+01dB,8.46742131191632e+01°)
1.18168168168168e+05	(-2.91598505132523e+01dB,8.46001385664192e+01°)
1.18318318318318e+05	(-2.91075368000107e+01dB,8.45249736552777e+01°)
1.18468468468468e+05	(-2.90550283619810e+01dB,8.44487012976834e+01°)
1.18618618618618e+05	(-2.90023241134121e+01dB,8.43713041243141e+01°)
1.18768768768768e+05	(-2.89494229743894e+01dB,8.42927644799288e+01°)
1.18918918918919e+05	(-2.88963238713505e+01dB,8.42130644186509e+01°)
1.19069069069069e+05	(-2.88430257376205e+01dB,8.41321856991838e+01°)
1.19219219219219e+05	(-2.87895275139670e+01dB,8.40501097799591e+01°)
1.19369369369369e+05	(-2.87358281491776e+01dB,8.39668178142195e+01°)
1.19519519519519e+05	(-2.86819266006581e+01dB,8.38822906450327e+01°)
1.19669669669669e+05	(-2.86278218350538e+01dB,8.37965088002405e+01°)
1.19819819819820e+05	(-2.85735128288939e+01dB,8.37094524873400e+01°)
1.19969969969970e+05	(-2.85189985692605e+01dB,8.36211015882992e+01°)
1.20120120120120e+05	(-2.84642780544820e+01dB,8.35314356543065e+01°)
1.20270270270270e+05	(-2.84093502948528e+01dB,8.34404339004550e+01°)
1.20420420420420e+05	(-2.83542143133792e+01dB,8.33480752003617e+01°)
1.20570570570570e+05	(-2.82988691465537e+01dB,8.32543380807228e+01°)
1.20720720720720e+05	(-2.82433138451568e+01dB,8.31592007158059e+01°)
1.20870870870871e+05	(-2.81875474750890e+01dB,8.30626409218797e+01°)
1.21021021021021e+05	(-2.81315691182334e+01dB,8.29646361515826e+01°)
1.21171171171171e+05	(-2.80753778733490e+01dB,8.28651634882317e+01°)
1.21321321321321e+05	(-2.80189728569976e+01dB,8.27641996400728e+01°)
1.21471471471471e+05	(-2.79623532045031e+01dB,8.26617209344740e+01°)
1.21621621621621e+05	(-2.79055180709469e+01dB,8.25577033120642e+01°)
1.21771771771771e+05	(-2.78484666321984e+01dB,8.24521223208185e+01°)
1.21921921921922e+05	(-2.77911980859827e+01dB,8.23449531100924e+01°)
1.22072072072072e+05	(-2.77337116529867e+01dB,8.22361704246079e+01°)
1.22222222222222e+05	(-2.76760065780048e+01dB,8.21257485983940e+01°)
1.22372372372372e+05	(-2.76180821311257e+01dB,8.20136615486838e+01°)
1.22522522522522e+05	(-2.75599376089609e+01dB,8.18998827697720e+01°)
1.22672672672672e+05	(-2.75015723359174e+01dB,8.17843853268367e+01°)
1.22822822822822e+05	(-2.74429856655149e+01dB,8.16671418497278e+01°)
1.22972972972973e+05	(-2.73841769817498e+01dB,8.15481245267280e+01°)
1.23123123123123e+05	(-2.73251457005069e+01dB,8.14273050982888e+01°)
1.23273273273273e+05	(-2.72658912710210e+01dB,8.13046548507484e+01°)
1.23423423423423e+05	(-2.72064131773889e+01dB,8.11801446100345e+01°)
1.23573573573573e+05	(-2.71467109401345e+01dB,8.10537447353595e+01°)
1.23723723723723e+05	(-2.70867841178286e+01dB,8.09254251129128e+01°)
1.23873873873874e+05	(-2.70266323087638e+01dB,8.07951551495575e+01°)
1.24024024024024e+05	(-2.69662551526877e+01dB,8.06629037665372e+01°)
1.24174174174174e+05	(-2.69056523325959e+01dB,8.05286393932022e+01°)
1.24324324324324e+05	(-2.68448235765859e+01dB,8.03923299607617e+01°)
1.24474474474474e+05	(-2.67837686597744e+01dB,8.02539428960703e+01°)
1.24624624624624e+05	(-2.67224874062797e+01dB,8.01134451154595e+01°)
1.24774774774774e+05	(-2.66609796912714e+01dB,7.99708030186221e+01°)
1.24924924924925e+05	(-2.65992454430888e+01dB,7.98259824825617e+01°)
1.25075075075075e+05	(-2.65372846454307e+01dB,7.96789488556167e+01°)
1.25225225225225e+05	(-2.64750973396182e+01dB,7.95296669515720e+01°)
1.25375375375375e+05	(-2.64126836269329e+01dB,7.93781010438706e+01°)
1.25525525525525e+05	(-2.63500436710323e+01dB,7.92242148599384e+01°)
1.25675675675675e+05	(-2.62871777004447e+01dB,7.90679715756365e+01°)
1.25825825825825e+05	(-2.62240860111461e+01dB,7.89093338098565e+01°)
1.25975975975976e+05	(-2.61607689692210e+01dB,7.87482636192754e+01°)
1.26126126126126e+05	(-2.60972270136090e+01dB,7.85847224932856e+01°)
1.26276276276276e+05	(-2.60334606589405e+01dB,7.84186713491203e+01°)
1.26426426426426e+05	(-2.59694704984628e+01dB,7.82500705271926e+01°)
1.26576576576576e+05	(-2.59052572070590e+01dB,7.80788797866684e+01°)
1.26726726726726e+05	(-2.58408215443630e+01dB,7.79050583012954e+01°)
1.26876876876876e+05	(-2.57761643579715e+01dB,7.77285646555116e+01°)
1.27027027027027e+05	(-2.57112865867562e+01dB,7.75493568408561e+01°)
1.27177177177177e+05	(-2.56461892642782e+01dB,7.73673922527093e+01°)
1.27327327327327e+05	(-2.55808735223073e+01dB,7.71826276873887e+01°)
1.27477477477477e+05	(-2.55153405944475e+01dB,7.69950193396298e+01°)
1.27627627627627e+05	(-2.54495918198723e+01dB,7.68045228004808e+01°)
1.27777777777777e+05	(-2.53836286471702e+01dB,7.66110930556449e+01°)
1.27927927927928e+05	(-2.53174526383049e+01dB,7.64146844843015e+01°)
1.28078078078078e+05	(-2.52510654726897e+01dB,7.62152508584439e+01°)
1.28228228228228e+05	(-2.51844689513799e+01dB,7.60127453427686e+01°)
1.28378378378378e+05	(-2.51176650013845e+01dB,7.58071204951566e+01°)
1.28528528528528e+05	(-2.50506556800990e+01dB,7.55983282677867e+01°)
1.28678678678678e+05	(-2.49834431798610e+01dB,7.53863200089255e+01°)
1.28828828828828e+05	(-2.49160298326298e+01dB,7.51710464654365e+01°)
1.28978978978979e+05	(-2.48484181147928e+01dB,7.49524577860591e+01°)
1.29129129129129e+05	(-2.47806106520974e+01dB,7.47305035255040e+01°)
1.29279279279279e+05	(-2.47126102247122e+01dB,7.45051326494194e+01°)
1.29429429429429e+05	(-2.46444197724166e+01dB,7.42762935402801e+01°)
1.29579579579579e+05	(-2.45760423999195e+01dB,7.40439340042582e+01°)
1.29729729729729e+05	(-2.45074813823080e+01dB,7.38080012791338e+01°)
1.29879879879879e+05	(-2.44387401706260e+01dB,7.35684420433065e+01°)
1.30030030030030e+05	(-2.43698223975821e+01dB,7.33252024259745e+01°)
1.30180180180180e+05	(-2.43007318833861e+01dB,7.30782280185454e+01°)
1.30330330330330e+05	(-2.42314726417134e+01dB,7.28274638873510e+01°)
1.30480480480480e+05	(-2.41620488857958e+01dB,7.25728545877363e+01°)
1.30630630630630e+05	(-2.40924650346367e+01dB,7.23143441795996e+01°)
1.30780780780780e+05	(-2.40227257193477e+01dB,7.20518762444594e+01°)
1.30930930930930e+05	(-2.39528357896048e+01dB,7.17853939041306e+01°)
1.31081081081081e+05	(-2.38828003202198e+01dB,7.15148398410923e+01°)
1.31231231231231e+05	(-2.38126246178232e+01dB,7.12401563206315e+01°)
1.31381381381381e+05	(-2.37423142276528e+01dB,7.09612852148537e+01°)
1.31531531531531e+05	(-2.36718749404439e+01dB,7.06781680286496e+01°)
1.31681681681681e+05	(-2.36013127994139e+01dB,7.03907459277104e+01°)
1.31831831831831e+05	(-2.35306341073337e+01dB,7.00989597686895e+01°)
1.31981981981982e+05	(-2.34598454336785e+01dB,6.98027501316065e+01°)
1.32132132132132e+05	(-2.33889536218493e+01dB,6.95020573545927e+01°)
1.32282282282282e+05	(-2.33179657964536e+01dB,6.91968215710820e+01°)
1.32432432432432e+05	(-2.32468893706358e+01dB,6.88869827495473e+01°)
1.32582582582582e+05	(-2.31757320534441e+01dB,6.85724807358882e+01°)
1.32732732732732e+05	(-2.31045018572203e+01dB,6.82532552985753e+01°)
1.32882882882882e+05	(-2.30332071049987e+01dB,6.79292461766554e+01°)
1.33033033033033e+05	(-2.29618564378972e+01dB,6.76003931307257e+01°)
1.33183183183183e+05	(-2.28904588224832e+01dB,6.72666359969811e+01°)
1.33333333333333e+05	(-2.28190235580958e+01dB,6.69279147444395e+01°)
1.33483483483483e+05	(-2.27475602841036e+01dB,6.65841695354514e+01°)
1.33633633633633e+05	(-2.26760789870753e+01dB,6.62353407895922e+01°)
1.33783783783783e+05	(-2.26045900078413e+01dB,6.58813692510390e+01°)
1.33933933933933e+05	(-2.25331040484181e+01dB,6.55221960595271e+01°)
1.34084084084084e+05	(-2.24616321787710e+01dB,6.51577628249797e+01°)
1.34234234234234e+05	(-2.23901858433839e+01dB,6.47880117058951e+01°)
1.34384384384384e+05	(-2.23187768676066e+01dB,6.44128854915770e+01°)
1.34534534534534e+05	(-2.22474174637459e+01dB,6.40323276882784e+01°)
1.34684684684684e+05	(-2.21761202368662e+01dB,6.36462826093297e+01°)
1.34834834834834e+05	(-2.21048981902630e+01dB,6.32546954693061e+01°)
1.34984984984984e+05	(-2.20337647305691e+01dB,6.28575124822840e+01°)
1.35135135135135e+05	(-2.19627336724549e+01dB,6.24546809642213e+01°)
1.35285285285285e+05	(-2.18918192428785e+01dB,6.20461494394868e+01°)
1.35435435435435e+05	(-2.18210360848410e+01dB,6.16318677515459e+01°)
1.35585585585585e+05	(-2.17503992606013e+01dB,6.12117871777992e+01°)
1.35735735735735e+05	(-2.16799242543011e+01dB,6.07858605485478e+01°)
1.35885885885885e+05	(-2.16096269739498e+01dB,6.03540423700452e+01°)
1.36036036036036e+05	(-2.15395237527183e+01dB,5.99162889515719e+01°)
1.36186186186186e+05	(-2.14696313494871e+01dB,5.94725585364497e+01°)
1.36336336336336e+05	(-2.13999669485951e+01dB,5.90228114368860e+01°)
1.36486486486486e+05	(-2.13305481587311e+01dB,5.85670101725154e+01°)
1.36636636636636e+05	(-2.12613930109134e+01dB,5.81051196124779e+01°)
1.36786786786786e+05	(-2.11925199554975e+01dB,5.76371071208436e+01°)
1.36936936936936e+05	(-2.11239478581548e+01dB,5.71629427051646e+01°)
1.37087087087087e+05	(-2.10556959947627e+01dB,5.66825991679032e+01°)
1.37237237237237e+05	(-2.09877840451487e+01dB,5.61960522604486e+01°)
1.37387387387387e+05	(-2.09202320856290e+01dB,5.57032808394044e+01°)
1.37537537537537e+05	(-2.08530605802866e+01dB,5.52042670247905e+01°)
1.37687687687687e+05	(-2.07862903709304e+01dB,5.46989963597627e+01°)
1.37837837837837e+05	(-2.07199426656834e+01dB,5.41874579714235e+01°)
1.37987987987987e+05	(-2.06540390261476e+01dB,5.36696447322480e+01°)
1.38138138138138e+05	(-2.05886013530958e+01dB,5.31455534216189e+01°)
1.38288288288288e+05	(-2.05236518706468e+01dB,5.26151848869188e+01°)
1.38438438438438e+05	(-2.04592131088796e+01dB,5.20785442035919e+01°)
1.38588588588588e+05	(-2.03953078848529e+01dB,5.15356408335454e+01°)
1.38738738738738e+05	(-2.03319592819958e+01dB,5.09864887812285e+01°)
1.38888888888888e+05	(-2.02691906278451e+01dB,5.04311067466801e+01°)
1.39039039039038e+05	(-2.02070254701098e+01dB,4.98695182748133e+01°)
1.39189189189189e+05	(-2.01454875510512e+01dB,4.93017519001625e+01°)
1.39339339339339e+05	(-2.00846007801743e+01dB,4.87278412862924e+01°)
1.39489489489489e+05	(-2.00243892052351e+01dB,4.81478253590436e+01°)
1.39639639639639e+05	(-1.99648769815785e+01dB,4.75617484327580e+01°)
1.39789789789789e+05	(-1.99060883398296e+01dB,4.69696603286219e+01°)
1.39939939939939e+05	(-1.98480475519729e+01dB,4.63716164842354e+01°)
1.40090090090090e+05	(-1.97907788958649e+01dB,4.57676780535190e+01°)
1.40240240240240e+05	(-1.97343066182359e+01dB,4.51579119960614e+01°)
1.40390390390390e+05	(-1.96786548962500e+01dB,4.45423911550149e+01°)
1.40540540540540e+05	(-1.96238477977039e+01dB,4.39211943226584e+01°)
1.40690690690690e+05	(-1.95699092399559e+01dB,4.32944062927633e+01°)
1.40840840840840e+05	(-1.95168629476929e+01dB,4.26621178989245e+01°)
1.40990990990990e+05	(-1.94647324096504e+01dB,4.20244260380511e+01°)
1.41141141141141e+05	(-1.94135408344174e+01dB,4.13814336782540e+01°)
1.41291291291291e+05	(-1.93633111054684e+01dB,4.07332498504198e+01°)
1.41441441441441e+05	(-1.93140657355750e+01dB,4.00799896228122e+01°)
1.41591591591591e+05	(-1.92658268207641e+01dB,3.94217740581219e+01°)
1.41741741741741e+05	(-1.92186159939969e+01dB,3.87587301524451e+01°)
1.41891891891891e+05	(-1.91724543787545e+01dB,3.80909907557721e+01°)
1.42042042042041e+05	(-1.91273625427246e+01dB,3.74186944736445e+01°)
1.42192192192192e+05	(-1.90833604517906e+01dB,3.67419855497460e+01°)
1.42342342342342e+05	(-1.90404674245303e+01dB,3.60610137292955e+01°)
1.42492492492492e+05	(-1.89987020874389e+01dB,3.53759341032219e+01°)
1.42642642642642e+05	(-1.89580823310909e+01dB,3.46869069332153e+01°)
