time	V(vds)	V(n001)
0.000000000000000e+000	9.623473e-002	5.000000e+000
1.000099999993662e-008	9.623473e-002	5.000000e+000
1.000129999997879e-008	9.151205e-002	3.500000e+000
1.000169999989045e-008	8.513531e-002	1.500000e+000
1.000199999993262e-008	8.079863e-002	0.000000e+000
1.000207999995832e-008	8.025774e-002	0.000000e+000
1.000363922867792e-008	7.968841e-002	0.000000e+000
1.000519845739752e-008	7.924445e-002	0.000000e+000
1.000675768611712e-008	7.892587e-002	0.000000e+000
1.000831691483673e-008	7.873267e-002	0.000000e+000
1.000987614355633e-008	7.866484e-002	0.000000e+000
1.001143537227593e-008	7.872238e-002	0.000000e+000
1.001299460099553e-008	7.890530e-002	0.000000e+000
1.003818723791060e-008	8.042485e-002	0.000000e+000
1.006337987482568e-008	8.207471e-002	0.000000e+000
1.008857251174076e-008	8.385487e-002	0.000000e+000
1.011376514865583e-008	8.576533e-002	0.000000e+000
1.013895778557091e-008	8.780610e-002	0.000000e+000
1.016415042248598e-008	8.997717e-002	0.000000e+000
1.018934305940106e-008	9.227855e-002	0.000000e+000
1.023934305941811e-008	9.793736e-002	0.000000e+000
1.028934305943516e-008	1.055902e-001	0.000000e+000
1.033934305945221e-008	1.169461e-001	0.000000e+000
1.038934305946926e-008	1.353184e-001	0.000000e+000
1.043329607365758e-008	1.631008e-001	0.000000e+000
1.047103186991617e-008	2.058135e-001	0.000000e+000
1.051253280108001e-008	2.829727e-001	0.000000e+000
1.055280596001969e-008	3.891018e-001	0.000000e+000
1.060280596003674e-008	5.486180e-001	0.000000e+000
1.065280596005379e-008	7.206740e-001	0.000000e+000
1.070280596007084e-008	8.974314e-001	0.000000e+000
1.075280596008789e-008	1.075906e+000	0.000000e+000
1.080280596010494e-008	1.255378e+000	0.000000e+000
1.085280596012199e-008	1.435626e+000	0.000000e+000
1.090280596013904e-008	1.616540e+000	0.000000e+000
1.095280596015609e-008	1.798046e+000	0.000000e+000
1.100280596017314e-008	1.980087e+000	0.000000e+000
1.105280596019019e-008	2.162615e+000	0.000000e+000
1.110280596020724e-008	2.345593e+000	0.000000e+000
1.115280596022429e-008	2.528991e+000	0.000000e+000
1.120280596024134e-008	2.712780e+000	0.000000e+000
1.125280596025839e-008	2.896941e+000	0.000000e+000
1.130280596027544e-008	3.081452e+000	0.000000e+000
1.135280596029249e-008	3.266294e+000	0.000000e+000
1.140280596030954e-008	3.451449e+000	0.000000e+000
1.145280596032659e-008	3.636895e+000	0.000000e+000
1.150280596034364e-008	3.822612e+000	0.000000e+000
1.155280596036069e-008	4.008579e+000	0.000000e+000
1.160280596037774e-008	4.194775e+000	0.000000e+000
1.165280596039479e-008	4.381176e+000	0.000000e+000
1.170280596041184e-008	4.567765e+000	0.000000e+000
1.175280596042889e-008	4.754520e+000	0.000000e+000
1.180280596044595e-008	4.941423e+000	0.000000e+000
1.185280596046300e-008	5.128459e+000	0.000000e+000
1.190280596048005e-008	5.315611e+000	0.000000e+000
1.200280596051415e-008	5.690217e+000	0.000000e+000
1.210280596054825e-008	6.065150e+000	0.000000e+000
1.220280596058235e-008	6.440360e+000	0.000000e+000
1.235280596063350e-008	7.003587e+000	0.000000e+000
1.247423453210348e-008	7.459845e+000	0.000000e+000
1.259566310357346e-008	7.916232e+000	0.000000e+000
1.271709167504344e-008	8.372747e+000	0.000000e+000
1.283852024651342e-008	8.829391e+000	0.000000e+000
1.295994881798340e-008	9.286163e+000	0.000000e+000
1.308137738945337e-008	9.743064e+000	0.000000e+000
1.320280596092335e-008	1.020009e+001	0.000000e+000
1.403137738977733e-008	1.333261e+001	0.000000e+000
1.485994881863131e-008	1.644921e+001	0.000000e+000
1.568852024748528e-008	1.954988e+001	0.000000e+000
1.651709167633926e-008	2.263464e+001	0.000000e+000
1.734566310519324e-008	2.570348e+001	0.000000e+000
1.817423453404721e-008	2.875640e+001	0.000000e+000
1.900280596290119e-008	3.179339e+001	0.000000e+000
1.936709167731113e-008	3.310169e+001	0.000000e+000
1.973137739172107e-008	3.442071e+001	0.000000e+000
2.009566310613100e-008	3.575045e+001	0.000000e+000
2.045994882054094e-008	3.709091e+001	0.000000e+000
2.082423453495088e-008	3.844209e+001	0.000000e+000
2.118852024936081e-008	3.980399e+001	0.000000e+000
2.155280596377075e-008	4.117661e+001	0.000000e+000
2.170280596382190e-008	4.175868e+001	0.000000e+000
2.185280596387305e-008	4.236097e+001	0.000000e+000
2.200280596392421e-008	4.298349e+001	0.000000e+000
2.215280596397536e-008	4.362622e+001	0.000000e+000
2.230280596402651e-008	4.428917e+001	0.000000e+000
2.245280596407766e-008	4.497235e+001	0.000000e+000
2.260280596412881e-008	4.567575e+001	0.000000e+000
2.275994882132525e-008	4.645925e+001	0.000000e+000
2.291709167852170e-008	4.728624e+001	0.000000e+000
2.307423453571814e-008	4.815670e+001	0.000000e+000
2.323137739291459e-008	4.907064e+001	0.000000e+000
2.338852025011103e-008	5.002806e+001	0.000000e+000
2.354566310730747e-008	5.102895e+001	0.000000e+000
2.370280596450392e-008	5.207333e+001	0.000000e+000
2.383852025026448e-008	5.300321e+001	0.000000e+000
2.397423453602505e-008	5.394120e+001	0.000000e+000
2.410994882178561e-008	5.488730e+001	0.000000e+000
2.424566310754618e-008	5.584152e+001	0.000000e+000
2.438137739330674e-008	5.680385e+001	0.000000e+000
2.451709167906731e-008	5.777429e+001	0.000000e+000
2.465280596482787e-008	5.875285e+001	0.000000e+000
2.489566310776783e-008	6.049463e+001	0.000000e+000
2.513852025070779e-008	6.222353e+001	0.000000e+000
2.538137739364775e-008	6.393953e+001	0.000000e+000
2.562423453658771e-008	6.564265e+001	0.000000e+000
2.586709167952766e-008	6.733287e+001	0.000000e+000
2.610994882246762e-008	6.901020e+001	0.000000e+000
2.635280596540758e-008	7.067464e+001	0.000000e+000
2.701709167991982e-008	7.515227e+001	0.000000e+000
2.768137739443206e-008	7.947570e+001	0.000000e+000
2.834566310894430e-008	8.364493e+001	0.000000e+000
2.900994882345654e-008	8.765997e+001	0.000000e+000
2.967423453796878e-008	9.152080e+001	0.000000e+000
3.033852025248102e-008	9.522745e+001	0.000000e+000
3.100280596699326e-008	9.877989e+001	0.000000e+000
3.163852025292433e-008	1.020122e+002	0.000000e+000
3.227423453885539e-008	1.050376e+002	0.000000e+000
3.290994882478647e-008	1.078560e+002	0.000000e+000
3.354566311071753e-008	1.104677e+002	0.000000e+000
3.418137739664860e-008	1.128724e+002	0.000000e+000
3.481709168257967e-008	1.150702e+002	0.000000e+000
3.545280596851073e-008	1.170611e+002	0.000000e+000
3.599566311155300e-008	1.185549e+002	0.000000e+000
3.653852025459525e-008	1.198475e+002	0.000000e+000
3.708137739763752e-008	1.209388e+002	0.000000e+000
3.762423454067977e-008	1.218289e+002	0.000000e+000
3.816709168372204e-008	1.225177e+002	0.000000e+000
3.870994882676430e-008	1.230053e+002	0.000000e+000
3.925280596980656e-008	1.232916e+002	0.000000e+000
3.940994882700300e-008	1.233315e+002	0.000000e+000
3.956709168419945e-008	1.233535e+002	0.000000e+000
3.972423454139589e-008	1.233576e+002	0.000000e+000
3.988137739859233e-008	1.233438e+002	0.000000e+000
4.003852025578877e-008	1.233121e+002	0.000000e+000
4.019566311298522e-008	1.232625e+002	0.000000e+000
4.035280597018166e-008	1.231951e+002	0.000000e+000
4.085280597035217e-008	1.228620e+002	0.000000e+000
4.090280597036922e-008	1.228127e+002	0.000000e+000
4.095280597038627e-008	1.227491e+002	0.000000e+000
4.100280597040332e-008	1.226837e+002	0.000000e+000
4.105280597042037e-008	1.226290e+002	0.000000e+000
4.120280597047152e-008	1.224728e+002	0.000000e+000
4.132423454194150e-008	1.223346e+002	0.000000e+000
4.144566311341148e-008	1.221862e+002	0.000000e+000
4.156709168488146e-008	1.220274e+002	0.000000e+000
4.168852025635143e-008	1.218584e+002	0.000000e+000
4.180994882782141e-008	1.216791e+002	0.000000e+000
4.193137739929140e-008	1.214895e+002	0.000000e+000
4.205280597076137e-008	1.212896e+002	0.000000e+000
4.275280597100008e-008	1.199054e+002	0.000000e+000
4.345280597123878e-008	1.182350e+002	0.000000e+000
4.415280597147749e-008	1.162784e+002	0.000000e+000
4.485280597171619e-008	1.140355e+002	0.000000e+000
4.555280597195489e-008	1.115065e+002	0.000000e+000
4.625280597219360e-008	1.086913e+002	0.000000e+000
4.695280597243230e-008	1.055898e+002	0.000000e+000
4.740994882973104e-008	1.034543e+002	0.000000e+000
4.786709168702979e-008	1.012320e+002	0.000000e+000
4.832423454432854e-008	9.892292e+001	0.000000e+000
4.878137740162729e-008	9.652697e+001	0.000000e+000
4.923852025892603e-008	9.404420e+001	0.000000e+000
4.969566311622478e-008	9.147459e+001	0.000000e+000
5.015280597352352e-008	8.881816e+001	0.000000e+000
5.020280597354057e-008	8.852385e+001	0.000000e+000
5.047423454506170e-008	8.690905e+001	0.000000e+000
5.074566311658283e-008	8.526956e+001	0.000000e+000
5.101709168810396e-008	8.360540e+001	0.000000e+000
5.128852025962509e-008	8.191655e+001	0.000000e+000
5.155994883114623e-008	8.020303e+001	0.000000e+000
5.183137740266735e-008	7.846482e+001	0.000000e+000
5.210280597418848e-008	7.670193e+001	0.000000e+000
5.250280597432488e-008	7.405384e+001	0.000000e+000
5.290280597446129e-008	7.136739e+001	0.000000e+000
5.330280597459769e-008	6.864260e+001	0.000000e+000
5.370280597473409e-008	6.587946e+001	0.000000e+000
5.410280597487049e-008	6.307797e+001	0.000000e+000
5.450280597500690e-008	6.023813e+001	0.000000e+000
5.490280597514330e-008	5.735994e+001	0.000000e+000
5.509566311806621e-008	5.595616e+001	0.000000e+000
5.528852026098911e-008	5.458998e+001	0.000000e+000
5.548137740391203e-008	5.326138e+001	0.000000e+000
5.567423454683493e-008	5.197037e+001	0.000000e+000
5.586709168975784e-008	5.071696e+001	0.000000e+000
5.605994883268075e-008	4.950113e+001	0.000000e+000
5.625280597560366e-008	4.832289e+001	0.000000e+000
5.637423454707363e-008	4.763838e+001	0.000000e+000
5.649566311854362e-008	4.697754e+001	0.000000e+000
5.661709169001360e-008	4.634037e+001	0.000000e+000
5.673852026148357e-008	4.572688e+001	0.000000e+000
5.685994883295355e-008	4.513706e+001	0.000000e+000
5.698137740442353e-008	4.457091e+001	0.000000e+000
5.710280597589351e-008	4.402843e+001	0.000000e+000
5.726709169023525e-008	4.332228e+001	0.000000e+000
5.743137740457699e-008	4.263164e+001	0.000000e+000
5.759566311891872e-008	4.195653e+001	0.000000e+000
5.775994883326046e-008	4.129694e+001	0.000000e+000
5.792423454760219e-008	4.065288e+001	0.000000e+000
5.808852026194393e-008	4.002434e+001	0.000000e+000
5.825280597628567e-008	3.941132e+001	0.000000e+000
5.863852026213148e-008	3.799357e+001	0.000000e+000
5.902423454797730e-008	3.657916e+001	0.000000e+000
5.940994883382312e-008	3.516810e+001	0.000000e+000
5.979566311966893e-008	3.376037e+001	0.000000e+000
6.018137740551475e-008	3.235599e+001	0.000000e+000
6.056709169136058e-008	3.095495e+001	0.000000e+000
6.095280597720638e-008	2.955725e+001	0.000000e+000
6.174566312033389e-008	2.663558e+001	0.000000e+000
6.253852026346141e-008	2.370181e+001	0.000000e+000
6.333137740658892e-008	2.075594e+001	0.000000e+000
6.412423454971643e-008	1.779795e+001	0.000000e+000
6.491709169284395e-008	1.482787e+001	0.000000e+000
6.570994883597146e-008	1.184567e+001	0.000000e+000
6.650280597909897e-008	8.851367e+000	0.000000e+000
6.684566312207302e-008	7.562393e+000	0.000000e+000
6.718852026504709e-008	6.275181e+000	0.000000e+000
6.753137740802115e-008	4.989730e+000	0.000000e+000
6.787423455099520e-008	3.706039e+000	0.000000e+000
6.821709169396926e-008	2.424110e+000	0.000000e+000
6.855994883694333e-008	1.143943e+000	0.000000e+000
6.890280597991738e-008	-1.344639e-001	0.000000e+000
6.925280598003673e-008	-1.435291e+000	0.000000e+000
6.930280598005378e-008	-1.615342e+000	0.000000e+000
6.935280598007083e-008	-1.776584e+000	0.000000e+000
6.940280598008788e-008	-1.894681e+000	0.000000e+000
6.945280598010493e-008	-1.953987e+000	0.000000e+000
6.950280598012198e-008	-1.964604e+000	0.000000e+000
6.955280598013904e-008	-1.950973e+000	0.000000e+000
6.960114483822895e-008	-1.932081e+000	0.000000e+000
6.965114483824600e-008	-1.914272e+000	0.000000e+000
6.970114483826305e-008	-1.900077e+000	0.000000e+000
6.975114483828010e-008	-1.889338e+000	0.000000e+000
6.980114483829715e-008	-1.881377e+000	0.000000e+000
6.985114483831420e-008	-1.875516e+000	0.000000e+000
6.990114483833125e-008	-1.871207e+000	0.000000e+000
6.995114483834830e-008	-1.868007e+000	0.000000e+000
6.999321679147449e-008	-1.865973e+000	0.000000e+000
7.003279327635892e-008	-1.864503e+000	0.000000e+000
7.007235412943326e-008	-1.863359e+000	0.000000e+000
7.011871140465663e-008	-1.862324e+000	0.000000e+000
7.016871140467368e-008	-1.861474e+000	0.000000e+000
7.021871140469073e-008	-1.860837e+000	0.000000e+000
7.026871140470778e-008	-1.860362e+000	0.000000e+000
7.031871140472483e-008	-1.860006e+000	0.000000e+000
7.036871140474188e-008	-1.859740e+000	0.000000e+000
7.041871140475893e-008	-1.859538e+000	0.000000e+000
7.046871140477598e-008	-1.859386e+000	0.000000e+000
7.051871140479303e-008	-1.859269e+000	0.000000e+000
7.056871140481008e-008	-1.859180e+000	0.000000e+000
7.061871140482713e-008	-1.859110e+000	0.000000e+000
7.066871140484418e-008	-1.859055e+000	0.000000e+000
7.071871140486123e-008	-1.859011e+000	0.000000e+000
7.076871140487828e-008	-1.858975e+000	0.000000e+000
7.081871140489533e-008	-1.858945e+000	0.000000e+000
7.086871140491238e-008	-1.858919e+000	0.000000e+000
7.091871140492943e-008	-1.858897e+000	0.000000e+000
7.096871140494648e-008	-1.858877e+000	0.000000e+000
7.101871140496353e-008	-1.858859e+000	0.000000e+000
7.106871140498058e-008	-1.858843e+000	0.000000e+000
7.111871140499763e-008	-1.858827e+000	0.000000e+000
7.116871140501468e-008	-1.858812e+000	0.000000e+000
7.121871140503173e-008	-1.858798e+000	0.000000e+000
7.126871140504879e-008	-1.858784e+000	0.000000e+000
7.131871140506584e-008	-1.858770e+000	0.000000e+000
7.136871140508289e-008	-1.858757e+000	0.000000e+000
7.141871140509994e-008	-1.858744e+000	0.000000e+000
7.146871140511699e-008	-1.858731e+000	0.000000e+000
7.151871140513404e-008	-1.858718e+000	0.000000e+000
7.161871140516814e-008	-1.858692e+000	0.000000e+000
7.176871140521929e-008	-1.858654e+000	0.000000e+000
7.189013997668927e-008	-1.858623e+000	0.000000e+000
7.201156854815924e-008	-1.858592e+000	0.000000e+000
7.213299711962922e-008	-1.858561e+000	0.000000e+000
7.225442569109921e-008	-1.858530e+000	0.000000e+000
7.237585426256919e-008	-1.858499e+000	0.000000e+000
7.249728283403917e-008	-1.858468e+000	0.000000e+000
7.261871140550914e-008	-1.858437e+000	0.000000e+000
7.996871140801554e-008	-1.856565e+000	0.000000e+000
7.999999999995858e-008	-1.856557e+000	0.000000e+000
