time	V(vds)	V(n004)
0.000000000000000e+000	2.545617e-002	5.000000e+000
2.800010999969016e-008	2.545617e-002	5.000000e+000
3.000011000037217e-008	4.922671e-003	5.000000e+000
3.000012100025373e-008	-1.561083e-002	4.500005e+000
3.000014300001686e-008	-9.774361e-002	3.500016e+000
3.000015974877202e-008	-1.602711e-001	2.738709e+000
3.000017641079100e-008	-2.224726e-001	1.981345e+000
3.000020973309425e-008	-3.468673e-001	4.666944e-001
3.000021999918778e-008	-3.851927e-001	0.000000e+000
3.000022666399538e-008	-3.851886e-001	0.000000e+000
3.000023999361057e-008	-3.851802e-001	0.000000e+000
3.000026665110622e-008	-3.851635e-001	0.000000e+000
3.000031996609753e-008	-3.851298e-001	0.000000e+000
3.000042659781488e-008	-3.850618e-001	0.000000e+000
3.000063986124957e-008	-3.849240e-001	0.000000e+000
3.000106638638422e-008	-3.846432e-001	0.000000e+000
3.000191943838826e-008	-3.840682e-001	0.000000e+000
3.000362554066161e-008	-3.828883e-001	0.000000e+000
3.000703774520830e-008	-3.805448e-001	0.000000e+000
3.001208576276782e-008	-3.772181e-001	0.000000e+000
3.001745545357093e-008	-3.736977e-001	0.000000e+000
3.002362400361669e-008	-3.695874e-001	0.000000e+000
3.003143563863608e-008	-3.645371e-001	0.000000e+000
3.004082161153776e-008	-3.587451e-001	0.000000e+000
3.005959355734111e-008	-3.473505e-001	0.000000e+000
3.008003363058620e-008	-3.349853e-001	0.000000e+000
3.011350913247057e-008	-3.149061e-001	0.000000e+000
3.017746639556729e-008	-2.773945e-001	0.000000e+000
3.030538092349544e-008	-2.062231e-001	0.000000e+000
3.050210300829803e-008	-1.059950e-001	0.000000e+000
3.066046724148341e-008	-3.450509e-002	0.000000e+000
3.076994222958596e-008	8.709993e-003	0.000000e+000
3.084966919246479e-008	3.701847e-002	0.000000e+000
3.090977172479081e-008	5.720016e-002	0.000000e+000
3.095669694197500e-008	7.305927e-002	0.000000e+000
3.099503537336290e-008	8.717676e-002	0.000000e+000
3.102889307125822e-008	1.021556e-001	0.000000e+000
3.106437342081936e-008	1.223054e-001	0.000000e+000
3.110178491139148e-008	1.491532e-001	0.000000e+000
3.114959791841732e-008	1.887917e-001	0.000000e+000
3.120374509474333e-008	2.360845e-001	0.000000e+000
3.126372409047173e-008	2.886544e-001	0.000000e+000
3.137925921360696e-008	3.888387e-001	0.000000e+000
3.146770380900443e-008	4.648546e-001	0.000000e+000
3.153491889840154e-008	5.223945e-001	0.000000e+000
3.159996464496828e-008	5.778719e-001	0.000000e+000
3.166917137385761e-008	6.360114e-001	0.000000e+000
3.174116936129068e-008	6.948345e-001	0.000000e+000
3.188577331336706e-008	8.078481e-001	0.000000e+000
3.198273932324136e-008	8.816506e-001	0.000000e+000
3.207722231758636e-008	9.537146e-001	0.000000e+000
3.218685532858923e-008	1.039040e+000	0.000000e+000
3.230012894650525e-008	1.130753e+000	0.000000e+000
3.243114851843310e-008	1.242486e+000	0.000000e+000
3.254784262940458e-008	1.347517e+000	0.000000e+000
3.263813435315510e-008	1.432836e+000	0.000000e+000
3.271378343563947e-008	1.507173e+000	0.000000e+000
3.280508192177178e-008	1.599498e+000	0.000000e+000
3.290329607039122e-008	1.700758e+000	0.000000e+000
3.311775842625153e-008	1.925004e+000	0.000000e+000
3.326174314102759e-008	2.075824e+000	0.000000e+000
3.343893834224787e-008	2.260493e+000	0.000000e+000
3.361968739339083e-008	2.447118e+000	0.000000e+000
3.386377807335084e-008	2.696005e+000	0.000000e+000
3.413551210446064e-008	2.969362e+000	0.000000e+000
3.437675657677608e-008	3.209067e+000	0.000000e+000
3.454234885451324e-008	3.372039e+000	0.000000e+000
3.467443008241256e-008	3.501189e+000	0.000000e+000
3.479898358360600e-008	3.622489e+000	0.000000e+000
3.492324450286855e-008	3.743211e+000	0.000000e+000
3.508498197350718e-008	3.900209e+000	0.000000e+000
3.524498773041507e-008	4.055665e+000	0.000000e+000
3.539065997724966e-008	4.197554e+000	0.000000e+000
3.554019365956118e-008	4.343719e+000	0.000000e+000
3.566641427511785e-008	4.467554e+000	0.000000e+000
3.577008721687702e-008	4.569620e+000	0.000000e+000
3.587370621914443e-008	4.671925e+000	0.000000e+000
3.596348099703384e-008	4.760768e+000	0.000000e+000
3.605322204495998e-008	4.849751e+000	0.000000e+000
3.614283540509522e-008	4.938747e+000	0.000000e+000
3.624105677016432e-008	5.036419e+000	0.000000e+000
3.635267782457763e-008	5.147532e+000	0.000000e+000
3.651015812421166e-008	5.304407e+000	0.000000e+000
3.669699298602946e-008	5.490556e+000	0.000000e+000
3.694213409656533e-008	5.734685e+000	0.000000e+000
3.720810428514687e-008	5.999296e+000	0.000000e+000
3.746395616302523e-008	6.253528e+000	0.000000e+000
3.773842024816509e-008	6.525975e+000	0.000000e+000
3.799456758588060e-008	6.780108e+000	0.000000e+000
3.829716393316529e-008	7.080353e+000	0.000000e+000
3.860494249968705e-008	7.385940e+000	0.000000e+000
3.889455463777780e-008	7.673786e+000	0.000000e+000
3.922455415854287e-008	8.002140e+000	0.000000e+000
3.998978668692810e-008	8.764688e+000	0.000000e+000
4.040095037335933e-008	9.174782e+000	0.000000e+000
4.084240530846661e-008	9.615314e+000	0.000000e+000
4.136811630750525e-008	1.014024e+001	0.000000e+000
4.193027436372177e-008	1.070205e+001	0.000000e+000
4.262561598480930e-008	1.139771e+001	0.000000e+000
4.338373058715428e-008	1.215709e+001	0.000000e+000
4.423247510973449e-008	1.300838e+001	0.000000e+000
4.644726374521124e-008	1.523485e+001	0.000000e+000
4.976376228107982e-008	1.858164e+001	0.000000e+000
5.176376228176183e-008	2.060644e+001	0.000000e+000
5.576376228312585e-008	2.466852e+001	0.000000e+000
5.776376228380786e-008	2.670555e+001	0.000000e+000
5.976376228448987e-008	2.874691e+001	0.000000e+000
6.176376228517189e-008	3.079397e+001	0.000000e+000
6.376376228585390e-008	3.285006e+001	0.000000e+000
6.576376228653591e-008	3.492228e+001	0.000000e+000
6.776376228721792e-008	3.702536e+001	0.000000e+000
6.976376228789993e-008	3.918937e+001	0.000000e+000
7.176376228858195e-008	4.147580e+001	0.000000e+000
7.376376228926396e-008	4.395852e+001	0.000000e+000
7.496343011788309e-008	4.562115e+001	0.000000e+000
7.596176367086205e-008	4.718143e+001	0.000000e+000
7.691145436153346e-008	4.882975e+001	0.000000e+000
7.765070253289153e-008	5.023422e+001	0.000000e+000
7.840083289176181e-008	5.176762e+001	0.000000e+000
7.919450433283015e-008	5.348160e+001	0.000000e+000
8.012159289152998e-008	5.556817e+001	0.000000e+000
8.128071856197683e-008	5.825200e+001	0.000000e+000
8.277814048454624e-008	6.177957e+001	0.000000e+000
8.625603436195062e-008	7.007407e+001	0.000000e+000
8.807124491500007e-008	7.443621e+001	0.000000e+000
9.002031202930139e-008	7.914433e+001	0.000000e+000
9.202031202998340e-008	8.400647e+001	0.000000e+000
9.402031203066541e-008	8.890777e+001	0.000000e+000
9.602031203134742e-008	9.385811e+001	0.000000e+000
9.802031203202943e-008	9.886951e+001	0.000000e+000
1.000203120327114e-007	1.039568e+002	0.000000e+000
1.020203120333935e-007	1.091384e+002	0.000000e+000
1.040203120340755e-007	1.144370e+002	0.000000e+000
1.060203120347575e-007	1.198806e+002	0.000000e+000
1.080203120354395e-007	1.255041e+002	0.000000e+000
1.100203120361215e-007	1.313507e+002	0.000000e+000
1.120203120368035e-007	1.374734e+002	0.000000e+000
1.140203120374855e-007	1.439371e+002	0.000000e+000
1.160203120381675e-007	1.508192e+002	0.000000e+000
1.180203120388496e-007	1.582084e+002	0.000000e+000
1.200203120395316e-007	1.661991e+002	0.000000e+000
1.240203120408956e-007	1.843097e+002	0.000000e+000
1.260203120415776e-007	1.945020e+002	0.000000e+000
1.280203120422596e-007	2.054022e+002	0.000000e+000
1.300203120429416e-007	2.168970e+002	0.000000e+000
1.320203120436236e-007	2.288388e+002	0.000000e+000
1.356711726799992e-007	2.513066e+002	0.000000e+000
1.405854136039136e-007	2.819751e+002	0.000000e+000
1.452467515948575e-007	3.108005e+002	0.000000e+000
1.512666576598126e-007	3.474767e+002	0.000000e+000
1.572865637247678e-007	3.826217e+002	0.000000e+000
1.633064697897230e-007	4.162356e+002	0.000000e+000
1.693263758546781e-007	4.483184e+002	0.000000e+000
1.753462819196333e-007	4.788700e+002	0.000000e+000
1.813661879845885e-007	5.078906e+002	0.000000e+000
1.873860940495437e-007	5.353800e+002	0.000000e+000
1.939575226232131e-007	5.630912e+002	0.000000e+000
2.005289511968826e-007	5.881670e+002	0.000000e+000
2.071003797705521e-007	6.106073e+002	0.000000e+000
2.136718083442215e-007	6.304121e+002	0.000000e+000
2.202432369178910e-007	6.475815e+002	0.000000e+000
2.268146654915605e-007	6.621154e+002	0.000000e+000
2.333860940652299e-007	6.740138e+002	0.000000e+000
2.365289512091588e-007	6.786025e+002	0.000000e+000
2.396718083530877e-007	6.825214e+002	0.000000e+000
2.428146654970166e-007	6.857707e+002	0.000000e+000
2.459575226409454e-007	6.883501e+002	0.000000e+000
2.491003797848743e-007	6.902598e+002	0.000000e+000
2.522432369288032e-007	6.914998e+002	0.000000e+000
2.553860940727321e-007	6.920700e+002	0.000000e+000
2.568146655017907e-007	6.921033e+002	0.000000e+000
2.582432369308492e-007	6.919971e+002	0.000000e+000
2.596718083599078e-007	6.917516e+002	0.000000e+000
2.611003797889664e-007	6.913667e+002	0.000000e+000
2.625289512180250e-007	6.908424e+002	0.000000e+000
2.639575226470835e-007	6.901788e+002	0.000000e+000
2.653860940761421e-007	6.893757e+002	0.000000e+000
2.713860940781881e-007	6.844885e+002	0.000000e+000
2.762432369369873e-007	6.786921e+002	0.000000e+000
2.811003797957865e-007	6.713674e+002	0.000000e+000
2.859575226545856e-007	6.625146e+002	0.000000e+000
2.908146655133849e-007	6.521336e+002	0.000000e+000
2.956718083721840e-007	6.402244e+002	0.000000e+000
3.005289512309832e-007	6.267870e+002	0.000000e+000
3.053860940897824e-007	6.118214e+002	0.000000e+000
3.136718083783221e-007	5.824826e+002	0.000000e+000
3.219575226668619e-007	5.498185e+002	0.000000e+000
3.302432369554017e-007	5.138291e+002	0.000000e+000
3.385289512439414e-007	4.745143e+002	0.000000e+000
3.468146655324812e-007	4.318743e+002	0.000000e+000
3.551003798210209e-007	3.859090e+002	0.000000e+000
3.633860941095607e-007	3.366183e+002	0.000000e+000
3.656718083960544e-007	3.227124e+002	0.000000e+000
3.679575226825481e-007	3.087407e+002	0.000000e+000
3.702432369690419e-007	2.947032e+002	0.000000e+000
3.725289512555356e-007	2.805999e+002	0.000000e+000
3.748146655420293e-007	2.664307e+002	0.000000e+000
3.771003798285231e-007	2.521957e+002	0.000000e+000
3.793860941150168e-007	2.378949e+002	0.000000e+000
3.813860941156988e-007	2.257190e+002	0.000000e+000
3.833860941163808e-007	2.138772e+002	0.000000e+000
3.853860941170628e-007	2.025214e+002	0.000000e+000
3.873860941177448e-007	1.917935e+002	0.000000e+000
3.913860941191089e-007	1.725580e+002	0.000000e+000
3.933860941197909e-007	1.640612e+002	0.000000e+000
3.953860941204729e-007	1.562330e+002	0.000000e+000
3.973860941211549e-007	1.489821e+002	0.000000e+000
3.993860941218369e-007	1.422149e+002	0.000000e+000
4.013860941225189e-007	1.358451e+002	0.000000e+000
4.033860941232009e-007	1.297987e+002	0.000000e+000
4.053860941238829e-007	1.240138e+002	0.000000e+000
4.073860941245650e-007	1.184401e+002	0.000000e+000
4.093860941252470e-007	1.130367e+002	0.000000e+000
4.113860941259290e-007	1.077707e+002	0.000000e+000
4.133860941266110e-007	1.026154e+002	0.000000e+000
4.153860941272930e-007	9.754932e+001	0.000000e+000
4.173860941279750e-007	9.255511e+001	0.000000e+000
4.193860941286570e-007	8.761868e+001	0.000000e+000
4.213860941293390e-007	8.272862e+001	0.000000e+000
4.233860941300210e-007	7.787581e+001	0.000000e+000
4.253860941307031e-007	7.305313e+001	0.000000e+000
4.313860941327491e-007	5.877495e+001	0.000000e+000
4.333860941334311e-007	5.422735e+001	0.000000e+000
4.353860941341131e-007	4.999370e+001	0.000000e+000
4.364911773361430e-007	4.790610e+001	0.000000e+000
4.374533587783031e-007	4.631020e+001	0.000000e+000
4.393299404045065e-007	4.362236e+001	0.000000e+000
4.402872063810626e-007	4.241147e+001	0.000000e+000
4.424409264010970e-007	3.990232e+001	0.000000e+000
4.439845772228473e-007	3.821273e+001	0.000000e+000
4.459605449872589e-007	3.611068e+001	0.000000e+000
4.479605449879409e-007	3.402314e+001	0.000000e+000
4.499605449886229e-007	3.195895e+001	0.000000e+000
4.519605449893049e-007	2.990731e+001	0.000000e+000
4.559605449906690e-007	2.582362e+001	0.000000e+000
4.599605449920330e-007	2.175693e+001	0.000000e+000
4.639605449933970e-007	1.770707e+001	0.000000e+000
4.699605449954430e-007	1.167126e+001	0.000000e+000
4.716748307103133e-007	9.956872e+000	0.000000e+000
4.733891164251837e-007	8.247090e+000	0.000000e+000
4.751034021400540e-007	6.541917e+000	0.000000e+000
4.768176878549242e-007	4.841355e+000	0.000000e+000
4.785319735697945e-007	3.145404e+000	0.000000e+000
4.802462592846649e-007	1.454062e+000	0.000000e+000
4.819605449995351e-007	-2.326692e-001	0.000000e+000
4.827369999189923e-007	-9.872206e-001	0.000000e+000
4.832012750859149e-007	-1.400360e+000	0.000000e+000
4.834661690503173e-007	-1.571688e+000	0.000000e+000
4.836322222961237e-007	-1.621667e+000	0.000000e+000
4.837399216212762e-007	-1.626253e+000	0.000000e+000
4.838136167615442e-007	-1.621138e+000	0.000000e+000
4.838868440121963e-007	-1.613633e+000	0.000000e+000
4.839965410674552e-007	-1.602228e+000	0.000000e+000
4.841568529371371e-007	-1.587986e+000	0.000000e+000
4.842816336766975e-007	-1.580247e+000	0.000000e+000
4.844175092826031e-007	-1.575986e+000	0.000000e+000
4.845410823024754e-007	-1.575835e+000	0.000000e+000
4.847342678759165e-007	-1.580877e+000	0.000000e+000
4.849230240012298e-007	-1.589512e+000	0.000000e+000
4.850608096556436e-007	-1.597439e+000	0.000000e+000
4.851721868894682e-007	-1.604183e+000	0.000000e+000
4.852953863695997e-007	-1.611254e+000	0.000000e+000
4.854183938418633e-007	-1.617407e+000	0.000000e+000
4.855489206985475e-007	-1.622607e+000	0.000000e+000
4.856636202938552e-007	-1.625787e+000	0.000000e+000
4.857920967993312e-007	-1.627737e+000	0.000000e+000
4.859113895260697e-007	-1.628032e+000	0.000000e+000
4.860869694707504e-007	-1.626412e+000	0.000000e+000
4.862597085038972e-007	-1.623345e+000	0.000000e+000
4.863832220487752e-007	-1.620504e+000	0.000000e+000
4.864964256081489e-007	-1.617708e+000	0.000000e+000
4.866099592003986e-007	-1.615010e+000	0.000000e+000
4.867371328470121e-007	-1.612333e+000	0.000000e+000
4.868725174186211e-007	-1.610015e+000	0.000000e+000
4.869927035869304e-007	-1.608521e+000	0.000000e+000
4.871109534811818e-007	-1.607504e+000	0.000000e+000
4.872293058420796e-007	-1.606899e+000	0.000000e+000
4.873770827387020e-007	-1.607052e+000	0.000000e+000
4.875506240138022e-007	-1.608297e+000	0.000000e+000
4.876899053780220e-007	-1.609622e+000	0.000000e+000
4.878529109453994e-007	-1.611200e+000	0.000000e+000
4.879958193631379e-007	-1.612521e+000	0.000000e+000
4.881278332143774e-007	-1.613588e+000	0.000000e+000
4.882620132998228e-007	-1.614455e+000	0.000000e+000
4.883779374225544e-007	-1.614989e+000	0.000000e+000
4.884963138666182e-007	-1.615311e+000	0.000000e+000
4.886147252757683e-007	-1.615420e+000	0.000000e+000
4.887455890816711e-007	-1.615325e+000	0.000000e+000
4.888816113116090e-007	-1.615044e+000	0.000000e+000
4.890066063883980e-007	-1.614664e+000	0.000000e+000
4.891416671721355e-007	-1.614179e+000	0.000000e+000
4.892873812206017e-007	-1.613643e+000	0.000000e+000
4.894528823455591e-007	-1.613086e+000	0.000000e+000
4.895994580624008e-007	-1.612679e+000	0.000000e+000
4.897201548864638e-007	-1.612433e+000	0.000000e+000
4.898357471670028e-007	-1.612284e+000	0.000000e+000
4.899515182298780e-007	-1.612218e+000	0.000000e+000
4.900835994369607e-007	-1.612239e+000	0.000000e+000
4.902870646660007e-007	-1.612406e+000	0.000000e+000
4.905184697711479e-007	-1.612696e+000	0.000000e+000
4.907033733861366e-007	-1.612948e+000	0.000000e+000
4.908510515457681e-007	-1.613122e+000	0.000000e+000
4.909869359363134e-007	-1.613261e+000	0.000000e+000
4.911110112297557e-007	-1.613373e+000	0.000000e+000
4.912293191730588e-007	-1.613452e+000	0.000000e+000
4.913482051123463e-007	-1.613500e+000	0.000000e+000
4.914869374626069e-007	-1.613494e+000	0.000000e+000
4.916867623484117e-007	-1.613400e+000	0.000000e+000
4.918922462300579e-007	-1.613276e+000	0.000000e+000
4.920485066235714e-007	-1.613183e+000	0.000000e+000
4.921948727285713e-007	-1.613104e+000	0.000000e+000
4.923344598169871e-007	-1.613042e+000	0.000000e+000
4.924573746029753e-007	-1.613002e+000	0.000000e+000
4.925737754693516e-007	-1.612977e+000	0.000000e+000
4.926904408064647e-007	-1.612966e+000	0.000000e+000
4.928197418034575e-007	-1.612968e+000	0.000000e+000
4.930241092066662e-007	-1.612993e+000	0.000000e+000
4.932448979342446e-007	-1.613035e+000	0.000000e+000
4.933991740296156e-007	-1.613069e+000	0.000000e+000
4.935375626964611e-007	-1.613099e+000	0.000000e+000
4.936767996881891e-007	-1.613124e+000	0.000000e+000
4.938060720501014e-007	-1.613142e+000	0.000000e+000
4.939215769769051e-007	-1.613153e+000	0.000000e+000
4.940518317092524e-007	-1.613158e+000	0.000000e+000
4.941893357226362e-007	-1.613158e+000	0.000000e+000
4.943736224716916e-007	-1.613149e+000	0.000000e+000
4.946641225852394e-007	-1.613125e+000	0.000000e+000
4.948536325623948e-007	-1.613109e+000	0.000000e+000
4.949946603733518e-007	-1.613099e+000	0.000000e+000
4.951353986173274e-007	-1.613090e+000	0.000000e+000
4.952995448573305e-007	-1.613081e+000	0.000000e+000
4.954745716212461e-007	-1.613076e+000	0.000000e+000
4.956617122384849e-007	-1.613077e+000	0.000000e+000
4.958824681555035e-007	-1.613081e+000	0.000000e+000
4.960717956276062e-007	-1.613087e+000	0.000000e+000
4.962351064889681e-007	-1.613093e+000	0.000000e+000
4.964154734880821e-007	-1.613098e+000	0.000000e+000
4.966420838782570e-007	-1.613101e+000	0.000000e+000
4.968527013305552e-007	-1.613103e+000	0.000000e+000
4.971116661540986e-007	-1.613101e+000	0.000000e+000
4.974117425102231e-007	-1.613096e+000	0.000000e+000
4.976468903471892e-007	-1.613092e+000	0.000000e+000
4.978801841359903e-007	-1.613089e+000	0.000000e+000
4.981636249311305e-007	-1.613086e+000	0.000000e+000
4.984699438215223e-007	-1.613086e+000	0.000000e+000
4.988487101193623e-007	-1.613086e+000	0.000000e+000
4.992151921880128e-007	-1.613086e+000	0.000000e+000
4.995679954607202e-007	-1.613086e+000	0.000000e+000
4.999999999987653e-007	-1.613085e+000	0.000000e+000
