time	V(vds)	V(vpulse)
0.000000000000000e+000	9.576411e-002	5.000000e+000
1.000099999993662e-008	9.576414e-002	5.000000e+000
1.000129999997879e-008	9.104145e-002	3.500000e+000
1.000169999989045e-008	8.466472e-002	1.500000e+000
1.000199999993262e-008	8.032804e-002	0.000000e+000
1.000207999995832e-008	7.978715e-002	0.000000e+000
1.000363734758715e-008	7.921812e-002	0.000000e+000
1.000519469521598e-008	7.877429e-002	0.000000e+000
1.000675204284482e-008	7.845567e-002	0.000000e+000
1.000830939047365e-008	7.826225e-002	0.000000e+000
1.000986673810248e-008	7.819404e-002	0.000000e+000
1.001142408573131e-008	7.825104e-002	0.000000e+000
1.001298143336014e-008	7.843324e-002	0.000000e+000
1.003812298390794e-008	7.994559e-002	0.000000e+000
1.006326453445574e-008	8.158661e-002	0.000000e+000
1.008840608500353e-008	8.335631e-002	0.000000e+000
1.011354763555133e-008	8.525469e-002	0.000000e+000
1.013868918609913e-008	8.728174e-002	0.000000e+000
1.016383073664692e-008	8.943747e-002	0.000000e+000
1.018897228719472e-008	9.172187e-002	0.000000e+000
1.023897228721177e-008	9.734368e-002	0.000000e+000
1.028897228722882e-008	1.049386e-001	0.000000e+000
1.033897228724587e-008	1.161956e-001	0.000000e+000
1.038897228726292e-008	1.343735e-001	0.000000e+000
1.043299748242771e-008	1.618327e-001	0.000000e+000
1.047032849939462e-008	2.035638e-001	0.000000e+000
1.051164129285860e-008	2.794895e-001	0.000000e+000
1.055162512507597e-008	3.838127e-001	0.000000e+000
1.060162512509302e-008	5.421165e-001	0.000000e+000
1.065162512511007e-008	7.131232e-001	0.000000e+000
1.070162512512712e-008	8.889292e-001	0.000000e+000
1.075162512514417e-008	1.066479e+000	0.000000e+000
1.080162512516122e-008	1.245037e+000	0.000000e+000
1.085162512517827e-008	1.424378e+000	0.000000e+000
1.090162512519532e-008	1.604393e+000	0.000000e+000
1.095162512521238e-008	1.785009e+000	0.000000e+000
1.100162512522943e-008	1.966167e+000	0.000000e+000
1.105162512524648e-008	2.147822e+000	0.000000e+000
1.110162512526353e-008	2.329938e+000	0.000000e+000
1.115162512528058e-008	2.512482e+000	0.000000e+000
1.120162512529763e-008	2.695431e+000	0.000000e+000
1.125162512531468e-008	2.878763e+000	0.000000e+000
1.130162512533173e-008	3.062458e+000	0.000000e+000
1.135162512534878e-008	3.246499e+000	0.000000e+000
1.140162512536583e-008	3.430866e+000	0.000000e+000
1.145162512538288e-008	3.615541e+000	0.000000e+000
1.150162512539993e-008	3.800504e+000	0.000000e+000
1.155162512541698e-008	3.985734e+000	0.000000e+000
1.160162512543403e-008	4.171210e+000	0.000000e+000
1.165162512545108e-008	4.356912e+000	0.000000e+000
1.170162512546813e-008	4.542820e+000	0.000000e+000
1.175162512548518e-008	4.728915e+000	0.000000e+000
1.180162512550223e-008	4.915180e+000	0.000000e+000
1.185162512551928e-008	5.101599e+000	0.000000e+000
1.190162512553633e-008	5.288158e+000	0.000000e+000
1.200162512557043e-008	5.661648e+000	0.000000e+000
1.210162512560453e-008	6.035569e+000	0.000000e+000
1.220162512563863e-008	6.409874e+000	0.000000e+000
1.235162512568978e-008	6.971961e+000	0.000000e+000
1.247305369715976e-008	7.427471e+000	0.000000e+000
1.259448226862974e-008	7.883339e+000	0.000000e+000
1.271591084009972e-008	8.339564e+000	0.000000e+000
1.283733941156970e-008	8.796146e+000	0.000000e+000
1.295876798303968e-008	9.253086e+000	0.000000e+000
1.308019655450966e-008	9.710383e+000	0.000000e+000
1.320162512597964e-008	1.016804e+001	0.000000e+000
1.400876798339774e-008	1.322117e+001	0.000000e+000
1.481591084081583e-008	1.628522e+001	0.000000e+000
1.562305369823393e-008	1.936019e+001	0.000000e+000
1.643019655565203e-008	2.244609e+001	0.000000e+000
1.723733941307013e-008	2.554291e+001	0.000000e+000
1.804448227048823e-008	2.865066e+001	0.000000e+000
1.885162512790632e-008	3.176933e+001	0.000000e+000
1.916591084229921e-008	3.297640e+001	0.000000e+000
1.948019655669210e-008	3.419927e+001	0.000000e+000
1.979448227108498e-008	3.543795e+001	0.000000e+000
2.010876798547787e-008	3.669242e+001	0.000000e+000
2.042305369987076e-008	3.796270e+001	0.000000e+000
2.073733941426365e-008	3.924877e+001	0.000000e+000
2.105162512865653e-008	4.055064e+001	0.000000e+000
2.118733941441710e-008	4.112824e+001	0.000000e+000
2.132305370017767e-008	4.172579e+001	0.000000e+000
2.145876798593823e-008	4.234331e+001	0.000000e+000
2.159448227169879e-008	4.298078e+001	0.000000e+000
2.173019655745936e-008	4.363822e+001	0.000000e+000
2.186591084321993e-008	4.431562e+001	0.000000e+000
2.200162512898049e-008	4.501298e+001	0.000000e+000
2.209448227186930e-008	4.551328e+001	0.000000e+000
2.218733941475810e-008	4.603517e+001	0.000000e+000
2.228019655764691e-008	4.657865e+001	0.000000e+000
2.237305370053572e-008	4.714373e+001	0.000000e+000
2.246591084342453e-008	4.773040e+001	0.000000e+000
2.255876798631334e-008	4.833866e+001	0.000000e+000
2.265162512920214e-008	4.896851e+001	0.000000e+000
2.273733941494566e-008	4.957671e+001	0.000000e+000
2.282305370068918e-008	5.020135e+001	0.000000e+000
2.290876798643269e-008	5.084245e+001	0.000000e+000
2.299448227217620e-008	5.149998e+001	0.000000e+000
2.308019655791972e-008	5.217397e+001	0.000000e+000
2.316591084366323e-008	5.286440e+001	0.000000e+000
2.325162512940675e-008	5.357128e+001	0.000000e+000
2.342305370089378e-008	5.502234e+001	0.000000e+000
2.359448227238081e-008	5.648669e+001	0.000000e+000
2.376591084386784e-008	5.796434e+001	0.000000e+000
2.393733941535487e-008	5.945529e+001	0.000000e+000
2.410876798684190e-008	6.095953e+001	0.000000e+000
2.428019655832893e-008	6.247706e+001	0.000000e+000
2.445162512981595e-008	6.400790e+001	0.000000e+000
2.534448227297757e-008	7.184600e+001	0.000000e+000
2.623733941613918e-008	7.985653e+001	0.000000e+000
2.713019655930079e-008	8.803948e+001	0.000000e+000
2.802305370246241e-008	9.639486e+001	0.000000e+000
2.891591084562402e-008	1.049227e+002	0.000000e+000
2.980876798878563e-008	1.136229e+002	0.000000e+000
3.070162513194724e-008	1.224955e+002	0.000000e+000
3.133019656073302e-008	1.288769e+002	0.000000e+000
3.195876798951880e-008	1.358673e+002	0.000000e+000
3.258733941830457e-008	1.434667e+002	0.000000e+000
3.321591084709034e-008	1.516751e+002	0.000000e+000
3.384448227587612e-008	1.604926e+002	0.000000e+000
3.447305370466189e-008	1.699190e+002	0.000000e+000
3.510162513344767e-008	1.799545e+002	0.000000e+000
3.541591084784056e-008	1.855397e+002	0.000000e+000
3.573019656223344e-008	1.913212e+002	0.000000e+000
3.604448227662633e-008	1.972991e+002	0.000000e+000
3.635876799101922e-008	2.034734e+002	0.000000e+000
3.667305370541210e-008	2.098440e+002	0.000000e+000
3.698733941980499e-008	2.164110e+002	0.000000e+000
3.730162513419788e-008	2.231744e+002	0.000000e+000
3.756591084857372e-008	2.288687e+002	0.000000e+000
3.783019656294956e-008	2.346301e+002	0.000000e+000
3.809448227732540e-008	2.404585e+002	0.000000e+000
3.835876799170123e-008	2.463540e+002	0.000000e+000
3.862305370607706e-008	2.523165e+002	0.000000e+000
3.888733942045290e-008	2.583461e+002	0.000000e+000
3.915162513482874e-008	2.644427e+002	0.000000e+000
3.937305370633282e-008	2.695230e+002	0.000000e+000
3.959448227783690e-008	2.745749e+002	0.000000e+000
3.981591084934098e-008	2.795984e+002	0.000000e+000
4.003733942084506e-008	2.845933e+002	0.000000e+000
4.025876799234914e-008	2.895598e+002	0.000000e+000
4.048019656385322e-008	2.944979e+002	0.000000e+000
4.070162513535730e-008	2.994075e+002	0.000000e+000
4.205162513581766e-008	3.289801e+002	0.000000e+000
4.340162513627802e-008	3.575330e+002	0.000000e+000
4.475162513673837e-008	3.850661e+002	0.000000e+000
4.610162513719873e-008	4.115793e+002	0.000000e+000
4.745162513765909e-008	4.370727e+002	0.000000e+000
4.880162513811945e-008	4.615464e+002	0.000000e+000
5.015162513857981e-008	4.850002e+002	0.000000e+000
5.020162513859686e-008	4.858398e+002	0.000000e+000
5.085162513881851e-008	4.966148e+002	0.000000e+000
5.150162513904016e-008	5.070821e+002	0.000000e+000
5.215162513926182e-008	5.172417e+002	0.000000e+000
5.280162513948347e-008	5.270935e+002	0.000000e+000
5.345162513970513e-008	5.366377e+002	0.000000e+000
5.410162513992678e-008	5.458741e+002	0.000000e+000
5.475162514014843e-008	5.548029e+002	0.000000e+000
5.614448228348055e-008	5.728915e+002	0.000000e+000
5.753733942681266e-008	5.893313e+002	0.000000e+000
5.893019657014478e-008	6.041224e+002	0.000000e+000
6.032305371347689e-008	6.172648e+002	0.000000e+000
6.171591085680902e-008	6.287584e+002	0.000000e+000
6.310876800014113e-008	6.386033e+002	0.000000e+000
6.450162514347324e-008	6.467994e+002	0.000000e+000
6.529448228660075e-008	6.506414e+002	0.000000e+000
6.608733942972827e-008	6.539071e+002	0.000000e+000
6.688019657285578e-008	6.565964e+002	0.000000e+000
6.767305371598329e-008	6.587093e+002	0.000000e+000
6.846591085911081e-008	6.602458e+002	0.000000e+000
6.925876800223832e-008	6.612060e+002	0.000000e+000
7.005162514536582e-008	6.615897e+002	0.000000e+000
7.027305371686990e-008	6.615921e+002	0.000000e+000
7.049448228837398e-008	6.615492e+002	0.000000e+000
7.071591085987806e-008	6.614611e+002	0.000000e+000
7.093733943138215e-008	6.613277e+002	0.000000e+000
7.115876800288623e-008	6.611490e+002	0.000000e+000
7.138019657439030e-008	6.609251e+002	0.000000e+000
7.160162514589438e-008	6.606560e+002	0.000000e+000
7.280876800344889e-008	6.583659e+002	0.000000e+000
7.401591086100339e-008	6.547635e+002	0.000000e+000
7.522305371855788e-008	6.498489e+002	0.000000e+000
7.643019657611238e-008	6.436220e+002	0.000000e+000
7.763733943366689e-008	6.360828e+002	0.000000e+000
7.884448229122138e-008	6.272314e+002	0.000000e+000
8.005162514877588e-008	6.170677e+002	0.000000e+000
8.098733943480926e-008	6.083197e+002	0.000000e+000
8.192305372084262e-008	5.988601e+002	0.000000e+000
8.285876800687600e-008	5.886889e+002	0.000000e+000
8.379448229290936e-008	5.778060e+002	0.000000e+000
8.473019657894273e-008	5.662116e+002	0.000000e+000
8.566591086497611e-008	5.539054e+002	0.000000e+000
8.660162515100947e-008	5.408877e+002	0.000000e+000
8.870876800887088e-008	5.087162e+002	0.000000e+000
9.081591086673229e-008	4.739385e+002	0.000000e+000
9.292305372459368e-008	4.365547e+002	0.000000e+000
9.503019658245509e-008	3.965648e+002	0.000000e+000
9.713733944031650e-008	3.539688e+002	0.000000e+000
9.924448229817791e-008	3.087666e+002	0.000000e+000
1.013516251560393e-007	2.609584e+002	0.000000e+000
1.014016251560564e-007	2.598019e+002	0.000000e+000
1.016873394418681e-007	2.532609e+002	0.000000e+000
1.019730537276798e-007	2.467976e+002	0.000000e+000
1.022587680134915e-007	2.404121e+002	0.000000e+000
1.025444822993032e-007	2.341045e+002	0.000000e+000
1.028301965851149e-007	2.278747e+002	0.000000e+000
1.031159108709267e-007	2.217226e+002	0.000000e+000
1.034016251567384e-007	2.156484e+002	0.000000e+000
1.037444822997124e-007	2.084505e+002	0.000000e+000
1.040873394426865e-007	2.015147e+002	0.000000e+000
1.044301965856606e-007	1.948409e+002	0.000000e+000
1.047730537286346e-007	1.884293e+002	0.000000e+000
1.051159108716087e-007	1.822798e+002	0.000000e+000
1.054587680145827e-007	1.763924e+002	0.000000e+000
1.058016251575568e-007	1.707672e+002	0.000000e+000
1.064230537291973e-007	1.616172e+002	0.000000e+000
1.070444823008377e-007	1.529697e+002	0.000000e+000
1.076659108724782e-007	1.448248e+002	0.000000e+000
1.082873394441187e-007	1.371825e+002	0.000000e+000
1.089087680157592e-007	1.300426e+002	0.000000e+000
1.095301965873997e-007	1.234054e+002	0.000000e+000
1.101516251590402e-007	1.172706e+002	0.000000e+000
1.107301965878089e-007	1.115658e+002	0.000000e+000
1.113087680165776e-007	1.059458e+002	0.000000e+000
1.118873394453463e-007	1.004107e+002	0.000000e+000
1.124659108741151e-007	9.496032e+001	0.000000e+000
1.130444823028838e-007	8.959481e+001	0.000000e+000
1.136230537316525e-007	8.431413e+001	0.000000e+000
1.142016251604212e-007	7.911827e+001	0.000000e+000
1.145516251605406e-007	7.596180e+001	0.000000e+000
1.149016251606599e-007	7.281833e+001	0.000000e+000
1.152516251607793e-007	6.968783e+001	0.000000e+000
1.156016251608986e-007	6.657033e+001	0.000000e+000
1.159516251610180e-007	6.346581e+001	0.000000e+000
1.163016251611374e-007	6.037428e+001	0.000000e+000
1.166516251612567e-007	5.729573e+001	0.000000e+000
1.168159108755984e-007	5.584932e+001	0.000000e+000
1.169801965899402e-007	5.445048e+001	0.000000e+000
1.171444823042819e-007	5.309921e+001	0.000000e+000
1.173087680186237e-007	5.179550e+001	0.000000e+000
1.174730537329654e-007	5.053936e+001	0.000000e+000
1.176373394473071e-007	4.933078e+001	0.000000e+000
1.178016251616489e-007	4.816977e+001	0.000000e+000
1.179087680188283e-007	4.747478e+001	0.000000e+000
1.180159108760076e-007	4.680573e+001	0.000000e+000
1.181230537331870e-007	4.616262e+001	0.000000e+000
1.182301965903664e-007	4.554546e+001	0.000000e+000
1.183373394475458e-007	4.495424e+001	0.000000e+000
1.184444823047252e-007	4.438896e+001	0.000000e+000
1.185516251619046e-007	4.384962e+001	0.000000e+000
1.187016251619558e-007	4.312476e+001	0.000000e+000
1.188516251620069e-007	4.241780e+001	0.000000e+000
1.190016251620581e-007	4.172871e+001	0.000000e+000
1.191516251621092e-007	4.105751e+001	0.000000e+000
1.193016251621604e-007	4.040419e+001	0.000000e+000
1.194516251622115e-007	3.976875e+001	0.000000e+000
1.196016251622627e-007	3.915120e+001	0.000000e+000
1.199301965909461e-007	3.782167e+001	0.000000e+000
1.202587680196296e-007	3.650349e+001	0.000000e+000
1.205873394483131e-007	3.519663e+001	0.000000e+000
1.209159108769966e-007	3.390111e+001	0.000000e+000
1.212444823056800e-007	3.261693e+001	0.000000e+000
1.215730537343635e-007	3.134407e+001	0.000000e+000
1.219016251630470e-007	3.008256e+001	0.000000e+000
1.226873394490292e-007	2.705168e+001	0.000000e+000
1.234730537350114e-007	2.403109e+001	0.000000e+000
1.242587680209936e-007	2.102078e+001	0.000000e+000
1.250444823069759e-007	1.802076e+001	0.000000e+000
1.258301965929581e-007	1.503103e+001	0.000000e+000
1.266159108789403e-007	1.205159e+001	0.000000e+000
1.274016251649225e-007	9.082430e+000	0.000000e+000
1.278016251650589e-007	7.577843e+000	0.000000e+000
1.282016251651953e-007	6.076856e+000	0.000000e+000
1.286016251653317e-007	4.579472e+000	0.000000e+000
1.290016251654681e-007	3.085688e+000	0.000000e+000
1.294016251656045e-007	1.595505e+000	0.000000e+000
1.298016251657409e-007	1.089235e-001	0.000000e+000
1.302016251658773e-007	-1.374057e+000	0.000000e+000
1.302516251658944e-007	-1.556056e+000	0.000000e+000
1.303016251659114e-007	-1.725456e+000	0.000000e+000
1.303516251659285e-007	-1.860351e+000	0.000000e+000
1.304016251659455e-007	-1.939445e+000	0.000000e+000
1.304516251659626e-007	-1.963951e+000	0.000000e+000
1.305016251659796e-007	-1.956001e+000	0.000000e+000
1.305501656583517e-007	-1.937813e+000	0.000000e+000
1.306001656583688e-007	-1.919095e+000	0.000000e+000
1.306501656583858e-007	-1.903695e+000	0.000000e+000
1.307001656584029e-007	-1.891898e+000	0.000000e+000
1.307501656584199e-007	-1.883111e+000	0.000000e+000
1.308001656584370e-007	-1.876634e+000	0.000000e+000
1.308501656584540e-007	-1.871875e+000	0.000000e+000
1.309001656584711e-007	-1.868377e+000	0.000000e+000
1.309501656584881e-007	-1.865772e+000	0.000000e+000
1.309899861068591e-007	-1.864202e+000	0.000000e+000
1.310298412217272e-007	-1.862992e+000	0.000000e+000
1.310701217012000e-007	-1.862042e+000	0.000000e+000
1.311201217012170e-007	-1.861140e+000	0.000000e+000
1.311701217012341e-007	-1.860459e+000	0.000000e+000
1.312201217012511e-007	-1.859954e+000	0.000000e+000
1.312701217012682e-007	-1.859580e+000	0.000000e+000
1.313201217012852e-007	-1.859303e+000	0.000000e+000
1.313701217013023e-007	-1.859096e+000	0.000000e+000
1.314201217013193e-007	-1.858943e+000	0.000000e+000
1.314701217013364e-007	-1.858829e+000	0.000000e+000
1.315201217013534e-007	-1.858744e+000	0.000000e+000
1.315701217013705e-007	-1.858681e+000	0.000000e+000
1.316201217013875e-007	-1.858633e+000	0.000000e+000
1.316701217014046e-007	-1.858598e+000	0.000000e+000
1.317201217014216e-007	-1.858571e+000	0.000000e+000
1.317701217014387e-007	-1.858551e+000	0.000000e+000
1.318201217014557e-007	-1.858536e+000	0.000000e+000
1.318701217014728e-007	-1.858524e+000	0.000000e+000
1.319201217014898e-007	-1.858515e+000	0.000000e+000
1.319701217015069e-007	-1.858508e+000	0.000000e+000
1.320201217015239e-007	-1.858503e+000	0.000000e+000
1.320701217015410e-007	-1.858499e+000	0.000000e+000
1.321201217015580e-007	-1.858495e+000	0.000000e+000
1.321701217015751e-007	-1.858492e+000	0.000000e+000
1.322201217015921e-007	-1.858489e+000	0.000000e+000
1.322701217016092e-007	-1.858487e+000	0.000000e+000
1.323201217016262e-007	-1.858485e+000	0.000000e+000
1.323701217016433e-007	-1.858483e+000	0.000000e+000
1.324201217016603e-007	-1.858482e+000	0.000000e+000
1.324701217016774e-007	-1.858480e+000	0.000000e+000
1.325201217016944e-007	-1.858479e+000	0.000000e+000
1.325701217017115e-007	-1.858477e+000	0.000000e+000
1.326201217017285e-007	-1.858476e+000	0.000000e+000
1.326701217017456e-007	-1.858474e+000	0.000000e+000
1.327201217017626e-007	-1.858473e+000	0.000000e+000
1.327701217017797e-007	-1.858472e+000	0.000000e+000
1.328201217017967e-007	-1.858470e+000	0.000000e+000
1.328701217018138e-007	-1.858469e+000	0.000000e+000
1.329701217018479e-007	-1.858467e+000	0.000000e+000
1.331201217018990e-007	-1.858463e+000	0.000000e+000
1.332558359876596e-007	-1.858459e+000	0.000000e+000
1.333915502734202e-007	-1.858456e+000	0.000000e+000
1.335272645591807e-007	-1.858452e+000	0.000000e+000
1.336629788449413e-007	-1.858449e+000	0.000000e+000
1.337986931307018e-007	-1.858445e+000	0.000000e+000
1.339344074164624e-007	-1.858442e+000	0.000000e+000
1.340701217022230e-007	-1.858439e+000	0.000000e+000
1.499701217076450e-007	-1.858034e+000	0.000000e+000
1.499999999999765e-007	-1.858033e+000	0.000000e+000
