time	V(N003,N006)	V(N018,N020)	I(D12)
0.000000000000000e+000	1.328810e+002	1.322144e+002	3.439477e-002
8.622300074444256e-010	1.329375e+002	1.322709e+002	3.439743e-002
2.586690022333277e-009	1.330504e+002	1.323838e+002	3.440505e-002
6.035610052110979e-009	1.332750e+002	1.326084e+002	3.442499e-002
1.293345011166638e-008	1.337205e+002	1.330539e+002	3.447569e-002
2.293345011160700e-008	1.343588e+002	1.336921e+002	3.456973e-002
3.293345011154761e-008	1.349878e+002	1.343209e+002	3.469005e-002
4.293345011148822e-008	1.356066e+002	1.349395e+002	3.483925e-002
5.293345011142883e-008	1.362150e+002	1.355475e+002	3.501747e-002
6.293345011136944e-008	1.368129e+002	1.361451e+002	3.522519e-002
7.293345011131006e-008	1.374001e+002	1.367318e+002	3.546290e-002
8.293345011125067e-008	1.379765e+002	1.373077e+002	3.573097e-002
9.293345011119128e-008	1.385420e+002	1.378726e+002	3.602943e-002
1.029334501111319e-007	1.390964e+002	1.384264e+002	3.635863e-002
1.129334501110725e-007	1.396395e+002	1.389688e+002	3.671903e-002
1.329334501109537e-007	1.406916e+002	1.400192e+002	3.753484e-002
1.429334501108943e-007	1.412002e+002	1.405269e+002	3.799105e-002
1.629334501107756e-007	1.421820e+002	1.415066e+002	3.900097e-002
1.743620215392791e-007	1.427220e+002	1.420452e+002	3.963651e-002
1.857905929677827e-007	1.432455e+002	1.425672e+002	4.031685e-002
1.972191643962862e-007	1.437526e+002	1.430727e+002	4.104199e-002
2.086477358247898e-007	1.442432e+002	1.435617e+002	4.181194e-002
2.200763072532934e-007	1.447173e+002	1.440342e+002	4.262669e-002
2.315048786817969e-007	1.451751e+002	1.444900e+002	4.348624e-002
2.429334501103005e-007	1.456163e+002	1.449294e+002	4.439060e-002
2.529334501102411e-007	1.459880e+002	1.452993e+002	4.522061e-002
2.629334501101817e-007	1.463464e+002	1.456558e+002	4.608626e-002
2.729334501101223e-007	1.466914e+002	1.459989e+002	4.698742e-002
2.929334501100035e-007	1.473407e+002	1.466443e+002	4.889640e-002
3.229334501098254e-007	1.482112e+002	1.475082e+002	5.203132e-002
3.429334501097066e-007	1.487210e+002	1.480133e+002	5.430174e-002
3.629334501095878e-007	1.491732e+002	1.484604e+002	5.671862e-002
3.829334501094690e-007	1.495665e+002	1.488484e+002	5.928178e-002
3.915048786808467e-007	1.497172e+002	1.489967e+002	6.042280e-002
4.000763072522244e-007	1.498564e+002	1.491334e+002	6.159365e-002
4.086477358236020e-007	1.499841e+002	1.492586e+002	6.279433e-002
4.172191643949797e-007	1.501005e+002	1.493723e+002	6.402483e-002
4.257905929663574e-007	1.502054e+002	1.494745e+002	6.528516e-002
4.343620215377351e-007	1.502989e+002	1.495651e+002	6.657532e-002
4.429334501091127e-007	1.503809e+002	1.496442e+002	6.789531e-002
4.629334501089939e-007	1.505239e+002	1.497789e+002	7.115378e-002
4.729334501089345e-007	1.505689e+002	1.498186e+002	7.292326e-002
4.829334501088752e-007	1.505940e+002	1.498359e+002	7.491327e-002
4.929334501088158e-007	1.505972e+002	1.498225e+002	7.744828e-002
4.995953331728923e-007	1.505818e+002	1.303568e+002	7.918502e-002
5.039738785398828e-007	1.505606e+002	8.534975e+001	7.969217e-002
5.039740036071570e-007	1.505606e+002	8.534881e+001	7.969142e-002
5.039742537417055e-007	1.505606e+002	8.534879e+001	7.969124e-002
5.039747540110193e-007	1.505606e+002	8.534877e+001	7.969391e-002
5.039748790782936e-007	1.505606e+002	8.534878e+001	7.969386e-002
5.049748790782009e-007	1.505509e+002	8.533167e+001	7.868083e-002
5.059748790781082e-007	1.505392e+002	8.531613e+001	7.739977e-002
5.069748790780156e-007	1.505173e+002	8.529514e+001	7.527164e-002
5.089748790780471e-007	1.504473e+002	8.523381e+001	6.915676e-002
5.089905464881247e-007	1.504458e+002	8.523243e+001	6.908791e-002
5.090218813082800e-007	1.504402e+002	8.522723e+001	6.891413e-002
5.090845509483737e-007	1.501357e+002	8.492326e+001	6.857317e-002
5.092098902287779e-007	1.467455e+002	8.153377e+001	6.805816e-002
5.093247094378230e-007	1.371550e+002	7.194306e+001	6.790944e-002
5.094580763551591e-007	1.182007e+002	5.298811e+001	6.803192e-002
5.094611811005696e-007	1.176450e+002	5.243237e+001	6.803802e-002
5.094673905916072e-007	1.164187e+002	5.120606e+001	6.805042e-002
5.094798095736826e-007	1.139213e+002	4.870854e+001	6.807315e-002
5.095046475376164e-007	1.087892e+002	4.357634e+001	6.813181e-002
5.095543234657010e-007	9.825689e+001	3.304378e+001	6.826222e-002
5.095984900737888e-007	8.995933e+001	2.474666e+001	6.846541e-002
5.096297343374755e-007	8.615319e+001	2.094175e+001	6.873055e-002
5.096301744543855e-007	8.613707e+001	2.092549e+001	6.871384e-002
5.096302844835587e-007	8.613774e+001	2.092612e+001	6.870666e-002
5.096305045421221e-007	8.613819e+001	2.092654e+001	6.869998e-002
5.096309446590321e-007	8.613834e+001	2.092669e+001	6.869642e-002
5.096318248928519e-007	8.613827e+001	2.092661e+001	6.869637e-002
5.096335853607085e-007	8.613811e+001	2.092646e+001	6.869484e-002
5.096371062962048e-007	8.613784e+001	2.092622e+001	6.869153e-002
5.096441481674142e-007	8.613739e+001	2.092581e+001	6.868239e-002
5.096582319096162e-007	8.613654e+001	2.092505e+001	6.865123e-002
5.096863993940201e-007	8.613493e+001	2.092361e+001	6.857786e-002
5.097427343630449e-007	8.613198e+001	2.092104e+001	6.843088e-002
5.098554043008775e-007	8.612689e+001	2.091673e+001	6.814880e-002
5.100807441765429e-007	8.611866e+001	2.091010e+001	6.761876e-002
5.105314239278735e-007	8.610617e+001	2.090086e+001	6.666281e-002
5.114327834307517e-007	8.608753e+001	2.088934e+001	6.506581e-002
5.132355024362913e-007	8.605543e+001	2.087514e+001	6.252789e-002
5.147586719636468e-007	8.602660e+001	2.086672e+001	6.077187e-002
5.149263997453971e-007	8.602264e+001	2.086598e+001	6.060360e-002
5.149683316909431e-007	8.602146e+001	2.086581e+001	6.056421e-002
5.150521955818183e-007	8.601890e+001	2.086549e+001	6.048768e-002
5.152199233635687e-007	8.601284e+001	2.086483e+001	6.033722e-002
5.155553789270694e-007	8.599576e+001	2.086356e+001	6.004030e-002
5.158471841971209e-007	8.597409e+001	2.086250e+001	5.978804e-002
5.158817421892226e-007	8.596963e+001	2.086238e+001	5.975860e-002
5.159508581734258e-007	8.595699e+001	2.086214e+001	5.970163e-002
5.159681371695851e-007	8.595272e+001	2.086208e+001	5.968812e-002
5.160026951616867e-007	8.592132e+001	2.086196e+001	5.965904e-002
5.160718111458899e-007	8.574730e+001	2.086176e+001	5.959255e-002
5.160890901420492e-007	8.560490e+001	2.086175e+001	5.957267e-002
5.161236481341508e-007	8.509341e+001	2.086174e+001	5.952546e-002
5.161322876321220e-007	8.491139e+001	2.086174e+001	5.951339e-002
5.161495666282812e-007	8.442122e+001	2.086173e+001	5.949298e-002
5.161841246203829e-007	8.329726e+001	2.086172e+001	5.945677e-002
5.161873644322305e-007	8.317282e+001	2.086172e+001	5.945364e-002
5.161880393929688e-007	8.314623e+001	2.086171e+001	5.945397e-002
5.161883093773075e-007	8.313505e+001	2.086172e+001	5.945294e-002
5.162039343872740e-007	8.237134e+001	2.086170e+001	5.945643e-002
5.172039343871813e-007	3.995004e+001	2.086001e+001	6.004713e-002
5.182039343870886e-007	2.171434e+001	2.085787e+001	6.048648e-002
5.182195593870804e-007	2.166625e+001	2.085782e+001	6.049515e-002
5.182234656371867e-007	2.166606e+001	2.085781e+001	6.049695e-002
5.192234656370941e-007	2.165226e+001	2.085595e+001	6.066295e-002
5.202234656370014e-007	2.164149e+001	2.085414e+001	6.081356e-002
5.212234656369087e-007	2.163373e+001	2.085241e+001	6.094022e-002
5.232234656369402e-007	2.162237e+001	2.084914e+001	6.112333e-002
5.272234656370032e-007	2.160606e+001	2.084308e+001	6.125979e-002
5.352234656369123e-007	2.158230e+001	2.083185e+001	6.093340e-002
5.452234656368529e-007	2.155836e+001	2.081837e+001	5.977055e-002
5.552234656367935e-007	2.153668e+001	2.080468e+001	5.796926e-002
5.652234656367342e-007	2.151505e+001	2.079006e+001	5.572235e-002
5.752234656366748e-007	2.149238e+001	2.077399e+001	5.319047e-002
5.852234656366154e-007	2.146806e+001	2.075610e+001	5.047683e-002
5.952234656365560e-007	2.144171e+001	2.073612e+001	4.764902e-002
6.052234656364966e-007	2.141305e+001	2.071383e+001	4.475233e-002
6.152234656364372e-007	2.138187e+001	2.068905e+001	4.181841e-002
6.352234656363184e-007	2.131123e+001	2.063134e+001	3.592502e-002
6.452234656362590e-007	2.127148e+001	2.059816e+001	3.299716e-002
6.552234656361997e-007	2.122861e+001	2.056192e+001	3.009935e-002
6.652234656361403e-007	2.118249e+001	2.052250e+001	2.724296e-002
6.852234656360215e-007	2.108007e+001	2.043377e+001	2.169938e-002
6.952234656359621e-007	2.102355e+001	2.038423e+001	1.903557e-002
7.052234656359027e-007	2.096335e+001	2.033113e+001	1.646079e-002
7.152234656358433e-007	2.089938e+001	2.027437e+001	1.398960e-002
7.252234656357839e-007	2.083152e+001	2.021387e+001	1.163821e-002
7.352234656357246e-007	2.075969e+001	2.014955e+001	9.424988e-003
7.452234656356652e-007	2.068377e+001	2.008132e+001	7.370554e-003
7.552234656356058e-007	2.060368e+001	2.000912e+001	5.497567e-003
7.652234656355464e-007	2.051931e+001	1.993287e+001	3.830437e-003
7.752234656354870e-007	2.043056e+001	1.985249e+001	2.393866e-003
7.852234656354276e-007	2.033734e+001	1.976793e+001	1.209826e-003
7.952234656353682e-007	2.023952e+001	1.967913e+001	2.926500e-004
8.052234656353088e-007	2.013703e+001	1.958601e+001	-3.573838e-004
8.152234656352494e-007	2.002976e+001	1.948853e+001	-7.602600e-004
8.252234656351901e-007	1.991761e+001	1.938662e+001	-9.584019e-004
8.352234656351307e-007	1.980049e+001	1.928019e+001	-1.010094e-003
8.452234656350713e-007	1.967833e+001	1.916920e+001	-9.748054e-004
8.552234656350119e-007	1.955105e+001	1.905357e+001	-8.991591e-004
8.652234656349525e-007	1.941858e+001	1.893320e+001	-8.121341e-004
8.752234656348931e-007	1.928083e+001	1.880804e+001	-7.286888e-004
8.852234656348337e-007	1.913776e+001	1.867801e+001	-6.555513e-004
8.952234656347743e-007	1.898928e+001	1.854301e+001	-5.950143e-004
9.052234656347150e-007	1.883534e+001	1.840299e+001	-5.468787e-004
9.152234656346556e-007	1.867588e+001	1.825786e+001	-5.097338e-004
9.252234656345962e-007	1.851081e+001	1.810756e+001	-4.817541e-004
9.352234656345368e-007	1.834009e+001	1.795201e+001	-4.609983e-004
9.452234656344774e-007	1.816365e+001	1.779113e+001	-4.456693e-004
9.552234656344180e-007	1.798143e+001	1.762487e+001	-4.342731e-004
9.752234656342992e-007	1.759943e+001	1.727589e+001	-4.185285e-004
1.005223465634121e-006	1.698161e+001	1.671033e+001	-4.022224e-004
1.015223465634062e-006	1.676350e+001	1.651032e+001	-3.980877e-004
1.035223465633943e-006	1.630870e+001	1.609270e+001	-3.910394e-004
1.045223465633884e-006	1.607191e+001	1.587497e+001	-3.878975e-004
1.055223465633824e-006	1.582878e+001	1.565120e+001	-3.848889e-004
1.065223465633765e-006	1.557928e+001	1.542136e+001	-3.819818e-004
1.085223465633646e-006	1.506096e+001	1.494318e+001	-3.763733e-004
1.125223465633408e-006	1.394576e+001	1.391142e+001	-3.654918e-004
1.145223465633290e-006	1.334822e+001	1.335701e+001	-3.601171e-004
1.155223465633230e-006	1.303932e+001	1.307001e+001	-3.574339e-004
1.165223465633171e-006	1.272362e+001	1.277641e+001	-3.547510e-004
1.175223465633112e-006	1.240110e+001	1.247617e+001	-3.520744e-004
1.195223465632993e-006	1.173540e+001	1.185561e+001	-3.466989e-004
1.225223465632815e-006	1.068479e+001	1.087394e+001	-3.385953e-004
1.245223465632696e-006	9.949348e+000	1.018519e+001	-3.331545e-004
1.255223465632636e-006	9.571045e+000	9.830418e+000	-3.304183e-004
1.265223465632577e-006	9.185638e+000	9.468674e+000	-3.276816e-004
1.275223465632518e-006	8.793133e+000	9.099915e+000	-3.249355e-004
1.285223465632458e-006	8.393486e+000	8.724125e+000	-3.221695e-004
1.295223465632399e-006	7.986691e+000	8.341278e+000	-3.194070e-004
1.305223465632339e-006	7.572727e+000	7.951332e+000	-3.166461e-004
1.315223465632280e-006	7.151573e+000	7.554283e+000	-3.138698e-004
1.325223465632221e-006	6.723221e+000	7.150093e+000	-3.110881e-004
1.335223465632161e-006	6.287659e+000	6.738754e+000	-3.082994e-004
1.355223465632043e-006	5.394821e+000	5.894501e+000	-3.026862e-004
1.375223465631924e-006	4.473015e+000	5.021400e+000	-2.970270e-004
1.405223465631746e-006	3.035858e+000	3.657379e+000	-2.884442e-004
1.419509179917375e-006	2.328464e+000	2.984857e+000	-2.843201e-004
1.433794894203004e-006	1.606274e+000	2.297437e+000	-2.801740e-004
1.448080608488634e-006	8.692884e-001	1.595119e+000	-2.760056e-004
1.462366322774263e-006	1.175064e-001	8.779023e-001	-2.718151e-004
1.476652037059893e-006	-6.490717e-001	1.457876e-001	-2.676025e-004
1.490937751345522e-006	-1.430446e+000	-6.012252e-001	-2.633676e-004
1.505223465631152e-006	-2.226616e+000	-1.363136e+000	-2.591106e-004
1.515223465631092e-006	-2.792633e+000	-1.905327e+000	-2.561192e-004
1.525223465631033e-006	-3.365845e+000	-2.454803e+000	-2.531180e-004
1.545223465630914e-006	-4.533752e+000	-3.575562e+000	-2.470867e-004
1.565223465630795e-006	-5.730194e+000	-4.725311e+000	-2.410172e-004
1.575223465630736e-006	-6.339043e+000	-5.311020e+000	-2.379690e-004
1.585223465630677e-006	-6.954964e+000	-5.903938e+000	-2.349066e-004
1.595223465630617e-006	-7.577919e+000	-6.504044e+000	-2.318370e-004
1.605223465630558e-006	-8.207886e+000	-7.111298e+000	-2.287655e-004
1.615223465630498e-006	-8.844833e+000	-7.725700e+000	-2.256844e-004
1.625223465630439e-006	-9.488724e+000	-8.347221e+000	-2.225936e-004
1.645223465630320e-006	-1.079723e+001	-9.611496e+000	-2.163917e-004
1.665223465630202e-006	-1.213313e+001	-1.090391e+001	-2.101589e-004
1.675223465630142e-006	-1.281125e+001	-1.156059e+001	-2.070345e-004
1.685223465630083e-006	-1.349611e+001	-1.222421e+001	-2.039197e-004
1.695223465630023e-006	-1.418767e+001	-1.289474e+001	-2.008285e-004
1.705223465629964e-006	-1.488586e+001	-1.357211e+001	-1.977461e-004
1.715223465629905e-006	-1.559067e+001	-1.425632e+001	-1.946515e-004
1.725223465629845e-006	-1.630202e+001	-1.494729e+001	-1.915494e-004
1.745223465629726e-006	-1.774422e+001	-1.634942e+001	-1.853321e-004
1.755223465629667e-006	-1.847496e+001	-1.706048e+001	-1.822159e-004
1.765223465629608e-006	-1.921206e+001	-1.777814e+001	-1.790903e-004
1.775223465629548e-006	-1.995546e+001	-1.850235e+001	-1.759617e-004
1.785223465629489e-006	-2.070511e+001	-1.923307e+001	-1.728338e-004
1.795223465629429e-006	-2.146095e+001	-1.997024e+001	-1.697003e-004
1.815223465629311e-006	-2.299097e+001	-2.146371e+001	-1.634244e-004
1.825223465629251e-006	-2.376502e+001	-2.221991e+001	-1.602772e-004
1.835223465629192e-006	-2.454502e+001	-2.298232e+001	-1.571275e-004
1.845223465629133e-006	-2.533090e+001	-2.375091e+001	-1.539820e-004
1.855223465629073e-006	-2.612260e+001	-2.452559e+001	-1.508332e-004
1.865223465629014e-006	-2.692006e+001	-2.530632e+001	-1.476809e-004
1.895223465628836e-006	-2.934622e+001	-2.768410e+001	-1.382040e-004
1.915223465628717e-006	-3.099110e+001	-2.929826e+001	-1.318970e-004
1.925223465628657e-006	-3.182155e+001	-3.011381e+001	-1.287410e-004
1.935223465628598e-006	-3.265724e+001	-3.093492e+001	-1.255808e-004
1.945223465628539e-006	-3.349808e+001	-3.176151e+001	-1.224217e-004
1.955223465628479e-006	-3.434400e+001	-3.259348e+001	-1.192690e-004
1.965223465628420e-006	-3.519491e+001	-3.343079e+001	-1.161166e-004
1.975223465628360e-006	-3.605073e+001	-3.427333e+001	-1.129645e-004
1.985223465628301e-006	-3.691137e+001	-3.512103e+001	-1.098107e-004
1.995223465628242e-006	-3.777676e+001	-3.597380e+001	-1.066601e-004
2.005223465628182e-006	-3.864679e+001	-3.683155e+001	-1.035155e-004
2.015223465628123e-006	-3.952138e+001	-3.769421e+001	-1.003723e-004
2.025223465628064e-006	-4.040044e+001	-3.856169e+001	-9.723238e-005
2.045223465627945e-006	-4.217162e+001	-4.031071e+001	-9.095880e-005
2.055223465627885e-006	-4.306354e+001	-4.119207e+001	-8.783098e-005
2.065223465627826e-006	-4.395955e+001	-4.207789e+001	-8.470720e-005
2.075223465627767e-006	-4.485956e+001	-4.296804e+001	-8.158594e-005
2.085223465627707e-006	-4.576347e+001	-4.386245e+001	-7.846905e-005
2.095223465627648e-006	-4.667117e+001	-4.476101e+001	-7.536136e-005
2.105223465627588e-006	-4.758258e+001	-4.566363e+001	-7.225915e-005
2.135223465627410e-006	-5.033794e+001	-4.839477e+001	-6.298311e-005
2.155223465627291e-006	-5.219143e+001	-5.023390e+001	-5.683812e-005
2.175223465627173e-006	-5.405715e+001	-5.208672e+001	-5.071980e-005
2.185223465627113e-006	-5.499434e+001	-5.301799e+001	-4.767633e-005
2.205223465626995e-006	-5.687678e+001	-5.488969e+001	-4.161437e-005
2.225223465626876e-006	-5.876923e+001	-5.677283e+001	-3.558779e-005
2.235223465626816e-006	-5.971892e+001	-5.771842e+001	-3.259195e-005
2.245223465626757e-006	-6.067075e+001	-5.866651e+001	-2.960630e-005
2.255223465626698e-006	-6.162461e+001	-5.961699e+001	-2.663029e-005
2.265223465626638e-006	-6.258039e+001	-6.056973e+001	-2.366623e-005
2.285223465626519e-006	-6.449718e+001	-6.248155e+001	-1.777658e-005
2.305223465626401e-006	-6.642015e+001	-6.440096e+001	-1.193616e-005
2.315223465626341e-006	-6.738364e+001	-6.536320e+001	-9.035664e-006
2.325223465626282e-006	-6.834829e+001	-6.632696e+001	-6.150149e-006
2.335223465626223e-006	-6.931399e+001	-6.729211e+001	-3.278490e-006
2.345223465626163e-006	-7.028059e+001	-6.825852e+001	-4.214655e-007
2.355223465626104e-006	-7.124798e+001	-6.922606e+001	2.420557e-006
2.365223465626044e-006	-7.221601e+001	-7.019460e+001	5.246784e-006
2.375223465625985e-006	-7.318457e+001	-7.116401e+001	8.057520e-006
2.395223465625866e-006	-7.512271e+001	-7.310486e+001	1.362952e-005
2.405223465625807e-006	-7.609204e+001	-7.407604e+001	1.638967e-005
2.415223465625747e-006	-7.706134e+001	-7.504754e+001	1.913223e-005
2.425223465625688e-006	-7.803050e+001	-7.601923e+001	2.185655e-005
2.435223465625629e-006	-7.899938e+001	-7.699096e+001	2.456230e-005
2.445223465625569e-006	-7.996783e+001	-7.796260e+001	2.724911e-005
2.455223465625510e-006	-8.093572e+001	-7.893400e+001	2.991650e-005
2.465223465625450e-006	-8.190292e+001	-7.990502e+001	3.256393e-005
2.485223465625332e-006	-8.383465e+001	-8.184535e+001	3.779720e-005
2.495223465625272e-006	-8.479891e+001	-8.281437e+001	4.038209e-005
2.505223465625213e-006	-8.576191e+001	-8.378245e+001	4.294421e-005
2.515223465625154e-006	-8.672351e+001	-8.474944e+001	4.548418e-005
2.525223465625094e-006	-8.768356e+001	-8.571517e+001	4.800222e-005
2.535223465625035e-006	-8.864193e+001	-8.667951e+001	5.049661e-005
2.545223465624975e-006	-8.959846e+001	-8.764231e+001	5.296714e-005
2.555223465624916e-006	-9.055302e+001	-8.860343e+001	5.541334e-005
2.565223465624857e-006	-9.150546e+001	-8.956270e+001	5.783460e-005
2.575223465624797e-006	-9.245562e+001	-9.051999e+001	6.023048e-005
2.585223465624738e-006	-9.340338e+001	-9.147514e+001	6.260040e-005
2.595223465624678e-006	-9.434858e+001	-9.242801e+001	6.494379e-005
2.605223465624619e-006	-9.529108e+001	-9.337844e+001	6.726009e-005
2.615223465624560e-006	-9.623072e+001	-9.432628e+001	6.954878e-005
2.625223465624500e-006	-9.716736e+001	-9.527137e+001	7.180916e-005
2.635223465624441e-006	-9.810084e+001	-9.621357e+001	7.404084e-005
2.645223465624381e-006	-9.903103e+001	-9.715272e+001	7.624317e-005
2.665223465624263e-006	-1.008809e+002	-9.902126e+001	8.055734e-005
2.675223465624203e-006	-1.018003e+002	-9.995034e+001	8.266796e-005
2.685223465624144e-006	-1.027158e+002	-1.008757e+002	8.474680e-005
2.695223465624085e-006	-1.036273e+002	-1.017973e+002	8.679322e-005
2.705223465624025e-006	-1.045355e+002	-1.027158e+002	8.882736e-005
2.706473465624018e-006	-1.046487e+002	-1.028303e+002	8.907474e-005
2.708973465624003e-006	-1.048746e+002	-1.030589e+002	8.956109e-005
2.713973465623973e-006	-1.053254e+002	-1.035150e+002	9.054559e-005
2.723973465623914e-006	-1.062238e+002	-1.044241e+002	9.249409e-005
2.733973465623854e-006	-1.071181e+002	-1.053294e+002	9.440890e-005
2.753973465623736e-006	-1.088923e+002	-1.071261e+002	9.813039e-005
2.763973465623676e-006	-1.097719e+002	-1.080172e+002	9.994055e-005
2.773973465623617e-006	-1.106462e+002	-1.089032e+002	1.017113e-004
2.783973465623557e-006	-1.115151e+002	-1.097840e+002	1.034394e-004
2.793973465623498e-006	-1.123785e+002	-1.106594e+002	1.051306e-004
2.803973465623439e-006	-1.132362e+002	-1.115293e+002	1.067862e-004
2.813973465623379e-006	-1.140881e+002	-1.123935e+002	1.083993e-004
2.823973465623320e-006	-1.149339e+002	-1.132519e+002	1.099670e-004
