time	V(N003,N006)	-I(Ls1)
0.000000000000000e+000	1.057201e+002	1.065344e-001
9.999999999940612e-009	7.772697e+001	5.098435e-002
2.265347418678454e-008	-8.782118e+000	5.681791e-003
2.753161162439601e-008	-2.921803e+001	-2.924802e-004
3.240690424929742e-008	-2.904929e+001	-2.945008e-004
3.399378414154462e-008	-3.051259e+001	-3.045130e-004
3.491395475052443e-008	-3.020274e+001	-2.999719e-004
3.552484435179887e-008	-2.974144e+001	-2.986813e-004
3.617600998037825e-008	-3.040949e+001	-3.044111e-004
3.674116327303210e-008	-3.040324e+001	-3.033083e-004
3.731828231113774e-008	-3.038308e+001	-3.044627e-004
3.790016187021385e-008	-3.059295e+001	-3.061326e-004
3.863471462477348e-008	-3.056188e+001	-3.054712e-004
3.925181011883543e-008	-3.061695e+001	-3.065146e-004
3.989266566389871e-008	-3.079108e+001	-3.080401e-004
4.046580796097585e-008	-3.086618e+001	-3.086546e-004
4.116483790796675e-008	-3.094107e+001	-3.094393e-004
4.167931642699851e-008	-3.095734e+001	-3.094424e-004
4.237860741647913e-008	-3.104141e+001	-3.107509e-004
4.303195804051564e-008	-3.119128e+001	-3.120890e-004
4.373735378667039e-008	-3.126227e+001	-3.126652e-004
4.449190994836386e-008	-3.131093e+001	-3.131394e-004
4.514862975341961e-008	-3.137382e+001	-3.138522e-004
4.582590877990136e-008	-3.152573e+001	-3.155704e-004
4.644143453895293e-008	-3.162464e+001	-3.162592e-004
4.712252115357703e-008	-3.164782e+001	-3.166183e-004
4.764752673034993e-008	-3.168986e+001	-3.170459e-004
4.831684593240883e-008	-3.178898e+001	-3.181996e-004
4.883341303660478e-008	-3.190617e+001	-3.194209e-004
4.955546357011779e-008	-3.199052e+001	-3.198964e-004
5.030832112853066e-008	-3.202767e+001	-3.204001e-004
5.098715250180519e-008	-3.211614e+001	-3.213191e-004
5.170333893422981e-008	-3.225501e+001	-3.228021e-004
5.236608716682571e-008	-3.235540e+001	-3.236401e-004
5.306395810646472e-008	-3.237353e+001	-3.237705e-004
5.364690299457242e-008	-3.243122e+001	-3.245326e-004
5.428905322968532e-008	-3.255628e+001	-3.257468e-004
5.480838315575359e-008	-3.265412e+001	-3.267427e-004
5.550407266912902e-008	-3.272316e+001	-3.271628e-004
5.601954858390316e-008	-3.273704e+001	-3.273396e-004
5.672460605919694e-008	-3.283295e+001	-3.285443e-004
5.738141953671831e-008	-3.296246e+001	-3.298059e-004
5.802483727204190e-008	-3.305818e+001	-3.307106e-004
5.870144089846659e-008	-3.308847e+001	-3.308418e-004
5.922937958732603e-008	-3.312138e+001	-3.313323e-004
5.985659073991581e-008	-3.324701e+001	-3.326850e-004
6.035261151254856e-008	-3.334529e+001	-3.335874e-004
6.106800706480800e-008	-3.342744e+001	-3.343437e-004
6.171599750194080e-008	-3.345531e+001	-3.345659e-004
6.234578817532893e-008	-3.352408e+001	-3.354524e-004
6.298656186464607e-008	-3.366051e+001	-3.368110e-004
6.357231682242205e-008	-3.375382e+001	-3.376412e-004
6.423240750765870e-008	-3.379859e+001	-3.379805e-004
6.470377004216647e-008	-3.381966e+001	-3.382088e-004
6.536584171721108e-008	-3.391757e+001	-3.394249e-004
6.595647969627472e-008	-3.404035e+001	-3.406045e-004
6.665678452862783e-008	-3.412864e+001	-3.413649e-004
6.733332334101297e-008	-3.416486e+001	-3.416754e-004
6.790796552901338e-008	-3.421528e+001	-3.422870e-004
6.852829614553170e-008	-3.434236e+001	-3.436856e-004
6.903180597159567e-008	-3.443998e+001	-3.445500e-004
6.970028217784252e-008	-3.449719e+001	-3.450274e-004
7.019705220118015e-008	-3.451882e+001	-3.452322e-004
7.079041844534027e-008	-3.457998e+001	-3.459691e-004
7.139663161181108e-008	-3.470674e+001	-3.473142e-004
7.195239977702411e-008	-3.480514e+001	-3.481686e-004
7.258574282386840e-008	-3.485053e+001	-3.485463e-004
7.304666574435917e-008	-3.487320e+001	-3.487872e-004
7.372823465309243e-008	-3.495874e+001	-3.497865e-004
7.438414885408383e-008	-3.508878e+001	-3.511050e-004
7.509701357229399e-008	-3.518653e+001	-3.519336e-004
7.574272506611669e-008	-3.522167e+001	-3.522631e-004
7.628426193940358e-008	-3.526721e+001	-3.527936e-004
7.691984074621912e-008	-3.538428e+001	-3.541039e-004
7.739573287444089e-008	-3.548021e+001	-3.550135e-004
7.808084116051571e-008	-3.555159e+001	-3.555618e-004
7.866231163406595e-008	-3.558113e+001	-3.558697e-004
7.927487976938825e-008	-3.564746e+001	-3.566364e-004
7.990350570151288e-008	-3.577221e+001	-3.579629e-004
8.044300538862480e-008	-3.586804e+001	-3.588207e-004
8.107755584073860e-008	-3.591308e+001	-3.591607e-004
8.154908744725103e-008	-3.593786e+001	-3.594492e-004
8.223666559900068e-008	-3.602864e+001	-3.604726e-004
8.292173507128825e-008	-3.616009e+001	-3.618058e-004
8.360589306109778e-008	-3.625335e+001	-3.626047e-004
8.425977255114778e-008	-3.628887e+001	-3.629374e-004
8.482728049976837e-008	-3.634143e+001	-3.635594e-004
8.547255032583835e-008	-3.646074e+001	-3.648420e-004
8.596214976321938e-008	-3.655417e+001	-3.657314e-004
8.662923455036824e-008	-3.662133e+001	-3.662493e-004
8.718227664556051e-008	-3.665132e+001	-3.665669e-004
8.788286684990009e-008	-3.673555e+001	-3.675371e-004
8.852123471584684e-008	-3.685835e+001	-3.687972e-004
8.910640755051442e-008	-3.695067e+001	-3.696233e-004
8.974986180567031e-008	-3.699098e+001	-3.699351e-004
9.025170385058672e-008	-3.702410e+001	-3.703343e-004
9.091906810667488e-008	-3.712861e+001	-3.714983e-004
9.145144675391792e-008	-3.723130e+001	-3.725132e-004
9.216558081526563e-008	-3.732368e+001	-3.733088e-004
9.281812367073657e-008	-3.736286e+001	-3.736802e-004
9.343462908342932e-008	-3.742687e+001	-3.744310e-004
9.409136631790237e-008	-3.755087e+001	-3.757252e-004
9.462561532621629e-008	-3.764324e+001	-3.765811e-004
9.529101684829268e-008	-3.769925e+001	-3.770215e-004
9.578429976497653e-008	-3.772864e+001	-3.773431e-004
9.650260668066062e-008	-3.782490e+001	-3.784393e-004
9.722061544096411e-008	-3.795649e+001	-3.797474e-004
9.791869136420266e-008	-3.804570e+001	-3.805369e-004
9.862467072619535e-008	-3.809212e+001	-3.809842e-004
9.927168910495686e-008	-3.816455e+001	-3.818129e-004
9.995790107241408e-008	-3.829349e+001	-3.831416e-004
1.005423494919791e-007	-3.838547e+001	-3.839742e-004
1.012163350815401e-007	-3.843460e+001	-3.843858e-004
1.017360390729704e-007	-3.847217e+001	-3.848110e-004
1.024321982039632e-007	-3.857894e+001	-3.860031e-004
1.029929305870151e-007	-3.868345e+001	-3.870272e-004
1.037223331208301e-007	-3.877228e+001	-3.877972e-004
1.044297693155241e-007	-3.882418e+001	-3.883167e-004
1.051998978569748e-007	-3.891948e+001	-3.893773e-004
1.058944099742790e-007	-3.904538e+001	-3.906455e-004
1.065560515092420e-007	-3.913545e+001	-3.914443e-004
1.072583177084280e-007	-3.918317e+001	-3.918932e-004
1.078765541210128e-007	-3.924638e+001	-3.926121e-004
1.085650075847381e-007	-3.937023e+001	-3.939155e-004
1.091142209123323e-007	-3.946297e+001	-3.947799e-004
1.098134565580625e-007	-3.952414e+001	-3.952852e-004
1.103348066268644e-007	-3.956099e+001	-3.956867e-004
1.110799688825489e-007	-3.966481e+001	-3.968389e-004
1.117626685115825e-007	-3.978580e+001	-3.980370e-004
1.125026205485089e-007	-3.987636e+001	-3.988417e-004
1.132467026365540e-007	-3.993494e+001	-3.994319e-004
1.140633613418412e-007	-4.004112e+001	-4.005958e-004
1.148023343485426e-007	-4.016847e+001	-4.018578e-004
1.155523889212473e-007	-4.025965e+001	-4.026761e-004
1.163153349147388e-007	-4.032167e+001	-4.033038e-004
1.171496240429722e-007	-4.043218e+001	-4.045066e-004
1.179130548277074e-007	-4.055956e+001	-4.057636e-004
1.187751973049083e-007	-4.065854e+001	-4.066605e-004
1.195765101102975e-007	-4.072912e+001	-4.073980e-004
1.203830431403298e-007	-4.084568e+001	-4.086499e-004
1.211002036668237e-007	-4.096527e+001	-4.098112e-004
1.218991517680772e-007	-4.105008e+001	-4.105657e-004
1.225863303269247e-007	-4.110788e+001	-4.111780e-004
1.233721048828074e-007	-4.122146e+001	-4.124075e-004
1.240650581400826e-007	-4.133855e+001	-4.135488e-004
1.248477154900361e-007	-4.142525e+001	-4.143230e-004
1.255630061613479e-007	-4.148513e+001	-4.149480e-004
1.263501189226017e-007	-4.159560e+001	-4.161447e-004
1.270842198489164e-007	-4.171861e+001	-4.173475e-004
1.278793961443855e-007	-4.180758e+001	-4.181492e-004
1.286185116731488e-007	-4.187131e+001	-4.188140e-004
1.294203585237852e-007	-4.198487e+001	-4.200374e-004
1.301526150272649e-007	-4.210617e+001	-4.212208e-004
1.309568393283514e-007	-4.219437e+001	-4.220153e-004
1.316788197040092e-007	-4.225754e+001	-4.226784e-004
1.324831423567610e-007	-4.237301e+001	-4.239193e-004
1.331981702159483e-007	-4.249089e+001	-4.250674e-004
1.340022127913065e-007	-4.257851e+001	-4.258567e-004
1.347147622647246e-007	-4.264124e+001	-4.265153e-004
1.355193190854132e-007	-4.275694e+001	-4.277582e-004
1.362324677399093e-007	-4.287402e+001	-4.288978e-004
1.370390411486663e-007	-4.296199e+001	-4.296930e-004
1.377535191753217e-007	-4.302564e+001	-4.303602e-004
1.385625189166510e-007	-4.314206e+001	-4.316090e-004
1.392769843117005e-007	-4.325864e+001	-4.327431e-004
1.400883938324372e-007	-4.334673e+001	-4.335410e-004
1.408015462300329e-007	-4.341115e+001	-4.342172e-004
1.416152905174811e-007	-4.352880e+001	-4.354758e-004
1.423263662786879e-007	-4.364405e+001	-4.365963e-004
1.431418648859158e-007	-4.373207e+001	-4.373945e-004
1.438506061657730e-007	-4.379683e+001	-4.380753e-004
1.446678172948353e-007	-4.391561e+001	-4.393434e-004
1.453746986499350e-007	-4.402945e+001	-4.404489e-004
1.461937515251539e-007	-4.411747e+001	-4.412491e-004
1.468991357566479e-007	-4.418265e+001	-4.419342e-004
1.477199180568468e-007	-4.430240e+001	-4.432111e-004
1.484239490255699e-007	-4.441510e+001	-4.443042e-004
1.492467393358465e-007	-4.450310e+001	-4.451063e-004
1.499495842105948e-007	-4.456884e+001	-4.457975e-004
1.507744239615666e-007	-4.468960e+001	-4.470827e-004
1.514759389292103e-007	-4.480121e+001	-4.481644e-004
1.523027179214844e-007	-4.488917e+001	-4.489676e-004
1.530027929678123e-007	-4.495543e+001	-4.496651e-004
1.538316892360590e-007	-4.507732e+001	-4.509591e-004
1.545303513323347e-007	-4.518771e+001	-4.520282e-004
1.553612674191386e-007	-4.527568e+001	-4.528332e-004
1.560584215801446e-007	-4.534244e+001	-4.535364e-004
1.568913359001247e-007	-4.546548e+001	-4.548401e-004
1.575870268253482e-007	-4.557464e+001	-4.558960e-004
1.584220941316678e-007	-4.566258e+001	-4.567030e-004
1.591163892322462e-007	-4.572987e+001	-4.574120e-004
1.599535139216925e-007	-4.585406e+001	-4.587255e-004
1.606463732497631e-007	-4.596203e+001	-4.597686e-004
1.614856317872122e-007	-4.604988e+001	-4.605770e-004
1.621771221252920e-007	-4.611775e+001	-4.612925e-004
1.630186148330551e-007	-4.624312e+001	-4.626155e-004
1.637087550462619e-007	-4.634987e+001	-4.636458e-004
1.645524074357467e-007	-4.643768e+001	-4.644557e-004
1.652411747974682e-007	-4.650612e+001	-4.651778e-004
1.660871081605401e-007	-4.663276e+001	-4.665109e-004
1.667745709778984e-007	-4.673826e+001	-4.675280e-004
1.676228285204476e-007	-4.682601e+001	-4.683399e-004
1.683089984980558e-007	-4.689508e+001	-4.690690e-004
1.691595546374648e-007	-4.702303e+001	-4.704129e-004
1.698444602002847e-007	-4.712727e+001	-4.714164e-004
1.706974522687563e-007	-4.721492e+001	-4.722301e-004
1.713811839170951e-007	-4.728469e+001	-4.729670e-004
1.722366240069530e-007	-4.741402e+001	-4.743219e-004
1.729192341580824e-007	-4.751698e+001	-4.753118e-004
1.737771554754033e-007	-4.760451e+001	-4.761271e-004
1.744587552084381e-007	-4.767507e+001	-4.768730e-004
1.753192862962317e-007	-4.780586e+001	-4.782392e-004
1.760000415071145e-007	-4.790752e+001	-4.792152e-004
1.768631853809807e-007	-4.799492e+001	-4.800325e-004
1.775432899118329e-007	-4.806644e+001	-4.807889e-004
1.784091200236499e-007	-4.819873e+001	-4.821663e-004
1.790933448430308e-007	-4.829967e+001	-4.831337e-004
1.799596243442884e-007	-4.838675e+001	-4.839528e-004
1.806506309061547e-007	-4.846094e+001	-4.847381e-004
1.815158646146196e-007	-4.859396e+001	-4.861165e-004
1.822152229905179e-007	-4.869534e+001	-4.870851e-004
1.830788566368861e-007	-4.878122e+001	-4.879003e-004
1.837887750111896e-007	-4.885970e+001	-4.887324e-004
1.846507358038620e-007	-4.899324e+001	-4.901061e-004
1.853747311974466e-007	-4.909537e+001	-4.910778e-004
1.862356393093900e-007	-4.918008e+001	-4.918932e-004
1.869798672011602e-007	-4.926613e+001	-4.928061e-004
1.878417249230689e-007	-4.940021e+001	-4.941701e-004
1.886180018349608e-007	-4.950447e+001	-4.951574e-004
1.894857965660003e-007	-4.959049e+001	-4.960056e-004
1.903230127039968e-007	-4.969527e+001	-4.971114e-004
1.912101539880418e-007	-4.982981e+001	-4.984536e-004
1.921649389756593e-007	-4.994570e+001	-4.995571e-004
1.931259814588835e-007	-5.004978e+001	-5.006231e-004
1.941180716926328e-007	-5.019118e+001	-5.020801e-004
1.949620858060063e-007	-5.030955e+001	-5.032233e-004
1.959276758035054e-007	-5.041026e+001	-5.042021e-004
1.967291575807190e-007	-5.050627e+001	-5.052104e-004
1.976575833516608e-007	-5.064717e+001	-5.066306e-004
1.985338095957835e-007	-5.075857e+001	-5.076911e-004
1.994601760233611e-007	-5.085654e+001	-5.086784e-004
2.005085948406180e-007	-5.099764e+001	-5.101380e-004
2.015539373027321e-007	-5.114432e+001	-5.115697e-004
2.025324090878817e-007	-5.125051e+001	-5.126052e-004
2.033673524013714e-007	-5.135015e+001	-5.136468e-004
2.043433132946360e-007	-5.149599e+001	-5.151161e-004
2.052494010511101e-007	-5.161046e+001	-5.162106e-004
2.062071990439375e-007	-5.171453e+001	-5.172603e-004
2.073886666588681e-007	-5.187544e+001	-5.189147e-004
2.083947384706655e-007	-5.201263e+001	-5.202512e-004
2.094421517634827e-007	-5.212659e+001	-5.213738e-004
2.103397892261067e-007	-5.223911e+001	-5.225445e-004
2.113406935119917e-007	-5.238504e+001	-5.239990e-004
2.124294855665541e-007	-5.251597e+001	-5.252651e-004
2.135127182458906e-007	-5.264153e+001	-5.265542e-004
2.145438325309914e-007	-5.278995e+001	-5.280584e-004
2.154316920638475e-007	-5.290632e+001	-5.291784e-004
2.164461457194750e-007	-5.301601e+001	-5.302749e-004
2.174846197163741e-007	-5.315327e+001	-5.316919e-004
2.185309507592333e-007	-5.330009e+001	-5.331341e-004
2.196130415115221e-007	-5.342175e+001	-5.343229e-004
2.205197562508369e-007	-5.353174e+001	-5.354628e-004
2.215558322247666e-007	-5.368244e+001	-5.369754e-004
2.225593269497995e-007	-5.380669e+001	-5.381739e-004
2.235912024241889e-007	-5.392319e+001	-5.393579e-004
2.247402914896252e-007	-5.408329e+001	-5.409911e-004
2.256960712190750e-007	-5.421051e+001	-5.422263e-004
2.267620176370135e-007	-5.432797e+001	-5.433946e-004
2.277769624427304e-007	-5.446007e+001	-5.447578e-004
2.288288975674582e-007	-5.460795e+001	-5.462180e-004
2.300039428919549e-007	-5.474346e+001	-5.475433e-004
2.309792694033495e-007	-5.486264e+001	-5.487713e-004
2.320644285676993e-007	-5.501770e+001	-5.503253e-004
2.331357141630887e-007	-5.514944e+001	-5.516030e-004
2.342231030726897e-007	-5.527526e+001	-5.528845e-004
2.353777907484599e-007	-5.543694e+001	-5.545242e-004
2.363453485954535e-007	-5.556291e+001	-5.557467e-004
2.374357043603316e-007	-5.568542e+001	-5.569736e-004
2.385997556349738e-007	-5.584000e+001	-5.585554e-004
2.397536577431695e-007	-5.599594e+001	-5.600845e-004
2.408748878452056e-007	-5.612344e+001	-5.613490e-004
2.418929769593039e-007	-5.625357e+001	-5.626885e-004
2.429995696370379e-007	-5.640788e+001	-5.642204e-004
2.443143623000188e-007	-5.656352e+001	-5.657488e-004
2.454169680890257e-007	-5.670051e+001	-5.671508e-004
2.466009193919077e-007	-5.686445e+001	-5.687888e-004
2.479309877375172e-007	-5.702650e+001	-5.703794e-004
2.492148896060184e-007	-5.718453e+001	-5.719898e-004
2.504443728256790e-007	-5.735273e+001	-5.736714e-004
2.517795173536015e-007	-5.751642e+001	-5.752791e-004
2.530955294250542e-007	-5.767807e+001	-5.769235e-004
2.543847871553599e-007	-5.785329e+001	-5.786762e-004
2.557809233301282e-007	-5.802493e+001	-5.803657e-004
2.571613008893470e-007	-5.819579e+001	-5.821012e-004
2.585132085018965e-007	-5.837765e+001	-5.839187e-004
2.600882630118904e-007	-5.857133e+001	-5.858333e-004
2.616177983139068e-007	-5.876456e+001	-5.877914e-004
2.630536282703568e-007	-5.895443e+001	-5.896888e-004
2.654953611064617e-007	-5.925690e+001	-5.927011e-004
2.674149360084883e-007	-5.950495e+001	-5.951919e-004
2.693680495691273e-007	-5.975487e+001	-5.976749e-004
2.714372102860258e-007	-6.001262e+001	-6.002560e-004
2.742726756541688e-007	-6.037802e+001	-6.039136e-004
2.769683463978677e-007	-6.071737e+001	-6.073033e-004
2.796782033900967e-007	-6.106400e+001	-6.107782e-004
2.822466030508002e-007	-6.139044e+001	-6.140328e-004
2.849522898790320e-007	-6.173121e+001	-6.174456e-004
2.883499228359138e-007	-6.216641e+001	-6.218012e-004
2.934057208654924e-007	-6.280658e+001	-6.281994e-004
2.983201198084040e-007	-6.343187e+001	-6.344526e-004
3.032533934621377e-007	-6.405730e+001	-6.407051e-004
3.084295179959021e-007	-6.471519e+001	-6.472861e-004
3.133321896861812e-007	-6.533685e+001	-6.535003e-004
3.186104329205939e-007	-6.600626e+001	-6.601975e-004
3.240389114126177e-007	-6.669525e+001	-6.670851e-004
3.303657346756094e-007	-6.749585e+001	-6.750920e-004
3.382458915743639e-007	-6.849535e+001	-6.850878e-004
3.731010627826183e-007	-7.289629e+001	-7.290971e-004
4.195746243936243e-007	-7.872314e+001	-7.873642e-004
4.941684843765958e-007	-8.801732e+001	-8.802858e-004
5.066684843765216e-007	-8.955434e+001	-8.956786e-004
5.097934843766114e-007	-8.993620e+001	-8.995174e-004
5.160434843765743e-007	-9.070287e+001	-9.072128e-004
5.285434843765001e-007	-9.223099e+001	-9.224957e-004
5.535434843765685e-007	-9.526476e+001	-9.528333e-004
6.035434843764884e-007	-1.002141e+002	-3.011444e-003
6.843511555572508e-007	-1.051487e+002	-1.243276e-002
6.948421395107721e-007	-1.053889e+002	-1.509365e-002
7.158241074178146e-007	-1.054048e+002	-2.392780e-002
7.577880432318995e-007	-1.054296e+002	-4.623847e-002
7.682790271854208e-007	-1.054343e+002	-5.317594e-002
7.892609950924633e-007	-1.054411e+002	-7.014094e-002
8.312249309065482e-007	-1.054522e+002	-1.084735e-001
8.417159148600695e-007	-1.054544e+002	-1.193399e-001
8.626978827671120e-007	-1.054576e+002	-1.439702e-001
9.046618185811969e-007	-1.054619e+002	-2.006279e-001
9.885896902093669e-007	-1.054670e+002	-3.361316e-001
1.088589690209424e-006	-1.054700e+002	-5.289368e-001
1.188589690209480e-006	-1.054724e+002	-7.531975e-001
1.288589690209537e-006	-1.054770e+002	-1.002816e+000
1.388589690209593e-006	-1.054854e+002	-1.269253e+000
1.488589690209650e-006	-1.054984e+002	-1.543419e+000
1.588589690209707e-006	-1.055165e+002	-1.815866e+000
1.688589690209763e-006	-1.055397e+002	-2.076968e+000
1.788589690209820e-006	-1.055679e+002	-2.317124e+000
1.888589690209877e-006	-1.056005e+002	-2.526944e+000
1.988589690209933e-006	-1.056367e+002	-2.697449e+000
2.088589690209990e-006	-1.056755e+002	-2.820255e+000
2.188589690210047e-006	-1.057156e+002	-2.887749e+000
2.288589690210103e-006	-1.057554e+002	-2.893260e+000
2.388589690210160e-006	-1.057933e+002	-2.831203e+000
2.488589690210217e-006	-1.058273e+002	-2.697214e+000
2.588589690210273e-006	-1.058553e+002	-2.488257e+000
2.688589690210330e-006	-1.058749e+002	-2.202719e+000
2.788589690210386e-006	-1.058833e+002	-1.840467e+000
2.888589690210443e-006	-1.058764e+002	-1.402893e+000
2.988589690210500e-006	-1.058447e+002	-8.929410e-001
3.088589690210556e-006	-1.057416e+002	-3.227265e-001
3.138487569145183e-006	-4.460982e+001	-6.868371e-002
3.174932628924711e-006	1.054534e+002	3.443329e-002
3.174997638376743e-006	1.056413e+002	3.436508e-002
3.175127657280806e-006	1.056404e+002	3.390612e-002
3.175387695089149e-006	1.056387e+002	3.298622e-002
3.175907770705620e-006	1.056354e+002	3.114538e-002
3.176394115613108e-006	1.056321e+002	2.942609e-002
3.177366805427869e-006	1.056250e+002	2.599102e-002
3.178340214232819e-006	1.056169e+002	2.255960e-002
3.179560210555318e-006	1.056045e+002	1.826823e-002
3.180843968717591e-006	1.055859e+002	1.376364e-002
3.182893068502191e-006	1.055280e+002	6.594980e-003
