Freq.	V(n004)
Step Information: X=50m  (Run: 1/10)
1.00000000000000e+05	(-4.67563714944204e+01dB,-9.73346909806860e+01°)
1.01157945425990e+05	(-4.61320286645447e+01dB,-9.75603108287252e+01°)
1.02329299228075e+05	(-4.54938122319433e+01dB,-9.77991587662785e+01°)
1.03514216667934e+05	(-4.48408444636202e+01dB,-9.80524576322643e+01°)
1.04712854805090e+05	(-4.41721663666086e+01dB,-9.83215857018067e+01°)
1.05925372517729e+05	(-4.34867274367696e+01dB,-9.86081021131663e+01°)
1.07151930523761e+05	(-4.27833737514143e+01dB,-9.89137774386622e+01°)
1.08392691402120e+05	(-4.20608340770658e+01dB,-9.92406306517908e+01°)
1.09647819614319e+05	(-4.13177035858541e+01dB,-9.95909741023158e+01°)
1.10917481526240e+05	(-4.05524246747057e+01dB,-9.99674685906578e+01°)
1.12201845430196e+05	(-3.97632642538592e+01dB,-1.00373191278433e+02°)
1.13501081567232e+05	(-3.89482867060607e+01dB,-1.00811720049504e+02°)
1.14815362149688e+05	(-3.81053215024725e+01dB,-1.01287239141388e+02°)
1.16144861384034e+05	(-3.72319241784904e+01dB,-1.01804672541520e+02°)
1.17489755493953e+05	(-3.63253289982579e+01dB,-1.02369853997284e+02°)
1.18850222743702e+05	(-3.53823911371231e+01dB,-1.02989745841640e+02°)
1.20226443461741e+05	(-3.43995155395295e+01dB,-1.03672723676876e+02°)
1.21618600064637e+05	(-3.33725686995877e+01dB,-1.04428951051972e+02°)
1.23026877081238e+05	(-3.22967683694339e+01dB,-1.05270878828250e+02°)
1.24451461177139e+05	(-3.11665444953735e+01dB,-1.06213919918470e+02°)
1.25892541179417e+05	(-2.99753623321667e+01dB,-1.07277374750253e+02°)
1.27350308101666e+05	(-2.87154954477888e+01dB,-1.08485721614024e+02°)
1.28824955169314e+05	(-2.73777318991883e+01dB,-1.09870448435008e+02°)
1.30316677845230e+05	(-2.59509909155439e+01dB,-1.11472705088759e+02°)
1.31825673855641e+05	(-2.44218198349860e+01dB,-1.13347228212318e+02°)
1.33352143216333e+05	(-2.27737324817873e+01dB,-1.15568289161513e+02°)
1.34896288259166e+05	(-2.09863439859557e+01dB,-1.18238945547591e+02°)
1.36458313658893e+05	(-1.90342645575801e+01dB,-1.21505840203571e+02°)
1.38038426460289e+05	(-1.68857703995396e+01dB,-1.25583580770634e+02°)
1.39636836105594e+05	(-1.45014745542722e+01dB,-1.30796093337494e+02°)
1.41253754462276e+05	(-1.18338620311999e+01dB,-1.37648577677522e+02°)
1.42889395851111e+05	(-8.83042578663962e+00dB,-1.46954536873874e+02°)
1.44543977074593e+05	(-5.44826279949464e+00dB,-1.60058163757189e+02°)
1.46217717445672e+05	(-1.70125485386456e+00dB,-1.79209945351160e+02°)
1.47910838816821e+05	(2.19400971188583e+00dB,1.51816256075374e+02°)
1.49623565609444e+05	(5.25546996014661e+00dB,1.07612943722774e+02°)
1.51356124843621e+05	(4.93029654681809e+00dB,5.28403779089286e+01°)
1.53108746168203e+05	(1.35828613622978e+00dB,1.13555694579668e+01°)
1.54881661891248e+05	(-2.68353912169036e+00dB,-1.36941012230968e+01°)
1.56675107010815e+05	(-6.29104868461755e+00dB,-2.94281391300100e+01°)
1.58489319246112e+05	(-9.40172382490000e+00dB,-4.00362068201983e+01°)
1.60324539069005e+05	(-1.20911809966746e+01dB,-4.76064908654327e+01°)
1.62181009735893e+05	(-1.44402767624903e+01dB,-5.32510207826194e+01°)
1.64058977319954e+05	(-1.65150124302511e+01dB,-5.76073048768521e+01°)
1.65958690743756e+05	(-1.83664824937097e+01dB,-6.10637564764611e+01°)
1.67880401812256e+05	(-2.00339679873686e+01dB,-6.38690707352253e+01°)
1.69824365246175e+05	(-2.15478850932939e+01dB,-6.61891667151285e+01°)
1.71790838715759e+05	(-2.29320658983966e+01dB,-6.81386304376690e+01°)
1.73780082874938e+05	(-2.42054289770550e+01dB,-6.97989580197562e+01°)
1.75792361395870e+05	(-2.53831876661298e+01dB,-7.12295957182034e+01°)
1.77827941003893e+05	(-2.64777263346516e+01dB,-7.24748681121140e+01°)
1.79887091512879e+05	(-2.74992415977217e+01dB,-7.35684656622015e+01°)
1.81970085860999e+05	(-2.84562169465330e+01dB,-7.45364333378053e+01°)
1.84077200146896e+05	(-2.93557784191717e+01dB,-7.53992105318525e+01°)
1.86208713666287e+05	(-3.02039644246571e+01dB,-7.61730542421799e+01°)
1.88364908948981e+05	(-3.10059328903738e+01dB,-7.68710516349279e+01°)
1.90546071796325e+05	(-3.17661221015745e+01dB,-7.75038532871530e+01°)
1.92752491319094e+05	(-3.24883769238462e+01dB,-7.80802127026508e+01°)
1.94984459975805e+05	(-3.31760488542594e+01dB,-7.86073890816055e+01°)
1.97242273611486e+05	(-3.38320760724420e+01dB,-7.90914520060554e+01°)
1.99526231496889e+05	(-3.44590480512506e+01dB,-7.95375147340537e+01°)
2.01836636368157e+05	(-3.50592581322015e+01dB,-7.99499148278757e+01°)
2.04173794466954e+05	(-3.56347466347254e+01dB,-8.03323554462856e+01°)
2.06538015581054e+05	(-3.61873364563904e+01dB,-8.06880169192741e+01°)
2.08929613085405e+05	(-3.67186626688316e+01dB,-8.10196456328985e+01°)
2.11348903983665e+05	(-3.72301972763932e+01dB,-8.13296254188453e+01°)
2.13796208950224e+05	(-3.77232700500269e+01dB,-8.16200353300916e+01°)
2.16271852372703e+05	(-3.81990861555679e+01dB,-8.18926967321209e+01°)
2.18776162394956e+05	(-3.86587411472703e+01dB,-8.21492119415722e+01°)
2.21309470960565e+05	(-3.91032337829477e+01dB,-8.23909961277701e+01°)
2.23872113856835e+05	(-3.95334770279204e+01dB,-8.26193038065772e+01°)
2.26464430759307e+05	(-3.99503075450835e+01dB,-8.28352509648981e+01°)
2.29086765276778e+05	(-4.03544939132431e+01dB,-8.30398336327394e+01°)
2.31739464996849e+05	(-4.07467437720533e+01dB,-8.32339435499782e+01°)
2.34422881531993e+05	(-4.11277100568567e+01dB,-8.34183814438596e+01°)
2.37137370566167e+05	(-4.14979964585765e+01dB,-8.35938683312272e+01°)
2.39883291901950e+05	(-4.18581622210433e+01dB,-8.37610551795916e+01°)
2.42661009508243e+05	(-4.22087263696405e+01dB,-8.39205311981553e+01°)
2.45470891568504e+05	(-4.25501714500390e+01dB,-8.40728309799678e+01°)
2.48313310529558e+05	(-4.28829468433915e+01dB,-8.42184406765398e+01°)
2.51188643150959e+05	(-4.32074717141270e+01dB,-8.43578033542972e+01°)
2.54097270554932e+05	(-4.35241376380185e+01dB,-8.44913236564895e+01°)
2.57039578276888e+05	(-4.38333109511504e+01dB,-8.46193718732956e+01°)
2.60015956316528e+05	(-4.41353348545316e+01dB,-8.47422875058779e+01°)
2.63026799189540e+05	(-4.44305313041671e+01dB,-8.48603823962307e+01°)
2.66072505979882e+05	(-4.47192027122534e+01dB,-8.49739434832600e+01°)
2.69153480392693e+05	(-4.50016334816577e+01dB,-8.50832352361081e+01°)
2.72270130807793e+05	(-4.52780913928741e+01dB,-8.51885018079395e+01°)
2.75422870333818e+05	(-4.55488288601240e+01dB,-8.52899689469224e+01°)
2.78612116862978e+05	(-4.58140840711179e+01dB,-8.53878456957246e+01°)
2.81838293126447e+05	(-4.60740820231535e+01dB,-8.54823259063173e+01°)
2.85101826750393e+05	(-4.63290354666457e+01dB,-8.55735895930691e+01°)
2.88403150312662e+05	(-4.65791457658261e+01dB,-8.56618041439055e+01°)
2.91742701400118e+05	(-4.68246036851762e+01dB,-8.57471254065929e+01°)
2.95120922666640e+05	(-4.70655901091450e+01dB,-8.58296986649052e+01°)
2.98538261891798e+05	(-4.73022767018234e+01dB,-8.59096595174716e+01°)
3.00000000000000e+05	(-4.74014322431595e+01dB,-8.59428249534853e+01°)
Step Information: X=100m  (Run: 2/10)
1.00000000000000e+05	(-4.06943922481355e+01dB,-9.73699105938306e+01°)
1.01157945425990e+05	(-4.00664648546678e+01dB,-9.75997805997029e+01°)
1.02329299228075e+05	(-3.94242765203330e+01dB,-9.78434993245678e+01°)
1.03514216667934e+05	(-3.87668970358573e+01dB,-9.81023992016872e+01°)
1.04712854805090e+05	(-3.80933061419802e+01dB,-9.83779912847121e+01°)
1.05925372517729e+05	(-3.74023814952495e+01dB,-9.86719964778849e+01°)
1.07151930523761e+05	(-3.66928845483622e+01dB,-9.89863836085237e+01°)
1.08392691402120e+05	(-3.59634438958016e+01dB,-9.93234161689661e+01°)
1.09647819614319e+05	(-3.52125355187785e+01dB,-9.96857101379538e+01°)
1.10917481526240e+05	(-3.44384592109956e+01dB,-1.00076306092885e+02°)
1.12201845430196e+05	(-3.36393102658823e+01dB,-1.00498759939782e+02°)
1.13501081567232e+05	(-3.28129452389954e+01dB,-1.00957258160375e+02°)
1.14815362149688e+05	(-3.19569402412600e+01dB,-1.01456765723790e+02°)
1.16144861384034e+05	(-3.10685397340451e+01dB,-1.02003218072871e+02°)
1.17489755493953e+05	(-3.01445931347010e+01dB,-1.02603773407720e+02°)
1.18850222743702e+05	(-2.91814756275565e+01dB,-1.03267148714646e+02°)
1.20226443461741e+05	(-2.81749883042118e+01dB,-1.04004074048481e+02°)
1.21618600064637e+05	(-2.71202309754872e+01dB,-1.04827916863946e+02°)
1.23026877081238e+05	(-2.60114384895433e+01dB,-1.05755555842483e+02°)
1.24451461177139e+05	(-2.48417678639044e+01dB,-1.06808629012243e+02°)
1.25892541179417e+05	(-2.36030186384775e+01dB,-1.08015357416486e+02°)
1.27350308101666e+05	(-2.22852622870827e+01dB,-1.09413278417994e+02°)
1.28824955169314e+05	(-2.08763485361308e+01dB,-1.11053461160322e+02°)
1.30316677845230e+05	(-1.93612494830980e+01dB,-1.13007219936430e+02°)
1.31825673855641e+05	(-1.77212065987926e+01dB,-1.15377195683579e+02°)
1.33352143216333e+05	(-1.59326969211009e+01dB,-1.18316381977301e+02°)
1.34896288259166e+05	(-1.39664564702493e+01dB,-1.22062170875353e+02°)
1.36458313658893e+05	(-1.17876207803758e+01dB,-1.26999652112089e+02°)
1.38038426460289e+05	(-9.36098652169956e+00dB,-1.33781547985878e+02°)
1.39636836105594e+05	(-6.67568482325528e+00dB,-1.43542695585554e+02°)
1.41253754462276e+05	(-3.83429387188114e+00dB,-1.58145093654626e+02°)
1.42889395851111e+05	(-1.27739823833446e+00dB,-1.79588530959415e+02°)
1.44543977074593e+05	(1.61836169950294e-01dB,1.53720633026491e+02°)
1.46217717445672e+05	(2.74800254307767e-01dB,1.28878438309550e+02°)
1.47910838816821e+05	(-1.24210118150232e-01dB,1.09723534019607e+02°)
1.49623565609444e+05	(-3.73030105713957e-01dB,9.45390996946954e+01°)
1.51356124843621e+05	(-2.53721413259042e-01dB,8.04285535131142e+01°)
1.53108746168203e+05	(1.99818520492663e-01dB,6.45956767484699e+01°)
1.54881661891248e+05	(6.76025714668424e-01dB,4.43408936810135e+01°)
1.56675107010815e+05	(4.40155539276322e-01dB,1.90517832548742e+01°)
1.58489319246112e+05	(-1.11256353192974e+00dB,-6.20095350661071e+00°)
1.60324539069005e+05	(-3.54307630037687e+00dB,-2.55861853296312e+01°)
1.62181009735893e+05	(-6.11903604968042e+00dB,-3.87617903903109e+01°)
1.64058977319954e+05	(-8.51295356161509e+00dB,-4.77015636072433e+01°)
1.65958690743756e+05	(-1.06578517012015e+01dB,-5.40113936217069e+01°)
1.67880401812256e+05	(-1.25698401323562e+01dB,-5.86642216989575e+01°)
1.69824365246175e+05	(-1.42821877107524e+01dB,-6.22286965665791e+01°)
1.71790838715759e+05	(-1.58269358046766e+01dB,-6.50464747125965e+01°)
1.73780082874938e+05	(-1.72309717488775e+01dB,-6.73315939298257e+01°)
1.75792361395870e+05	(-1.85160226819064e+01dB,-6.92238589769140e+01°)
1.77827941003893e+05	(-1.96995237778078e+01dB,-7.08181002447060e+01°)
1.79887091512879e+05	(-2.07955266325751e+01dB,-7.21808029976183e+01°)
1.81970085860999e+05	(-2.18154535546171e+01dB,-7.33599346626791e+01°)
1.84077200146896e+05	(-2.27686826721358e+01dB,-7.43909724034166e+01°)
1.86208713666287e+05	(-2.36629921624879e+01dB,-7.53007279207084e+01°)
1.88364908948981e+05	(-2.45048963577846e+01dB,-7.61098497771726e+01°)
1.90546071796325e+05	(-2.52999011612268e+01dB,-7.68345058382039e+01°)
1.92752491319094e+05	(-2.60526996864916e+01dB,-7.74875423989083e+01°)
1.94984459975805e+05	(-2.67673235249999e+01dB,-7.80793003920210e+01°)
1.97242273611486e+05	(-2.74472608649969e+01dB,-7.86182014914641e+01°)
1.99526231496889e+05	(-2.80955496368801e+01dB,-7.91111764662963e+01°)
2.01836636368157e+05	(-2.87148516668405e+01dB,-7.95639832683684e+01°)
2.04173794466954e+05	(-2.93075122489654e+01dB,-7.99814466735418e+01°)
2.06538015581054e+05	(-2.98756084152945e+01dB,-8.03676412107074e+01°)
2.08929613085405e+05	(-3.04209883649431e+01dB,-8.07260324853983e+01°)
2.11348903983665e+05	(-3.09453039163916e+01dB,-8.10595875677023e+01°)
2.13796208950224e+05	(-3.14500374077511e+01dB,-8.13708620920545e+01°)
2.16271852372703e+05	(-3.19365241436950e+01dB,-8.16620696252298e+01°)
2.18776162394956e+05	(-3.24059712434851e+01dB,-8.19351373903744e+01°)
2.21309470960565e+05	(-3.28594735599629e+01dB,-8.21917513896761e+01°)
2.23872113856835e+05	(-3.32980271987530e+01dB,-8.24333932148378e+01°)
2.26464430759307e+05	(-3.37225410588933e+01dB,-8.26613702850363e+01°)
2.29086765276778e+05	(-3.41338467324641e+01dB,-8.28768408468873e+01°)
2.31739464996849e+05	(-3.45327070355468e+01dB,-8.30808347691397e+01°)
2.34422881531993e+05	(-3.49198233915835e+01dB,-8.32742709378454e+01°)
2.37137370566167e+05	(-3.52958422476707e+01dB,-8.34579718855155e+01°)
2.39883291901950e+05	(-3.56613606720386e+01dB,-8.36326761559663e+01°)
2.42661009508243e+05	(-3.60169312551212e+01dB,-8.37990488048929e+01°)
2.45470891568504e+05	(-3.63630664157844e+01dB,-8.39576903571922e+01°)
2.48313310529558e+05	(-3.67002421974067e+01dB,-8.41091444802214e+01°)
2.51188643150959e+05	(-3.70289016247560e+01dB,-8.42539045834560e+01°)
2.54097270554932e+05	(-3.73494576813495e+01dB,-8.43924195163781e+01°)
2.57039578276888e+05	(-3.76622959577248e+01dB,-8.45250985056113e+01°)
2.60015956316528e+05	(-3.79677770133954e+01dB,-8.46523154475999e+01°)
2.63026799189540e+05	(-3.82662384889100e+01dB,-8.47744126531903e+01°)
2.66072505979882e+05	(-3.85579969991373e+01dB,-8.48917041243066e+01°)
2.69153480392693e+05	(-3.88433498344647e+01dB,-8.50044784297457e+01°)
2.72270130807793e+05	(-3.91225764928707e+01dB,-8.51130012363335e+01°)
2.75422870333818e+05	(-3.93959400626916e+01dB,-8.52175175428216e+01°)
2.78612116862978e+05	(-3.96636884732381e+01dB,-8.53182536565862e+01°)
2.81838293126447e+05	(-3.99260556281622e+01dB,-8.54154189471182e+01°)
2.85101826750393e+05	(-4.01832624345449e+01dB,-8.55092074052480e+01°)
2.88403150312662e+05	(-4.04355177390342e+01dB,-8.55997990328217e+01°)
2.91742701400118e+05	(-4.06830191809455e+01dB,-8.56873610840119e+01°)
2.95120922666640e+05	(-4.09259539710279e+01dB,-8.57720491764647e+01°)
2.98538261891798e+05	(-4.11644996035505e+01dB,-8.58540082879715e+01°)
3.00000000000000e+05	(-4.12644181854458e+01dB,-8.58879883771168e+01°)
Step Information: X=150m  (Run: 3/10)
1.00000000000000e+05	(-3.71031678540339e+01dB,-9.74293633932529e+01°)
1.01157945425990e+05	(-3.64691880639980e+01dB,-9.76664818838449e+01°)
1.02329299228075e+05	(-3.58202858217139e+01dB,-9.79185241602911e+01°)
1.03514216667934e+05	(-3.51554397524349e+01dB,-9.81870166684225e+01°)
1.04712854805090e+05	(-3.44735228017765e+01dB,-9.84737067019083e+01°)
1.05925372517729e+05	(-3.37732869359862e+01dB,-9.87806045854556e+01°)
1.07151930523761e+05	(-3.30533449418204e+01dB,-9.91100360465374e+01°)
1.08392691402120e+05	(-3.23121486380851e+01dB,-9.94647077946665e+01°)
1.09647819614319e+05	(-3.15479626133548e+01dB,-9.98477904006726e+01°)
1.10917481526240e+05	(-3.07588323399556e+01dB,-1.00263024092309e+02°)
1.12201845430196e+05	(-2.99425451568680e+01dB,-1.00714855277039e+02°)
1.13501081567232e+05	(-2.90965821262286e+01dB,-1.01208614812499e+02°)
1.14815362149688e+05	(-2.82180580950820e+01dB,-1.01750753818828e+02°)
1.16144861384034e+05	(-2.73036463563563e+01dB,-1.02349160057379e+02°)
1.17489755493953e+05	(-2.63494829839564e+01dB,-1.03013589070696e+02°)
1.18850222743702e+05	(-2.53510440453775e+01dB,-1.03756261913175e+02°)
1.20226443461741e+05	(-2.43029862237429e+01dB,-1.04592709807699e+02°)
1.21618600064637e+05	(-2.31989375626743e+01dB,-1.05542993351865e+02°)
1.23026877081238e+05	(-2.20312196349138e+01dB,-1.06633504605378e+02°)
1.24451461177139e+05	(-2.07904749850660e+01dB,-1.07899702492337e+02°)
1.25892541179417e+05	(-1.94651642452498e+01dB,-1.09390390796841e+02°)
1.27350308101666e+05	(-1.80408881391748e+01dB,-1.11174637130807e+02°)
1.28824955169314e+05	(-1.64994912174787e+01dB,-1.13353391726083e+02°)
1.30316677845230e+05	(-1.48179562579781e+01dB,-1.16079823880983e+02°)
1.31825673855641e+05	(-1.29673434823648e+01dB,-1.19596512427958e+02°)
1.33352143216333e+05	(-1.09129849504736e+01dB,-1.24306303431138e+02°)
1.34896288259166e+05	(-8.62072875845687e+00dB,-1.30910134334553e+02°)
1.36458313658893e+05	(-6.08711120256074e+00dB,-1.40658517910236e+02°)
1.38038426460289e+05	(-3.45138070947212e+00dB,-1.55620813822282e+02°)
1.39636836105594e+05	(-1.26883323039454e+00dB,-1.77764426021022e+02°)
1.41253754462276e+05	(-4.64615585457086e-01dB,1.55785094826099e+02°)
1.42889395851111e+05	(-1.04808130981375e+00dB,1.33195050992981e+02°)
1.44543977074593e+05	(-2.08233129008344e+00dB,1.17494214552436e+02°)
1.46217717445672e+05	(-2.98274621608620e+00dB,1.06713296202910e+02°)
1.47910838816821e+05	(-3.58584908705962e+00dB,9.86869055044287e+01°)
1.49623565609444e+05	(-3.87253678774075e+00dB,9.20208719664688e+01°)
1.51356124843621e+05	(-3.85242678470104e+00dB,8.57993321627852e+01°)
1.53108746168203e+05	(-3.53358485615958e+00dB,7.92759072122295e+01°)
1.54881661891248e+05	(-2.92215070231408e+00dB,7.16342256823197e+01°)
1.56675107010815e+05	(-2.04565976426440e+00dB,6.17501318424305e+01°)
1.58489319246112e+05	(-1.02931388321306e+00dB,4.79985886400559e+01°)
1.60324539069005e+05	(-2.68099743110455e-01dB,2.87573674592292e+01°)
1.62181009735893e+05	(-4.72112568271877e-01dB,5.19343777683031e+00°)
1.64058977319954e+05	(-1.93473366499545e+00dB,-1.68989069595736e+01°)
1.65958690743756e+05	(-4.07732223376131e+00dB,-3.33142929235351e+01°)
1.67880401812256e+05	(-6.30233408939878e+00dB,-4.44880166713283e+01°)
1.69824365246175e+05	(-8.37001563912919e+00dB,-5.21532943118375e+01°)
1.71790838715759e+05	(-1.02324484575231e+01dB,-5.76166817935638e+01°)
1.73780082874938e+05	(-1.19026798752187e+01dB,-6.16735012789103e+01°)
1.75792361395870e+05	(-1.34070043764165e+01dB,-6.47964037225831e+01°)
1.77827941003893e+05	(-1.47710671787994e+01dB,-6.72737337850107e+01°)
1.79887091512879e+05	(-1.60166483777482e+01dB,-6.92882381852692e+01°)
1.81970085860999e+05	(-1.71615175320279e+01dB,-7.09602710708637e+01°)
1.84077200146896e+05	(-1.82200409625629e+01dB,-7.23719322425768e+01°)
1.86208713666287e+05	(-1.92038654399374e+01dB,-7.35809995587177e+01°)
1.88364908948981e+05	(-2.01225037177040e+01dB,-7.46292613423249e+01°)
1.90546071796325e+05	(-2.09837972945828e+01dB,-7.55476734546986e+01°)
1.92752491319094e+05	(-2.17942722640162e+01dB,-7.63596538183355e+01°)
1.94984459975805e+05	(-2.25594110465031e+01dB,-7.70832484702339e+01°)
1.97242273611486e+05	(-2.32838603190780e+01dB,-7.77325930808482e+01°)
1.99526231496889e+05	(-2.39715911300776e+01dB,-7.83189223779392e+01°)
2.01836636368157e+05	(-2.46260232172294e+01dB,-7.88512821329734e+01°)
2.04173794466954e+05	(-2.52501224095134e+01dB,-7.93370409740509e+01°)
2.06538015581054e+05	(-2.58464776476935e+01dB,-7.97822646787418e+01°)
2.08929613085405e+05	(-2.64173624434447e+01dB,-8.01919942006878e+01°)
2.11348903983665e+05	(-2.69647843521818e+01dB,-8.05704551445244e+01°)
2.13796208950224e+05	(-2.74905251309366e+01dB,-8.09212176540080e+01°)
2.16271852372703e+05	(-2.79961735937347e+01dB,-8.12473199123465e+01°)
2.18776162394956e+05	(-2.84831526935032e+01dB,-8.15513645850815e+01°)
2.21309470960565e+05	(-2.89527420021944e+01dB,-8.18355948966451e+01°)
2.23872113856835e+05	(-2.94060964945465e+01dB,-8.21019552032639e+01°)
2.26464430759307e+05	(-2.98442623408595e+01dB,-8.23521396399288e+01°)
2.29086765276778e+05	(-3.02681902626474e+01dB,-8.25876315040655e+01°)
2.31739464996849e+05	(-3.06787468893293e+01dB,-8.28097353787611e+01°)
2.34422881531993e+05	(-3.10767244650913e+01dB,-8.30196035171766e+01°)
2.37137370566167e+05	(-3.14628491860146e+01dB,-8.32182576549851e+01°)
2.39883291901950e+05	(-3.18377883936460e+01dB,-8.34066071534335e+01°)
2.42661009508243e+05	(-3.22021568087810e+01dB,-8.35854641769642e+01°)
2.45470891568504e+05	(-3.25565219556563e+01dB,-8.37555564586279e+01°)
2.48313310529558e+05	(-3.29014088999920e+01dB,-8.39175380912383e+01°)
2.51188643150959e+05	(-3.32373044028831e+01dB,-8.40719986933344e+01°)
2.54097270554932e+05	(-3.35646605752418e+01dB,-8.42194712299684e+01°)
2.57039578276888e+05	(-3.38838981034756e+01dB,-8.43604387143233e+01°)
2.60015956316528e+05	(-3.41954091056541e+01dB,-8.44953399736229e+01°)
2.63026799189540e+05	(-3.44995596680568e+01dB,-8.46245746290822e+01°)
2.66072505979882e+05	(-3.47966921042853e+01dB,-8.47485074127644e+01°)
