Freq.	V(N002,N005)
1.00000000000000e+05	(-2.42636438754718e+01dB,-1.15240278968848e+02°)
1.00100100100100e+05	(-2.42150999494606e+01dB,-1.15293936669921e+02°)
1.00200200200200e+05	(-2.41665276420375e+01dB,-1.15347754169992e+02°)
1.00300300300300e+05	(-2.41179267058078e+01dB,-1.15401732346190e+02°)
1.00400400400400e+05	(-2.40692968923656e+01dB,-1.15455872082546e+02°)
1.00500500500500e+05	(-2.40206379522839e+01dB,-1.15510174270069e+02°)
1.00600600600601e+05	(-2.39719496351046e+01dB,-1.15564639806814e+02°)
1.00700700700701e+05	(-2.39232316893293e+01dB,-1.15619269597962e+02°)
1.00800800800801e+05	(-2.38744838624086e+01dB,-1.15674064555891e+02°)
1.00900900900901e+05	(-2.38257059007323e+01dB,-1.15729025600254e+02°)
1.01001001001001e+05	(-2.37768975496196e+01dB,-1.15784153658056e+02°)
1.01101101101101e+05	(-2.37280585533084e+01dB,-1.15839449663733e+02°)
1.01201201201201e+05	(-2.36791886549451e+01dB,-1.15894914559230e+02°)
1.01301301301301e+05	(-2.36302875965747e+01dB,-1.15950549294082e+02°)
1.01401401401401e+05	(-2.35813551191293e+01dB,-1.16006354825494e+02°)
1.01501501501501e+05	(-2.35323909624188e+01dB,-1.16062332118426e+02°)
1.01601601601602e+05	(-2.34833948651191e+01dB,-1.16118482145675e+02°)
1.01701701701702e+05	(-2.34343665647622e+01dB,-1.16174805887960e+02°)
1.01801801801802e+05	(-2.33853057977246e+01dB,-1.16231304334006e+02°)
1.01901901901902e+05	(-2.33362122992170e+01dB,-1.16287978480635e+02°)
1.02002002002002e+05	(-2.32870858032732e+01dB,-1.16344829332849e+02°)
1.02102102102102e+05	(-2.32379260427382e+01dB,-1.16401857903924e+02°)
1.02202202202202e+05	(-2.31887327492582e+01dB,-1.16459065215496e+02°)
1.02302302302302e+05	(-2.31395056532683e+01dB,-1.16516452297656e+02°)
1.02402402402402e+05	(-2.30902444839814e+01dB,-1.16574020189043e+02°)
1.02502502502502e+05	(-2.30409489693769e+01dB,-1.16631769936935e+02°)
1.02602602602603e+05	(-2.29916188361886e+01dB,-1.16689702597347e+02°)
1.02702702702703e+05	(-2.29422538098935e+01dB,-1.16747819235126e+02°)
1.02802802802803e+05	(-2.28928536146997e+01dB,-1.16806120924053e+02°)
1.02902902902903e+05	(-2.28434179735344e+01dB,-1.16864608746936e+02°)
1.03003003003003e+05	(-2.27939466080320e+01dB,-1.16923283795717e+02°)
1.03103103103103e+05	(-2.27444392385220e+01dB,-1.16982147171568e+02°)
1.03203203203203e+05	(-2.26948955840167e+01dB,-1.17041199985001e+02°)
1.03303303303303e+05	(-2.26453153621987e+01dB,-1.17100443355967e+02°)
1.03403403403403e+05	(-2.25956982894087e+01dB,-1.17159878413968e+02°)
1.03503503503503e+05	(-2.25460440806328e+01dB,-1.17219506298158e+02°)
1.03603603603604e+05	(-2.24963524494897e+01dB,-1.17279328157460e+02°)
1.03703703703704e+05	(-2.24466231082183e+01dB,-1.17339345150670e+02°)
1.03803803803804e+05	(-2.23968557676642e+01dB,-1.17399558446574e+02°)
1.03903903903904e+05	(-2.23470501372673e+01dB,-1.17459969224059e+02°)
1.04004004004004e+05	(-2.22972059250482e+01dB,-1.17520578672233e+02°)
1.04104104104104e+05	(-2.22473228375950e+01dB,-1.17581387990536e+02°)
1.04204204204204e+05	(-2.21974005800504e+01dB,-1.17642398388862e+02°)
1.04304304304304e+05	(-2.21474388560974e+01dB,-1.17703611087680e+02°)
1.04404404404404e+05	(-2.20974373679466e+01dB,-1.17765027318157e+02°)
1.04504504504504e+05	(-2.20473958163217e+01dB,-1.17826648322279e+02°)
1.04604604604605e+05	(-2.19973139004460e+01dB,-1.17888475352976e+02°)
1.04704704704705e+05	(-2.19471913180285e+01dB,-1.17950509674257e+02°)
1.04804804804805e+05	(-2.18970277652496e+01dB,-1.18012752561327e+02°)
1.04904904904905e+05	(-2.18468229367469e+01dB,-1.18075205300731e+02°)
1.05005005005005e+05	(-2.17965765256011e+01dB,-1.18137869190478e+02°)
1.05105105105105e+05	(-2.17462882233210e+01dB,-1.18200745540177e+02°)
1.05205205205205e+05	(-2.16959577198296e+01dB,-1.18263835671180e+02°)
1.05305305305305e+05	(-2.16455847034485e+01dB,-1.18327140916713e+02°)
1.05405405405405e+05	(-2.15951688608839e+01dB,-1.18390662622021e+02°)
1.05505505505505e+05	(-2.15447098772110e+01dB,-1.18454402144510e+02°)
1.05605605605606e+05	(-2.14942074358589e+01dB,-1.18518360853893e+02°)
1.05705705705706e+05	(-2.14436612185958e+01dB,-1.18582540132334e+02°)
1.05805805805806e+05	(-2.13930709055130e+01dB,-1.18646941374601e+02°)
1.05905905905906e+05	(-2.13424361750095e+01dB,-1.18711565988214e+02°)
1.06006006006006e+05	(-2.12917567037767e+01dB,-1.18776415393600e+02°)
1.06106106106106e+05	(-2.12410321667821e+01dB,-1.18841491024250e+02°)
1.06206206206206e+05	(-2.11902622372535e+01dB,-1.18906794326876e+02°)
1.06306306306306e+05	(-2.11394465866629e+01dB,-1.18972326761569e+02°)
1.06406406406406e+05	(-2.10885848847102e+01dB,-1.19038089801966e+02°)
1.06506506506506e+05	(-2.10376767993069e+01dB,-1.19104084935412e+02°)
1.06606606606607e+05	(-2.09867219965593e+01dB,-1.19170313663132e+02°)
1.06706706706707e+05	(-2.09357201407523e+01dB,-1.19236777500394e+02°)
1.06806806806807e+05	(-2.08846708943318e+01dB,-1.19303477976688e+02°)
1.06906906906907e+05	(-2.08335739178883e+01dB,-1.19370416635899e+02°)
1.07007007007007e+05	(-2.07824288701397e+01dB,-1.19437595036486e+02°)
1.07107107107107e+05	(-2.07312354079138e+01dB,-1.19505014751658e+02°)
1.07207207207207e+05	(-2.06799931861306e+01dB,-1.19572677369566e+02°)
1.07307307307307e+05	(-2.06287018577856e+01dB,-1.19640584493479e+02°)
1.07407407407407e+05	(-2.05773610739308e+01dB,-1.19708737741982e+02°)
1.07507507507507e+05	(-2.05259704836579e+01dB,-1.19777138749160e+02°)
1.07607607607607e+05	(-2.04745297340794e+01dB,-1.19845789164799e+02°)
1.07707707707708e+05	(-2.04230384703108e+01dB,-1.19914690654579e+02°)
1.07807807807808e+05	(-2.03714963354520e+01dB,-1.19983844900279e+02°)
1.07907907907908e+05	(-2.03199029705691e+01dB,-1.20053253599975e+02°)
1.08008008008008e+05	(-2.02682580146749e+01dB,-1.20122918468252e+02°)
1.08108108108108e+05	(-2.02165611047108e+01dB,-1.20192841236412e+02°)
1.08208208208208e+05	(-2.01648118755274e+01dB,-1.20263023652688e+02°)
1.08308308308308e+05	(-2.01130099598651e+01dB,-1.20333467482459e+02°)
1.08408408408408e+05	(-2.00611549883350e+01dB,-1.20404174508471e+02°)
1.08508508508508e+05	(-2.00092465893993e+01dB,-1.20475146531060e+02°)
1.08608608608608e+05	(-1.99572843893514e+01dB,-1.20546385368382e+02°)
1.08708708708709e+05	(-1.99052680122961e+01dB,-1.20617892856636e+02°)
1.08808808808809e+05	(-1.98531970801295e+01dB,-1.20689670850305e+02°)
1.08908908908909e+05	(-1.98010712125187e+01dB,-1.20761721222392e+02°)
1.09009009009009e+05	(-1.97488900268816e+01dB,-1.20834045864658e+02°)
1.09109109109109e+05	(-1.96966531383659e+01dB,-1.20906646687871e+02°)
1.09209209209209e+05	(-1.96443601598287e+01dB,-1.20979525622054e+02°)
1.09309309309309e+05	(-1.95920107018154e+01dB,-1.21052684616738e+02°)
1.09409409409409e+05	(-1.95396043725383e+01dB,-1.21126125641218e+02°)
1.09509509509509e+05	(-1.94871407778560e+01dB,-1.21199850684815e+02°)
1.09609609609609e+05	(-1.94346195212510e+01dB,-1.21273861757141e+02°)
1.09709709709710e+05	(-1.93820402038087e+01dB,-1.21348160888369e+02°)
1.09809809809810e+05	(-1.93294024241953e+01dB,-1.21422750129507e+02°)
1.09909909909910e+05	(-1.92767057786359e+01dB,-1.21497631552674e+02°)
1.10010010010010e+05	(-1.92239498608919e+01dB,-1.21572807251388e+02°)
1.10110110110110e+05	(-1.91711342622391e+01dB,-1.21648279340846e+02°)
1.10210210210210e+05	(-1.91182585714447e+01dB,-1.21724049958222e+02°)
1.10310310310310e+05	(-1.90653223747450e+01dB,-1.21800121262960e+02°)
1.10410410410410e+05	(-1.90123252558218e+01dB,-1.21876495437079e+02°)
1.10510510510510e+05	(-1.89592667957798e+01dB,-1.21953174685475e+02°)
1.10610610610610e+05	(-1.89061465731230e+01dB,-1.22030161236237e+02°)
1.10710710710711e+05	(-1.88529641637315e+01dB,-1.22107457340959e+02°)
1.10810810810811e+05	(-1.87997191408372e+01dB,-1.22185065275066e+02°)
1.10910910910911e+05	(-1.87464110750006e+01dB,-1.22262987338138e+02°)
1.11011011011011e+05	(-1.86930395340861e+01dB,-1.22341225854244e+02°)
1.11111111111111e+05	(-1.86396040832383e+01dB,-1.22419783172280e+02°)
1.11211211211211e+05	(-1.85861042848573e+01dB,-1.22498661666310e+02°)
1.11311311311311e+05	(-1.85325396985738e+01dB,-1.22577863735919e+02°)
1.11411411411411e+05	(-1.84789098812247e+01dB,-1.22657391806566e+02°)
1.11511511511511e+05	(-1.84252143868279e+01dB,-1.22737248329944e+02°)
1.11611611611611e+05	(-1.83714527665572e+01dB,-1.22817435784351e+02°)
1.11711711711712e+05	(-1.83176245687167e+01dB,-1.22897956675057e+02°)
1.11811811811812e+05	(-1.82637293387153e+01dB,-1.22978813534690e+02°)
1.11911911911912e+05	(-1.82097666190413e+01dB,-1.23060008923616e+02°)
1.12012012012012e+05	(-1.81557359492360e+01dB,-1.23141545430338e+02°)
1.12112112112112e+05	(-1.81016368658678e+01dB,-1.23223425671887e+02°)
1.12212212212212e+05	(-1.80474689025056e+01dB,-1.23305652294236e+02°)
1.12312312312312e+05	(-1.79932315896931e+01dB,-1.23388227972706e+02°)
1.12412412412412e+05	(-1.79389244549210e+01dB,-1.23471155412389e+02°)
1.12512512512512e+05	(-1.78845470226012e+01dB,-1.23554437348577e+02°)
1.12612612612612e+05	(-1.78300988140392e+01dB,-1.23638076547192e+02°)
1.12712712712713e+05	(-1.77755793474069e+01dB,-1.23722075805229e+02°)
1.12812812812813e+05	(-1.77209881377155e+01dB,-1.23806437951208e+02°)
1.12912912912913e+05	(-1.76663246967877e+01dB,-1.23891165845627e+02°)
1.13013013013013e+05	(-1.76115885332302e+01dB,-1.23976262381433e+02°)
1.13113113113113e+05	(-1.75567791524058e+01dB,-1.24061730484486e+02°)
1.13213213213213e+05	(-1.75018960564050e+01dB,-1.24147573114051e+02°)
1.13313313313313e+05	(-1.74469387440183e+01dB,-1.24233793263280e+02°)
1.13413413413413e+05	(-1.73919067107073e+01dB,-1.24320393959713e+02°)
1.13513513513513e+05	(-1.73367994485768e+01dB,-1.24407378265786e+02°)
1.13613613613613e+05	(-1.72816164463456e+01dB,-1.24494749279344e+02°)
1.13713713713714e+05	(-1.72263571893177e+01dB,-1.24582510134170e+02°)
1.13813813813814e+05	(-1.71710211593536e+01dB,-1.24670664000517e+02°)
1.13913913913914e+05	(-1.71156078348410e+01dB,-1.24759214085652e+02°)
1.14014014014014e+05	(-1.70601166906656e+01dB,-1.24848163634409e+02°)
1.14114114114114e+05	(-1.70045471981815e+01dB,-1.24937515929754e+02°)
1.14214214214214e+05	(-1.69488988251822e+01dB,-1.25027274293358e+02°)
1.14314314314314e+05	(-1.68931710358701e+01dB,-1.25117442086176e+02°)
1.14414414414414e+05	(-1.68373632908276e+01dB,-1.25208022709051e+02°)
1.14514514514514e+05	(-1.67814750469866e+01dB,-1.25299019603307e+02°)
1.14614614614614e+05	(-1.67255057575989e+01dB,-1.25390436251373e+02°)
1.14714714714715e+05	(-1.66694548722059e+01dB,-1.25482276177407e+02°)
1.14814814814815e+05	(-1.66133218366084e+01dB,-1.25574542947933e+02°)
1.14914914914915e+05	(-1.65571060928364e+01dB,-1.25667240172492e+02°)
1.15015015015015e+05	(-1.65008070791188e+01dB,-1.25760371504303e+02°)
1.15115115115115e+05	(-1.64444242298527e+01dB,-1.25853940640936e+02°)
1.15215215215215e+05	(-1.63879569755734e+01dB,-1.25947951324998e+02°)
1.15315315315315e+05	(-1.63314047429231e+01dB,-1.26042407344833e+02°)
1.15415415415415e+05	(-1.62747669546213e+01dB,-1.26137312535228e+02°)
1.15515515515515e+05	(-1.62180430294332e+01dB,-1.26232670778144e+02°)
1.15615615615615e+05	(-1.61612323821396e+01dB,-1.26328486003448e+02°)
1.15715715715715e+05	(-1.61043344235061e+01dB,-1.26424762189668e+02°)
1.15815815815816e+05	(-1.60473485602522e+01dB,-1.26521503364754e+02°)
1.15915915915916e+05	(-1.59902741950211e+01dB,-1.26618713606862e+02°)
1.16016016016016e+05	(-1.59331107263485e+01dB,-1.26716397045143e+02°)
1.16116116116116e+05	(-1.58758575486322e+01dB,-1.26814557860555e+02°)
1.16216216216216e+05	(-1.58185140521018e+01dB,-1.26913200286685e+02°)
1.16316316316316e+05	(-1.57610796227877e+01dB,-1.27012328610588e+02°)
1.16416416416416e+05	(-1.57035536424907e+01dB,-1.27111947173643e+02°)
1.16516516516516e+05	(-1.56459354887521e+01dB,-1.27212060372421e+02°)
1.16616616616616e+05	(-1.55882245348229e+01dB,-1.27312672659577e+02°)
1.16716716716716e+05	(-1.55304201496339e+01dB,-1.27413788544749e+02°)
1.16816816816817e+05	(-1.54725216977656e+01dB,-1.27515412595484e+02°)
1.16916916916917e+05	(-1.54145285394187e+01dB,-1.27617549438171e+02°)
1.17017017017017e+05	(-1.53564400303837e+01dB,-1.27720203759003e+02°)
1.17117117117117e+05	(-1.52982555220123e+01dB,-1.27823380304949e+02°)
1.17217217217217e+05	(-1.52399743611875e+01dB,-1.27927083884747e+02°)
1.17317317317317e+05	(-1.51815958902949e+01dB,-1.28031319369918e+02°)
1.17417417417417e+05	(-1.51231194471938e+01dB,-1.28136091695798e+02°)
1.17517517517517e+05	(-1.50645443651890e+01dB,-1.28241405862586e+02°)
1.17617617617617e+05	(-1.50058699730021e+01dB,-1.28347266936421e+02°)
1.17717717717717e+05	(-1.49470955947444e+01dB,-1.28453680050472e+02°)
1.17817817817818e+05	(-1.48882205498889e+01dB,-1.28560650406051e+02°)
1.17917917917918e+05	(-1.48292441532437e+01dB,-1.28668183273752e+02°)
1.18018018018018e+05	(-1.47701657149248e+01dB,-1.28776283994604e+02°)
1.18118118118118e+05	(-1.47109845403307e+01dB,-1.28884957981253e+02°)
1.18218218218218e+05	(-1.46516999301160e+01dB,-1.28994210719167e+02°)
1.18318318318318e+05	(-1.45923111801668e+01dB,-1.29104047767861e+02°)
1.18418418418418e+05	(-1.45328175815758e+01dB,-1.29214474762145e+02°)
1.18518518518518e+05	(-1.44732184206184e+01dB,-1.29325497413405e+02°)
1.18618618618618e+05	(-1.44135129787295e+01dB,-1.29437121510899e+02°)
1.18718718718718e+05	(-1.43537005324804e+01dB,-1.29549352923084e+02°)
1.18818818818819e+05	(-1.42937803535576e+01dB,-1.29662197598969e+02°)
1.18918918918919e+05	(-1.42337517087407e+01dB,-1.29775661569493e+02°)
1.19019019019019e+05	(-1.41736138598829e+01dB,-1.29889750948933e+02°)
1.19119119119119e+05	(-1.41133660638909e+01dB,-1.30004471936336e+02°)
1.19219219219219e+05	(-1.40530075727064e+01dB,-1.30119830816984e+02°)
1.19319319319319e+05	(-1.39925376332886e+01dB,-1.30235833963885e+02°)
1.19419419419419e+05	(-1.39319554875976e+01dB,-1.30352487839296e+02°)
1.19519519519519e+05	(-1.38712603725785e+01dB,-1.30469798996274e+02°)
1.19619619619619e+05	(-1.38104515201477e+01dB,-1.30587774080261e+02°)
1.19719719719719e+05	(-1.37495281571787e+01dB,-1.30706419830697e+02°)
1.19819819819820e+05	(-1.36884895054908e+01dB,-1.30825743082672e+02°)
1.19919919919920e+05	(-1.36273347818385e+01dB,-1.30945750768604e+02°)
1.20020020020020e+05	(-1.35660631979017e+01dB,-1.31066449919956e+02°)
1.20120120120120e+05	(-1.35046739602786e+01dB,-1.31187847668984e+02°)
1.20220220220220e+05	(-1.34431662704790e+01dB,-1.31309951250525e+02°)
1.20320320320320e+05	(-1.33815393249198e+01dB,-1.31432768003818e+02°)
1.20420420420420e+05	(-1.33197923149223e+01dB,-1.31556305374360e+02°)
1.20520520520520e+05	(-1.32579244267106e+01dB,-1.31680570915809e+02°)
1.20620620620620e+05	(-1.31959348414131e+01dB,-1.31805572291911e+02°)
1.20720720720720e+05	(-1.31338227350648e+01dB,-1.31931317278483e+02°)
1.20820820820821e+05	(-1.30715872786120e+01dB,-1.32057813765425e+02°)
1.20920920920921e+05	(-1.30092276379198e+01dB,-1.32185069758776e+02°)
1.21021021021021e+05	(-1.29467429737808e+01dB,-1.32313093382814e+02°)
1.21121121121121e+05	(-1.28841324419275e+01dB,-1.32441892882199e+02°)
1.21221221221221e+05	(-1.28213951930458e+01dB,-1.32571476624160e+02°)
1.21321321321321e+05	(-1.27585303727921e+01dB,-1.32701853100722e+02°)
1.21421421421421e+05	(-1.26955371218131e+01dB,-1.32833030930990e+02°)
1.21521521521521e+05	(-1.26324145757678e+01dB,-1.32965018863471e+02°)
1.21621621621621e+05	(-1.25691618653534e+01dB,-1.33097825778443e+02°)
1.21721721721721e+05	(-1.25057781163335e+01dB,-1.33231460690384e+02°)
1.21821821821822e+05	(-1.24422624495706e+01dB,-1.33365932750438e+02°)
1.21921921921922e+05	(-1.23786139810608e+01dB,-1.33501251248945e+02°)
1.22022022022022e+05	(-1.23148318219734e+01dB,-1.33637425618010e+02°)
1.22122122122122e+05	(-1.22509150786933e+01dB,-1.33774465434137e+02°)
1.22222222222222e+05	(-1.21868628528680e+01dB,-1.33912380420914e+02°)
1.22322322322322e+05	(-1.21226742414582e+01dB,-1.34051180451752e+02°)
1.22422422422422e+05	(-1.20583483367935e+01dB,-1.34190875552681e+02°)
1.22522522522522e+05	(-1.19938842266313e+01dB,-1.34331475905210e+02°)
1.22622622622622e+05	(-1.19292809942221e+01dB,-1.34472991849241e+02°)
1.22722722722722e+05	(-1.18645377183783e+01dB,-1.34615433886044e+02°)
1.22822822822822e+05	(-1.17996534735491e+01dB,-1.34758812681298e+02°)
1.22922922922923e+05	(-1.17346273299000e+01dB,-1.34903139068194e+02°)
1.23023023023023e+05	(-1.16694583533987e+01dB,-1.35048424050602e+02°)
1.23123123123123e+05	(-1.16041456059061e+01dB,-1.35194678806304e+02°)
1.23223223223223e+05	(-1.15386881452743e+01dB,-1.35341914690296e+02°)
1.23323323323323e+05	(-1.14730850254502e+01dB,-1.35490143238161e+02°)
1.23423423423423e+05	(-1.14073352965862e+01dB,-1.35639376169508e+02°)
1.23523523523523e+05	(-1.13414380051577e+01dB,-1.35789625391485e+02°)
1.23623623623623e+05	(-1.12753921940879e+01dB,-1.35940903002372e+02°)
1.23723723723723e+05	(-1.12091969028805e+01dB,-1.36093221295234e+02°)
1.23823823823823e+05	(-1.11428511677598e+01dB,-1.36246592761668e+02°)
1.23923923923924e+05	(-1.10763540218196e+01dB,-1.36401030095619e+02°)
1.24024024024024e+05	(-1.10097044951802e+01dB,-1.36556546197272e+02°)
1.24124124124124e+05	(-1.09429016151546e+01dB,-1.36713154177037e+02°)
1.24224224224224e+05	(-1.08759444064247e+01dB,-1.36870867359607e+02°)
1.24324324324324e+05	(-1.08088318912261e+01dB,-1.37029699288106e+02°)
1.24424424424424e+05	(-1.07415630895439e+01dB,-1.37189663728322e+02°)
1.24524524524524e+05	(-1.06741370193195e+01dB,-1.37350774673027e+02°)
1.24624624624624e+05	(-1.06065526966674e+01dB,-1.37513046346389e+02°)
1.24724724724724e+05	(-1.05388091361043e+01dB,-1.37676493208474e+02°)
1.24824824824824e+05	(-1.04709053507906e+01dB,-1.37841129959843e+02°)
1.24924924924925e+05	(-1.04028403527836e+01dB,-1.38006971546241e+02°)
1.25025025025025e+05	(-1.03346131533044e+01dB,-1.38174033163386e+02°)
1.25125125125125e+05	(-1.02662227630187e+01dB,-1.38342330261858e+02°)
1.25225225225225e+05	(-1.01976681923310e+01dB,-1.38511878552079e+02°)
1.25325325325325e+05	(-1.01289484516947e+01dB,-1.38682694009412e+02°)
1.25425425425425e+05	(-1.00600625519368e+01dB,-1.38854792879345e+02°)
1.25525525525525e+05	(-9.99100950459973e+00dB,-1.39028191682796e+02°)
1.25625625625625e+05	(-9.92178832229877e+00dB,-1.39202907221518e+02°)
1.25725725725725e+05	(-9.85239801909822e+00dB,-1.39378956583617e+02°)
1.25825825825825e+05	(-9.78283761090512e+00dB,-1.39556357149177e+02°)
1.25925925925926e+05	(-9.71310611588237e+00dB,-1.39735126596001e+02°)
1.26026026026026e+05	(-9.64320255488140e+00dB,-1.39915282905470e+02°)
1.26126126126126e+05	(-9.57312595189582e+00dB,-1.40096844368511e+02°)
1.26226226226226e+05	(-9.50287533453653e+00dB,-1.40279829591690e+02°)
1.26326326326326e+05	(-9.43244973452911e+00dB,-1.40464257503422e+02°)
1.26426426426426e+05	(-9.36184818823494e+00dB,-1.40650147360303e+02°)
1.26526526526526e+05	(-9.29106973719627e+00dB,-1.40837518753567e+02°)
1.26626626626626e+05	(-9.22011342870707e+00dB,-1.41026391615663e+02°)
1.26726726726726e+05	(-9.14897831640999e+00dB,-1.41216786226967e+02°)
1.26826826826826e+05	(-9.07766346092107e+00dB,-1.41408723222611e+02°)
1.26926926926927e+05	(-9.00616793048300e+00dB,-1.41602223599455e+02°)
1.27027027027027e+05	(-8.93449080164828e+00dB,-1.41797308723173e+02°)
1.27127127127127e+05	(-8.86263115999350e+00dB,-1.41994000335488e+02°)
1.27227227227227e+05	(-8.79058810086586e+00dB,-1.42192320561524e+02°)
1.27327327327327e+05	(-8.71836073016368e+00dB,-1.42392291917308e+02°)
1.27427427427427e+05	(-8.64594816515161e+00dB,-1.42593937317393e+02°)
1.27527527527527e+05	(-8.57334953531276e+00dB,-1.42797280082625e+02°)
1.27627627627627e+05	(-8.50056398323863e+00dB,-1.43002343948047e+02°)
1.27727727727727e+05	(-8.42759066555866e+00dB,-1.43209153070931e+02°)
1.27827827827827e+05	(-8.35442875391102e+00dB,-1.43417732038960e+02°)
1.27927927927928e+05	(-8.28107743595633e+00dB,-1.43628105878537e+02°)
1.28028028028028e+05	(-8.20753591643590e+00dB,-1.43840300063238e+02°)
