time	I(Ls1)	I(Ls2)
0.000000000000000e+00	-3.770859e+00	-3.114371e+00
2.499999999985154e-08	-3.834216e+00	-3.163498e+00
4.999999999970308e-08	-3.895581e+00	-3.210947e+00
7.499999999955462e-08	-3.954954e+00	-3.256719e+00
9.999999999940616e-08	-4.012336e+00	-3.300814e+00
1.249999999992577e-07	-4.067725e+00	-3.343232e+00
1.499999999991092e-07	-4.121123e+00	-3.383973e+00
1.749999999989607e-07	-4.172528e+00	-3.423037e+00
1.892857142845902e-07	-4.200811e+00	-3.444430e+00
2.035714285702196e-07	-4.228310e+00	-3.465154e+00
2.178571428558491e-07	-4.255024e+00	-3.485211e+00
2.321428571414785e-07	-4.280954e+00	-3.504600e+00
2.464285714271080e-07	-4.306099e+00	-3.523321e+00
2.607142857127374e-07	-4.330460e+00	-3.541374e+00
2.749999999983668e-07	-4.354037e+00	-3.558760e+00
2.949999999982481e-07	-4.385604e+00	-3.581866e+00
3.092857142838775e-07	-4.407167e+00	-3.597530e+00
3.235714285695070e-07	-4.427842e+00	-3.612433e+00
3.378571428551364e-07	-4.447628e+00	-3.626574e+00
3.521428571407659e-07	-4.466527e+00	-3.639954e+00
3.664285714263953e-07	-4.484537e+00	-3.652573e+00
3.807142857120247e-07	-4.501659e+00	-3.664430e+00
3.949999999976542e-07	-4.517893e+00	-3.675525e+00
4.149999999975354e-07	-4.539019e+00	-3.689681e+00
4.307142857117278e-07	-4.554355e+00	-3.699719e+00
4.464285714259202e-07	-4.568503e+00	-3.708732e+00
4.621428571401126e-07	-4.581461e+00	-3.716722e+00
4.778571428543050e-07	-4.593230e+00	-3.723686e+00
4.935714285684973e-07	-4.603811e+00	-3.729626e+00
5.092857142826898e-07	-4.613202e+00	-3.734542e+00
5.249999999968821e-07	-4.621405e+00	-3.738433e+00
5.707142857108964e-07	-4.638652e+00	-3.744059e+00
6.164285714249106e-07	-4.644616e+00	-3.739913e+00
6.621428571389249e-07	-4.639298e+00	-3.725997e+00
7.078571428529391e-07	-4.622696e+00	-3.702309e+00
7.535714285669533e-07	-4.594811e+00	-3.668850e+00
7.992857142809676e-07	-4.555644e+00	-3.625620e+00
8.449999999949817e-07	-4.505193e+00	-3.572619e+00
8.721428571376777e-07	-4.469380e+00	-3.536059e+00
8.992857142803736e-07	-4.429349e+00	-3.495840e+00
9.264285714230696e-07	-4.385101e+00	-3.451963e+00
9.535714285657656e-07	-4.336636e+00	-3.404427e+00
9.807142857084616e-07	-4.283953e+00	-3.353232e+00
1.007857142851157e-06	-4.227052e+00	-3.298379e+00
1.034999999993853e-06	-4.165934e+00	-3.239867e+00
1.044999999993794e-06	-4.142349e+00	-3.217384e+00
1.054999999993735e-06	-4.118192e+00	-3.194406e+00
1.064999999993675e-06	-4.093463e+00	-3.170932e+00
1.074999999993616e-06	-4.068163e+00	-3.146963e+00
1.094999999993497e-06	-4.015854e+00	-3.097543e+00
1.124999999993319e-06	-3.933126e+00	-3.019721e+00
1.162142857135955e-06	-3.823393e+00	-2.917024e+00
1.199285714278592e-06	-3.706169e+00	-2.807861e+00
1.236428571421229e-06	-3.581455e+00	-2.692234e+00
1.273571428563865e-06	-3.449249e+00	-2.570141e+00
1.310714285706502e-06	-3.309553e+00	-2.441584e+00
1.347857142849138e-06	-3.162365e+00	-2.306561e+00
1.384999999991775e-06	-3.007687e+00	-2.165073e+00
1.394999999991715e-06	-2.964915e+00	-2.126017e+00
1.404999999991656e-06	-2.921636e+00	-2.086525e+00
1.424999999991537e-06	-2.833574e+00	-2.006253e+00
1.454999999991359e-06	-2.697769e+00	-1.882664e+00
1.500714285705373e-06	-2.481330e+00	-1.686137e+00
1.546428571419388e-06	-2.256235e+00	-1.482310e+00
1.592142857133402e-06	-2.022484e+00	-1.271183e+00
1.637857142847416e-06	-1.780076e+00	-1.052755e+00
1.683571428561430e-06	-1.529011e+00	-8.270276e-01
1.729285714275444e-06	-1.269290e+00	-5.939998e-01
1.774999999989459e-06	-1.000913e+00	-3.536717e-01
1.783571428560836e-06	-9.500224e-01	-3.081617e-01
1.792142857132214e-06	-8.989071e-01	-2.624698e-01
1.800714285703592e-06	-8.475675e-01	-2.165962e-01
1.809285714274969e-06	-7.960034e-01	-1.705408e-01
1.817857142846347e-06	-7.442150e-01	-1.243036e-01
1.826428571417725e-06	-6.922020e-01	-7.788465e-02
1.834999999989102e-06	-6.399647e-01	-3.128392e-02
1.840645863474162e-06	-6.058769e-01	-2.531245e-03
1.844735304496522e-06	-5.818444e-01	1.486497e-02
1.844742572553989e-06	-5.818037e-01	1.488620e-02
1.859323324181026e-06	-5.021613e-01	4.548280e-02
1.873904075808064e-06	-4.219774e-01	7.654820e-02
1.888484827435101e-06	-3.412521e-01	1.080824e-01
1.903065579062139e-06	-2.599852e-01	1.400854e-01
1.917646330689176e-06	-1.781768e-01	1.725572e-01
1.932227082316214e-06	-9.582699e-02	2.054978e-01
1.946807833943251e-06	-1.293563e-02	2.389072e-01
1.948884910951253e-06	-1.091258e-03	2.437048e-01
1.948954883023010e-06	-6.941140e-04	2.438662e-01
1.949094827166740e-06	8.391686e-05	2.441857e-01
1.949177367931978e-06	5.032283e-04	2.443661e-01
1.949261082181053e-06	8.615266e-04	2.445354e-01
1.949297447983132e-06	9.897554e-04	2.446033e-01
1.949298019586444e-06	9.914984e-04	2.446043e-01
1.949299162793067e-06	9.948257e-04	2.446063e-01
1.949315167687309e-06	1.039608e-03	2.446338e-01
1.949333458995013e-06	1.087249e-03	2.446645e-01
1.949356829760189e-06	1.144953e-03	2.447031e-01
1.949357519861810e-06	1.146585e-03	2.447042e-01
1.949358900064837e-06	1.149777e-03	2.447064e-01
1.949383743720429e-06	1.207231e-03	2.447466e-01
1.949408587376022e-06	1.264687e-03	2.447867e-01
1.949433431031614e-06	1.322143e-03	2.448269e-01
1.949458274687207e-06	1.379599e-03	2.448670e-01
1.949483118342800e-06	1.437057e-03	2.449072e-01
1.949507961998392e-06	1.494516e-03	2.449474e-01
1.949532805653985e-06	1.551975e-03	2.449875e-01
1.949709471649186e-06	1.960607e-03	2.452731e-01
1.950062803639805e-06	2.778061e-03	2.458446e-01
1.950769467621042e-06	4.413853e-03	2.469884e-01
1.952182795583518e-06	7.689365e-03	2.492801e-01
1.955009451508252e-06	1.425712e-02	2.538792e-01
1.960662763357936e-06	2.745759e-02	2.631369e-01
1.970662763357877e-06	5.097417e-02	2.796638e-01
1.980662763357817e-06	7.470019e-02	2.963794e-01
1.990662763357758e-06	9.866095e-02	3.133058e-01
2.000662763357699e-06	1.228554e-01	3.304419e-01
2.010662763357639e-06	1.472820e-01	3.477862e-01
2.020662763357580e-06	1.719390e-01	3.653375e-01
2.030662763357520e-06	1.968246e-01	3.830941e-01
2.040662763357461e-06	2.219367e-01	4.010546e-01
2.050662763357402e-06	2.472733e-01	4.192173e-01
2.060662763357342e-06	2.728323e-01	4.375806e-01
2.070662763357283e-06	2.986115e-01	4.561427e-01
2.080662763357223e-06	3.246085e-01	4.749019e-01
2.090662763357164e-06	3.508211e-01	4.938564e-01
2.100662763357105e-06	3.772470e-01	5.130042e-01
2.110662763357045e-06	4.038835e-01	5.323436e-01
2.120662763356986e-06	4.307284e-01	5.518725e-01
2.130662763356926e-06	4.577789e-01	5.715889e-01
2.140662763356867e-06	4.850324e-01	5.914906e-01
2.150662763356808e-06	5.124865e-01	6.115757e-01
2.160662763356748e-06	5.401382e-01	6.318419e-01
2.170662763356689e-06	5.679848e-01	6.522871e-01
2.180662763356630e-06	5.960236e-01	6.729088e-01
2.190662763356570e-06	6.242516e-01	6.937050e-01
2.200662763356511e-06	6.526660e-01	7.146732e-01
2.210662763356451e-06	6.812637e-01	7.358109e-01
2.220662763356392e-06	7.100418e-01	7.571157e-01
2.240662763356273e-06	7.681267e-01	8.002169e-01
2.260662763356154e-06	8.268955e-01	8.439559e-01
2.280662763356036e-06	8.863224e-01	8.883118e-01
2.300662763355917e-06	9.463809e-01	9.332625e-01
2.330662763355739e-06	1.037593e+00	1.001754e+00
2.360662763355561e-06	1.130068e+00	1.071453e+00
2.390662763355382e-06	1.223708e+00	1.142277e+00
2.420662763355204e-06	1.318411e+00	1.214140e+00
2.466377049069219e-06	1.465589e+00	1.326359e+00
2.512091334783233e-06	1.613547e+00	1.439546e+00
2.557805620497247e-06	1.762287e+00	1.553703e+00
2.603519906211261e-06	1.911807e+00	1.668828e+00
2.649234191925276e-06	2.062107e+00	1.784923e+00
2.694948477639289e-06	2.213189e+00	1.901987e+00
2.740662763353304e-06	2.365051e+00	2.020019e+00
2.756377049067496e-06	2.416767e+00	2.060239e+00
2.772091334781688e-06	2.468321e+00	2.100352e+00
2.787805620495881e-06	2.519714e+00	2.140359e+00
2.803519906210073e-06	2.570945e+00	2.180259e+00
2.819234191924266e-06	2.622015e+00	2.220052e+00
2.834948477638458e-06	2.672923e+00	2.259740e+00
2.850662763352651e-06	2.723670e+00	2.299320e+00
2.870662763352532e-06	2.787858e+00	2.349397e+00
2.900662763352354e-06	2.883702e+00	2.424236e+00
2.930662763352175e-06	2.978125e+00	2.497951e+00
2.960662763351997e-06	3.071126e+00	2.570543e+00
2.990662763351819e-06	3.162706e+00	2.642010e+00
3.020662763351641e-06	3.252864e+00	2.712355e+00
3.050662763351463e-06	3.341601e+00	2.781575e+00
3.080662763351285e-06	3.428917e+00	2.849672e+00
3.099234191922603e-06	3.481885e+00	2.890934e+00
3.117805620493921e-06	3.534004e+00	2.931494e+00
3.136377049065240e-06	3.585276e+00	2.971354e+00
3.154948477636558e-06	3.635698e+00	3.010513e+00
3.173519906207876e-06	3.685273e+00	3.048971e+00
3.192091334779195e-06	3.733999e+00	3.086729e+00
3.210662763350513e-06	3.781876e+00	3.123785e+00
3.224948477636142e-06	3.818025e+00	3.151721e+00
3.239234191921772e-06	3.853554e+00	3.179137e+00
3.253519906207401e-06	3.888462e+00	3.206032e+00
3.267805620493030e-06	3.922750e+00	3.232406e+00
3.282091334778660e-06	3.956417e+00	3.258260e+00
3.296377049064289e-06	3.989465e+00	3.283593e+00
3.310662763349919e-06	4.021892e+00	3.308406e+00
3.340662763349741e-06	4.087714e+00	3.358590e+00
3.359234191921059e-06	4.126997e+00	3.388422e+00
3.377805620492377e-06	4.164994e+00	3.417161e+00
3.396377049063695e-06	4.201705e+00	3.444807e+00
3.414948477635014e-06	4.237131e+00	3.471360e+00
3.433519906206332e-06	4.271270e+00	3.496820e+00
3.452091334777650e-06	4.304123e+00	3.521186e+00
3.470662763348968e-06	4.335690e+00	3.544460e+00
3.490662763348850e-06	4.368056e+00	3.568130e+00
3.516377049062983e-06	4.407420e+00	3.596647e+00
3.542091334777116e-06	4.443830e+00	3.622630e+00
3.567805620491249e-06	4.477287e+00	3.646078e+00
3.593519906205382e-06	4.507792e+00	3.666992e+00
3.619234191919515e-06	4.535343e+00	3.685371e+00
3.644948477633648e-06	4.559941e+00	3.701216e+00
3.670662763347781e-06	4.581587e+00	3.714527e+00
3.693519906204788e-06	4.598113e+00	3.724019e+00
3.716377049061795e-06	4.612000e+00	3.731233e+00
3.739234191918802e-06	4.623249e+00	3.736169e+00
3.762091334775809e-06	4.631859e+00	3.738828e+00
3.784948477632816e-06	4.637830e+00	3.739209e+00
3.807805620489823e-06	4.641163e+00	3.737312e+00
3.830662763346830e-06	4.641857e+00	3.733137e+00
3.890662763346474e-06	4.630952e+00	3.711178e+00
3.950662763346118e-06	4.599799e+00	3.671670e+00
4.010662763345762e-06	4.548397e+00	3.614614e+00
4.070662763345405e-06	4.476747e+00	3.540009e+00
4.130662763345049e-06	4.384848e+00	3.447856e+00
4.190662763344693e-06	4.272701e+00	3.338154e+00
4.250662763344336e-06	4.140306e+00	3.210903e+00
4.297805620486914e-06	4.021035e+00	3.097679e+00
4.344948477629490e-06	3.889522e+00	2.973885e+00
4.392091334772068e-06	3.745766e+00	2.839522e+00
4.439234191914645e-06	3.589768e+00	2.694590e+00
4.486377049057222e-06	3.421528e+00	2.539089e+00
4.533519906199800e-06	3.241046e+00	2.373019e+00
4.580662763342376e-06	3.048321e+00	2.196379e+00
4.590662763342317e-06	3.006075e+00	2.157747e+00
4.600662763342258e-06	2.963320e+00	2.118677e+00
4.610662763342198e-06	2.920060e+00	2.079174e+00
4.630662763342079e-06	2.832033e+00	1.998879e+00
4.660662763341901e-06	2.696285e+00	1.875262e+00
4.706377049055916e-06	2.479937e+00	1.678705e+00
4.752091334769930e-06	2.254938e+00	1.474862e+00
4.797805620483944e-06	2.021288e+00	1.263735e+00
4.843519906197959e-06	1.778986e+00	1.045323e+00
4.889234191911972e-06	1.528033e+00	8.196258e-01
4.934948477625987e-06	1.268429e+00	5.866436e-01
4.980662763340001e-06	1.000173e+00	3.463764e-01
4.989478250284406e-06	9.478477e-01	2.995765e-01
4.998293737228811e-06	8.952892e-01	2.525880e-01
5.007109224173217e-06	8.424972e-01	2.054109e-01
5.015924711117622e-06	7.894719e-01	1.580452e-01
5.024740198062027e-06	7.362132e-01	1.104909e-01
5.033555685006432e-06	6.827211e-01	6.274794e-02
5.042371171950838e-06	6.289957e-01	1.481641e-02
5.044649050099312e-06	6.150733e-01	2.402237e-03
5.044809971412913e-06	6.140924e-01	1.539955e-03
5.045131814040331e-06	6.121557e-01	-5.913828e-05
5.045321767802469e-06	6.110410e-01	-8.640284e-04
5.045324470679671e-06	6.110257e-01	-8.728338e-04
5.045329876433857e-06	6.109957e-01	-8.873366e-04
5.045340687942230e-06	6.109359e-01	-9.153627e-04
5.045361341831636e-06	6.108224e-01	-9.653153e-04
5.045402649610665e-06	6.105968e-01	-1.058759e-03
5.045403367980256e-06	6.105930e-01	-1.060298e-03
5.045404804719439e-06	6.105852e-01	-1.063267e-03
5.058514361073324e-06	5.392422e-01	-2.836560e-02
5.071623917427210e-06	4.674480e-01	-5.605387e-02
5.084733473781095e-06	3.952027e-01	-8.412807e-02
5.097843030134981e-06	3.225063e-01	-1.125882e-01
5.110952586488866e-06	2.493587e-01	-1.414343e-01
5.124062142842752e-06	1.757600e-01	-1.706662e-01
5.137171699196637e-06	1.017102e-01	-2.002842e-01
5.139672919486551e-06	8.755429e-02	-2.059620e-01
5.142174139776464e-06	7.338123e-02	-2.116559e-01
5.144675360066377e-06	5.919099e-02	-2.173660e-01
5.147176580356291e-06	4.498357e-02	-2.230920e-01
5.149677800646204e-06	3.075898e-02	-2.288342e-01
5.152179020936117e-06	1.651720e-02	-2.345924e-01
5.154680241226030e-06	2.258246e-03	-2.403667e-01
5.154936916086433e-06	7.959202e-04	-2.409596e-01
5.155081973276434e-06	-1.737890e-05	-2.412921e-01
5.155180311826411e-06	-5.192497e-04	-2.415075e-01
5.155275464663192e-06	-9.218631e-04	-2.416989e-01
5.155310191369729e-06	-1.039140e-03	-2.417627e-01
5.155314406450704e-06	-1.051185e-03	-2.417700e-01
5.155322836612655e-06	-1.073800e-03	-2.417843e-01
5.155339696936772e-06	-1.116748e-03	-2.418123e-01
5.155367168722686e-06	-1.183539e-03	-2.418575e-01
5.155367640729235e-06	-1.184650e-03	-2.418582e-01
5.155368584742115e-06	-1.186832e-03	-2.418597e-01
5.186149273175200e-06	-7.354764e-02	-2.927180e-01
5.216929961608285e-06	-1.479886e-01	-3.454582e-01
5.247710650041370e-06	-2.245096e-01	-4.000803e-01
5.278491338474455e-06	-3.031108e-01	-4.565842e-01
5.309272026907541e-06	-3.837921e-01	-5.149702e-01
5.340052715340625e-06	-4.665535e-01	-5.752380e-01
5.370833403773711e-06	-5.513951e-01	-6.373877e-01
5.440833403773295e-06	-7.506914e-01	-7.846294e-01
5.466547689487428e-06	-8.262361e-01	-8.408735e-01
5.492261975201561e-06	-9.027219e-01	-8.980164e-01
5.517976260915695e-06	-9.801488e-01	-9.560583e-01
5.543690546629827e-06	-1.058517e+00	-1.014999e+00
5.569404832343960e-06	-1.137826e+00	-1.074839e+00
5.595119118058093e-06	-1.218076e+00	-1.135577e+00
5.620833403772226e-06	-1.299267e+00	-1.197214e+00
5.666547689486240e-06	-1.446126e+00	-1.309200e+00
5.712261975200255e-06	-1.593822e+00	-1.422206e+00
5.757976260914269e-06	-1.742356e+00	-1.536234e+00
5.803690546628284e-06	-1.891728e+00	-1.651283e+00
5.849404832342297e-06	-2.041937e+00	-1.767354e+00
5.895119118056311e-06	-2.192983e+00	-1.884446e+00
5.940833403770326e-06	-2.344867e+00	-2.002559e+00
5.957976260913081e-06	-2.401315e+00	-2.046487e+00
5.975119118055836e-06	-2.457571e+00	-2.090290e+00
5.992261975198592e-06	-2.513637e+00	-2.133967e+00
6.009404832341347e-06	-2.569512e+00	-2.177520e+00
6.026547689484103e-06	-2.625196e+00	-2.220947e+00
6.043690546626857e-06	-2.680689e+00	-2.264249e+00
6.060833403769613e-06	-2.735991e+00	-2.307425e+00
6.090833403769435e-06	-2.831969e+00	-2.382382e+00
6.123690546626382e-06	-2.936399e+00	-2.464026e+00
6.156547689483330e-06	-3.038989e+00	-2.544202e+00
6.189404832340278e-06	-3.139739e+00	-2.622910e+00
6.222261975197226e-06	-3.238648e+00	-2.700152e+00
6.255119118054173e-06	-3.335717e+00	-2.775926e+00
6.287976260911122e-06	-3.430946e+00	-2.850233e+00
6.320833403768069e-06	-3.524334e+00	-2.923073e+00
6.333690546625135e-06	-3.560058e+00	-2.950893e+00
6.346547689482202e-06	-3.595363e+00	-2.978366e+00
6.359404832339268e-06	-3.630249e+00	-3.005493e+00
6.372261975196335e-06	-3.664717e+00	-3.032273e+00
6.385119118053401e-06	-3.698766e+00	-3.058706e+00
6.397976260910468e-06	-3.732396e+00	-3.084793e+00
6.410833403767534e-06	-3.765608e+00	-3.110533e+00
6.437976260910231e-06	-3.834396e+00	-3.163780e+00
6.465119118052926e-06	-3.900805e+00	-3.215023e+00
6.492261975195623e-06	-3.964835e+00	-3.264260e+00
6.519404832338318e-06	-4.026484e+00	-3.311493e+00
6.546547689481014e-06	-4.085755e+00	-3.356720e+00
6.573690546623711e-06	-4.142646e+00	-3.399943e+00
6.600833403766406e-06	-4.197157e+00	-3.441161e+00
6.613690546623472e-06	-4.221947e+00	-3.459805e+00
6.626547689480539e-06	-4.246095e+00	-3.477903e+00
6.639404832337605e-06	-4.269601e+00	-3.495453e+00
6.652261975194672e-06	-4.292465e+00	-3.512457e+00
6.665119118051739e-06	-4.314687e+00	-3.528914e+00
6.677976260908805e-06	-4.336268e+00	-3.544824e+00
6.690833403765872e-06	-4.357206e+00	-3.560187e+00
6.720833403765693e-06	-4.403370e+00	-3.593730e+00
6.735119118051323e-06	-4.424058e+00	-3.608596e+00
6.749404832336952e-06	-4.443846e+00	-3.622692e+00
6.763690546622581e-06	-4.462735e+00	-3.636016e+00
6.777976260908212e-06	-4.480725e+00	-3.648568e+00
6.792261975193841e-06	-4.497816e+00	-3.660349e+00
6.806547689479470e-06	-4.514007e+00	-3.671358e+00
6.820833403765100e-06	-4.529298e+00	-3.681596e+00
6.839404832336418e-06	-4.547790e+00	-3.693713e+00
6.857976260907737e-06	-4.564617e+00	-3.704396e+00
6.876547689479055e-06	-4.579779e+00	-3.713645e+00
6.895119118050373e-06	-4.593277e+00	-3.721459e+00
6.913690546621691e-06	-4.605109e+00	-3.727839e+00
6.932261975193010e-06	-4.615277e+00	-3.732784e+00
6.950833403764328e-06	-4.623780e+00	-3.736295e+00
6.999404832335467e-06	-4.638218e+00	-3.738757e+00
7.047976260906608e-06	-4.639812e+00	-3.730096e+00
7.096547689477748e-06	-4.628563e+00	-3.710312e+00
7.145119118048888e-06	-4.604469e+00	-3.679405e+00
7.193690546620029e-06	-4.567532e+00	-3.637374e+00
7.242261975191168e-06	-4.517751e+00	-3.584220e+00
7.290833403762308e-06	-4.455126e+00	-3.519943e+00
7.313690546619315e-06	-4.420775e+00	-3.485454e+00
7.336547689476323e-06	-4.383432e+00	-3.448371e+00
7.359404832333329e-06	-4.343096e+00	-3.408693e+00
7.382261975190337e-06	-4.299767e+00	-3.366419e+00
7.405119118047344e-06	-4.253445e+00	-3.321551e+00
7.427976260904351e-06	-4.204130e+00	-3.274087e+00
7.450833403761358e-06	-4.151822e+00	-3.224028e+00
7.460833403761299e-06	-4.127995e+00	-3.201312e+00
7.470833403761239e-06	-4.103598e+00	-3.178101e+00
7.480833403761180e-06	-4.078629e+00	-3.154394e+00
7.500833403761061e-06	-4.026981e+00	-3.105500e+00
7.530833403760883e-06	-3.945244e+00	-3.028465e+00
7.567976260903520e-06	-3.836738e+00	-2.926746e+00
7.605119118046156e-06	-3.720729e+00	-2.818553e+00
7.642261975188793e-06	-3.597215e+00	-2.703886e+00
7.679404832331429e-06	-3.466198e+00	-2.582745e+00
7.716547689474065e-06	-3.327677e+00	-2.455130e+00
7.753690546616703e-06	-3.181652e+00	-2.321041e+00
7.790833403759339e-06	-3.028124e+00	-2.180479e+00
7.800833403759280e-06	-2.985656e+00	-2.141667e+00
7.810833403759220e-06	-2.942680e+00	-2.102420e+00
7.820833403759161e-06	-2.899200e+00	-2.062741e+00
7.840833403759042e-06	-2.810740e+00	-1.982096e+00
7.870833403758864e-06	-2.674352e+00	-1.857964e+00
7.917976260901441e-06	-2.450018e+00	-1.654259e+00
7.965119118044019e-06	-2.216590e+00	-1.442900e+00
8.012261975186596e-06	-1.974067e+00	-1.223887e+00
8.059404832329172e-06	-1.722449e+00	-9.972188e-01
8.106547689471749e-06	-1.461736e+00	-7.628968e-01
8.153690546614327e-06	-1.191929e+00	-5.209204e-01
8.200833403756904e-06	-9.130270e-01	-2.712898e-01
8.230833403756726e-06	-7.326620e-01	-1.101713e-01
8.240833403756666e-06	-6.719315e-01	-5.597688e-02
8.250833403756607e-06	-6.115584e-01	-4.574508e-03
8.256291677955115e-06	-5.794606e-01	1.892338e-02
8.256301892183016e-06	-5.794034e-01	1.895319e-02
8.269221740894015e-06	-5.089124e-01	4.600377e-02
8.282141589605015e-06	-4.379880e-01	7.342722e-02
8.295061438316014e-06	-3.666300e-01	1.012235e-01
8.307981287027015e-06	-2.948386e-01	1.293928e-01
8.320901135738014e-06	-2.226137e-01	1.579348e-01
8.333820984449014e-06	-1.499552e-01	1.868498e-01
8.346740833160013e-06	-7.686330e-02	2.161376e-01
8.356740833159954e-06	-2.310282e-02	2.384024e-01
