Freq.	V(N002,N005)
1.00000000000000e+05	(-2.05163699593984e+01dB,-1.31029091284769e+02°)
1.00100100100100e+05	(-2.04686689078240e+01dB,-1.31123333659881e+02°)
1.00200200200200e+05	(-2.04209536476928e+01dB,-1.31217862436574e+02°)
1.00300300300300e+05	(-2.03732240634301e+01dB,-1.31312678956291e+02°)
1.00400400400400e+05	(-2.03254800396822e+01dB,-1.31407784568306e+02°)
1.00500500500500e+05	(-2.02777214613194e+01dB,-1.31503180629786e+02°)
1.00600600600601e+05	(-2.02299482134387e+01dB,-1.31598868505841e+02°)
1.00700700700701e+05	(-2.01821601813671e+01dB,-1.31694849569578e+02°)
1.00800800800801e+05	(-2.01343572506647e+01dB,-1.31791125202162e+02°)
1.00900900900901e+05	(-2.00865393071275e+01dB,-1.31887696792869e+02°)
1.01001001001001e+05	(-2.00387062367916e+01dB,-1.31984565739142e+02°)
1.01101101101101e+05	(-1.99908579259352e+01dB,-1.32081733446649e+02°)
1.01201201201201e+05	(-1.99429942610833e+01dB,-1.32179201329344e+02°)
1.01301301301301e+05	(-1.98951151290102e+01dB,-1.32276970809518e+02°)
1.01401401401401e+05	(-1.98472204167434e+01dB,-1.32375043317863e+02°)
1.01501501501501e+05	(-1.97993100115672e+01dB,-1.32473420293530e+02°)
1.01601601601602e+05	(-1.97513838010264e+01dB,-1.32572103184187e+02°)
1.01701701701702e+05	(-1.97034416729297e+01dB,-1.32671093446079e+02°)
1.01801801801802e+05	(-1.96554835153540e+01dB,-1.32770392544090e+02°)
1.01901901901902e+05	(-1.96075092166480e+01dB,-1.32870001951801e+02°)
1.02002002002002e+05	(-1.95595186654360e+01dB,-1.32969923151555e+02°)
1.02102102102102e+05	(-1.95115117506222e+01dB,-1.33070157634514e+02°)
1.02202202202202e+05	(-1.94634883613949e+01dB,-1.33170706900725e+02°)
1.02302302302302e+05	(-1.94154483872304e+01dB,-1.33271572459182e+02°)
1.02402402402402e+05	(-1.93673917178972e+01dB,-1.33372755827888e+02°)
1.02502502502502e+05	(-1.93193182434608e+01dB,-1.33474258533918e+02°)
1.02602602602603e+05	(-1.92712278542877e+01dB,-1.33576082113487e+02°)
1.02702702702703e+05	(-1.92231204410500e+01dB,-1.33678228112008e+02°)
1.02802802802803e+05	(-1.91749958947303e+01dB,-1.33780698084166e+02°)
1.02902902902903e+05	(-1.91268541066259e+01dB,-1.33883493593973e+02°)
1.03003003003003e+05	(-1.90786949683540e+01dB,-1.33986616214845e+02°)
1.03103103103103e+05	(-1.90305183718560e+01dB,-1.34090067529661e+02°)
1.03203203203203e+05	(-1.89823242094033e+01dB,-1.34193849130832e+02°)
1.03303303303303e+05	(-1.89341123736015e+01dB,-1.34297962620371e+02°)
1.03403403403403e+05	(-1.88858827573958e+01dB,-1.34402409609957e+02°)
1.03503503503503e+05	(-1.88376352540767e+01dB,-1.34507191721010e+02°)
1.03603603603604e+05	(-1.87893697572845e+01dB,-1.34612310584752e+02°)
1.03703703703704e+05	(-1.87410861610152e+01dB,-1.34717767842285e+02°)
1.03803803803804e+05	(-1.86927843596261e+01dB,-1.34823565144655e+02°)
1.03903903903904e+05	(-1.86444642478409e+01dB,-1.34929704152927e+02°)
1.04004004004004e+05	(-1.85961257207560e+01dB,-1.35036186538253e+02°)
1.04104104104104e+05	(-1.85477686738461e+01dB,-1.35143013981946e+02°)
1.04204204204204e+05	(-1.84993930029697e+01dB,-1.35250188175554e+02°)
1.04304304304304e+05	(-1.84509986043759e+01dB,-1.35357710820930e+02°)
1.04404404404404e+05	(-1.84025853747097e+01dB,-1.35465583630305e+02°)
1.04504504504504e+05	(-1.83541532110189e+01dB,-1.35573808326367e+02°)
1.04604604604605e+05	(-1.83057020107601e+01dB,-1.35682386642331e+02°)
1.04704704704705e+05	(-1.82572316718052e+01dB,-1.35791320322016e+02°)
1.04804804804805e+05	(-1.82087420924481e+01dB,-1.35900611119920e+02°)
1.04904904904905e+05	(-1.81602331714112e+01dB,-1.36010260801300e+02°)
1.05005005005005e+05	(-1.81117048078522e+01dB,-1.36120271142243e+02°)
1.05105105105105e+05	(-1.80631569013713e+01dB,-1.36230643929748e+02°)
1.05205205205205e+05	(-1.80145893520178e+01dB,-1.36341380961804e+02°)
1.05305305305305e+05	(-1.79660020602977e+01dB,-1.36452484047466e+02°)
1.05405405405405e+05	(-1.79173949271806e+01dB,-1.36563955006939e+02°)
1.05505505505505e+05	(-1.78687678541076e+01dB,-1.36675795671651e+02°)
1.05605605605606e+05	(-1.78201207429981e+01dB,-1.36788007884342e+02°)
1.05705705705706e+05	(-1.77714534962583e+01dB,-1.36900593499137e+02°)
1.05805805805806e+05	(-1.77227660167883e+01dB,-1.37013554381634e+02°)
1.05905905905906e+05	(-1.76740582079905e+01dB,-1.37126892408984e+02°)
1.06006006006006e+05	(-1.76253299737774e+01dB,-1.37240609469972e+02°)
1.06106106106106e+05	(-1.75765812185801e+01dB,-1.37354707465105e+02°)
1.06206206206206e+05	(-1.75278118473561e+01dB,-1.37469188306693e+02°)
1.06306306306306e+05	(-1.74790217655986e+01dB,-1.37584053918934e+02°)
1.06406406406406e+05	(-1.74302108793442e+01dB,-1.37699306238001e+02°)
1.06506506506506e+05	(-1.73813790951826e+01dB,-1.37814947212127e+02°)
1.06606606606607e+05	(-1.73325263202647e+01dB,-1.37930978801693e+02°)
1.06706706706707e+05	(-1.72836524623124e+01dB,-1.38047402979314e+02°)
1.06806806806807e+05	(-1.72347574296272e+01dB,-1.38164221729927e+02°)
1.06906906906907e+05	(-1.71858411311001e+01dB,-1.38281437050881e+02°)
1.07007007007007e+05	(-1.71369034762209e+01dB,-1.38399050952025e+02°)
1.07107107107107e+05	(-1.70879443750879e+01dB,-1.38517065455799e+02°)
1.07207207207207e+05	(-1.70389637384177e+01dB,-1.38635482597325e+02°)
1.07307307307307e+05	(-1.69899614775556e+01dB,-1.38754304424496e+02°)
1.07407407407407e+05	(-1.69409375044855e+01dB,-1.38873532998071e+02°)
1.07507507507507e+05	(-1.68918917318402e+01dB,-1.38993170391765e+02°)
1.07607607607607e+05	(-1.68428240729121e+01dB,-1.39113218692344e+02°)
1.07707707707708e+05	(-1.67937344416640e+01dB,-1.39233679999720e+02°)
1.07807807807808e+05	(-1.67446227527400e+01dB,-1.39354556427040e+02°)
1.07907907907908e+05	(-1.66954889214763e+01dB,-1.39475850100790e+02°)
1.08008008008008e+05	(-1.66463328639128e+01dB,-1.39597563160884e+02°)
1.08108108108108e+05	(-1.65971544968044e+01dB,-1.39719697760762e+02°)
1.08208208208208e+05	(-1.65479537376326e+01dB,-1.39842256067491e+02°)
1.08308308308308e+05	(-1.64987305046176e+01dB,-1.39965240261858e+02°)
1.08408408408408e+05	(-1.64494847167301e+01dB,-1.40088652538474e+02°)
1.08508508508508e+05	(-1.64002162937035e+01dB,-1.40212495105869e+02°)
1.08608608608608e+05	(-1.63509251560466e+01dB,-1.40336770186592e+02°)
1.08708708708709e+05	(-1.63016112250560e+01dB,-1.40461480017316e+02°)
1.08808808808809e+05	(-1.62522744228291e+01dB,-1.40586626848937e+02°)
1.08908908908909e+05	(-1.62029146722771e+01dB,-1.40712212946675e+02°)
1.09009009009009e+05	(-1.61535318971383e+01dB,-1.40838240590178e+02°)
1.09109109109109e+05	(-1.61041260219916e+01dB,-1.40964712073627e+02°)
1.09209209209209e+05	(-1.60546969722702e+01dB,-1.41091629705837e+02°)
1.09309309309309e+05	(-1.60052446742758e+01dB,-1.41218995810367e+02°)
1.09409409409409e+05	(-1.59557690551922e+01dB,-1.41346812725619e+02°)
1.09509509509509e+05	(-1.59062700431004e+01dB,-1.41475082804951e+02°)
1.09609609609609e+05	(-1.58567475669928e+01dB,-1.41603808416780e+02°)
1.09709709709710e+05	(-1.58072015567883e+01dB,-1.41732991944692e+02°)
1.09809809809810e+05	(-1.57576319433472e+01dB,-1.41862635787548e+02°)
1.09909909909910e+05	(-1.57080386584870e+01dB,-1.41992742359595e+02°)
1.10010010010010e+05	(-1.56584216349976e+01dB,-1.42123314090578e+02°)
1.10110110110110e+05	(-1.56087808066574e+01dB,-1.42254353425846e+02°)
1.10210210210210e+05	(-1.55591161082494e+01dB,-1.42385862826468e+02°)
1.10310310310310e+05	(-1.55094274755778e+01dB,-1.42517844769339e+02°)
1.10410410410410e+05	(-1.54597148454844e+01dB,-1.42650301747301e+02°)
1.10510510510510e+05	(-1.54099781558658e+01dB,-1.42783236269250e+02°)
1.10610610610610e+05	(-1.53602173456904e+01dB,-1.42916650860252e+02°)
1.10710710710711e+05	(-1.53104323550161e+01dB,-1.43050548061661e+02°)
1.10810810810811e+05	(-1.52606231250081e+01dB,-1.43184930431227e+02°)
1.10910910910911e+05	(-1.52107895979569e+01dB,-1.43319800543222e+02°)
1.11011011011011e+05	(-1.51609317172966e+01dB,-1.43455160988549e+02°)
1.11111111111111e+05	(-1.51110494276240e+01dB,-1.43591014374864e+02°)
1.11211211211211e+05	(-1.50611426747171e+01dB,-1.43727363326694e+02°)
1.11311311311311e+05	(-1.50112114055545e+01dB,-1.43864210485554e+02°)
1.11411411411411e+05	(-1.49612555683355e+01dB,-1.44001558510070e+02°)
1.11511511511511e+05	(-1.49112751124993e+01dB,-1.44139410076095e+02°)
1.11611611611611e+05	(-1.48612699887457e+01dB,-1.44277767876835e+02°)
1.11711711711712e+05	(-1.48112401490557e+01dB,-1.44416634622968e+02°)
1.11811811811812e+05	(-1.47611855467122e+01dB,-1.44556013042767e+02°)
1.11911911911912e+05	(-1.47111061363214e+01dB,-1.44695905882224e+02°)
1.12012012012012e+05	(-1.46610018738345e+01dB,-1.44836315905173e+02°)
1.12112112112112e+05	(-1.46108727165694e+01dB,-1.44977245893414e+02°)
1.12212212212212e+05	(-1.45607186232331e+01dB,-1.45118698646839e+02°)
1.12312312312312e+05	(-1.45105395539447e+01dB,-1.45260676983561e+02°)
1.12412412412412e+05	(-1.44603354702578e+01dB,-1.45403183740032e+02°)
1.12512512512512e+05	(-1.44101063351846e+01dB,-1.45546221771179e+02°)
1.12612612612612e+05	(-1.43598521132191e+01dB,-1.45689793950528e+02°)
1.12712712712713e+05	(-1.43095727703617e+01dB,-1.45833903170331e+02°)
1.12812812812813e+05	(-1.42592682741435e+01dB,-1.45978552341699e+02°)
1.12912912912913e+05	(-1.42089385936517e+01dB,-1.46123744394726e+02°)
1.13013013013013e+05	(-1.41585836995541e+01dB,-1.46269482278625e+02°)
1.13113113113113e+05	(-1.41082035641259e+01dB,-1.46415768961855e+02°)
1.13213213213213e+05	(-1.40577981612752e+01dB,-1.46562607432254e+02°)
1.13313313313313e+05	(-1.40073674665699e+01dB,-1.46710000697170e+02°)
1.13413413413413e+05	(-1.39569114572646e+01dB,-1.46857951783595e+02°)
1.13513513513513e+05	(-1.39064301123282e+01dB,-1.47006463738298e+02°)
1.13613613613613e+05	(-1.38559234124719e+01dB,-1.47155539627954e+02°)
1.13713713713714e+05	(-1.38053913401774e+01dB,-1.47305182539286e+02°)
1.13813813813814e+05	(-1.37548338797257e+01dB,-1.47455395579194e+02°)
1.13913913913914e+05	(-1.37042510172265e+01dB,-1.47606181874891e+02°)
1.14014014014014e+05	(-1.36536427406483e+01dB,-1.47757544574040e+02°)
1.14114114114114e+05	(-1.36030090398478e+01dB,-1.47909486844891e+02°)
1.14214214214214e+05	(-1.35523499066015e+01dB,-1.48062011876413e+02°)
1.14314314314314e+05	(-1.35016653346365e+01dB,-1.48215122878436e+02°)
1.14414414414414e+05	(-1.34509553196622e+01dB,-1.48368823081787e+02°)
1.14514514514514e+05	(-1.34002198594029e+01dB,-1.48523115738425e+02°)
1.14614614614614e+05	(-1.33494589536298e+01dB,-1.48678004121584e+02°)
1.14714714714715e+05	(-1.32986726041954e+01dB,-1.48833491525908e+02°)
1.14814814814815e+05	(-1.32478608150662e+01dB,-1.48989581267592e+02°)
1.14914914914915e+05	(-1.31970235923578e+01dB,-1.49146276684517e+02°)
1.15015015015015e+05	(-1.31461609443695e+01dB,-1.49303581136398e+02°)
1.15115115115115e+05	(-1.30952728816198e+01dB,-1.49461498004915e+02°)
1.15215215215215e+05	(-1.30443594168824e+01dB,-1.49620030693858e+02°)
1.15315315315315e+05	(-1.29934205652231e+01dB,-1.49779182629267e+02°)
1.15415415415415e+05	(-1.29424563440366e+01dB,-1.49938957259571e+02°)
1.15515515515515e+05	(-1.28914667730843e+01dB,-1.50099358055729e+02°)
1.15615615615615e+05	(-1.28404518745331e+01dB,-1.50260388511373e+02°)
1.15715715715715e+05	(-1.27894116729940e+01dB,-1.50422052142946e+02°)
1.15815815815816e+05	(-1.27383461955619e+01dB,-1.50584352489845e+02°)
1.15915915915916e+05	(-1.26872554718560e+01dB,-1.50747293114563e+02°)
1.16016016016016e+05	(-1.26361395340602e+01dB,-1.50910877602827e+02°)
1.16116116116116e+05	(-1.25849984169652e+01dB,-1.51075109563742e+02°)
1.16216216216216e+05	(-1.25338321580105e+01dB,-1.51239992629933e+02°)
1.16316316316316e+05	(-1.24826407973272e+01dB,-1.51405530457683e+02°)
1.16416416416416e+05	(-1.24314243777816e+01dB,-1.51571726727076e+02°)
1.16516516516516e+05	(-1.23801829450195e+01dB,-1.51738585142137e+02°)
1.16616616616616e+05	(-1.23289165475112e+01dB,-1.51906109430976e+02°)
1.16716716716716e+05	(-1.22776252365971e+01dB,-1.52074303345923e+02°)
1.16816816816817e+05	(-1.22263090665340e+01dB,-1.52243170663671e+02°)
1.16916916916917e+05	(-1.21749680945423e+01dB,-1.52412715185419e+02°)
1.17017017017017e+05	(-1.21236023808541e+01dB,-1.52582940737006e+02°)
1.17117117117117e+05	(-1.20722119887614e+01dB,-1.52753851169053e+02°)
1.17217217217217e+05	(-1.20207969846657e+01dB,-1.52925450357103e+02°)
1.17317317317317e+05	(-1.19693574381281e+01dB,-1.53097742201757e+02°)
1.17417417417417e+05	(-1.19178934219205e+01dB,-1.53270730628814e+02°)
1.17517517517517e+05	(-1.18664050120770e+01dB,-1.53444419589403e+02°)
1.17617617617617e+05	(-1.18148922879468e+01dB,-1.53618813060128e+02°)
1.17717717717717e+05	(-1.17633553322473e+01dB,-1.53793915043197e+02°)
1.17817817817818e+05	(-1.17117942311183e+01dB,-1.53969729566558e+02°)
1.17917917917918e+05	(-1.16602090741777e+01dB,-1.54146260684036e+02°)
1.18018018018018e+05	(-1.16085999545766e+01dB,-1.54323512475463e+02°)
1.18118118118118e+05	(-1.15569669690566e+01dB,-1.54501489046813e+02°)
1.18218218218218e+05	(-1.15053102180073e+01dB,-1.54680194530331e+02°)
1.18318318318318e+05	(-1.14536298055253e+01dB,-1.54859633084668e+02°)
1.18418418418418e+05	(-1.14019258394731e+01dB,-1.55039808895001e+02°)
1.18518518518518e+05	(-1.13501984315399e+01dB,-1.55220726173171e+02°)
1.18618618618618e+05	(-1.12984476973029e+01dB,-1.55402389157802e+02°)
1.18718718718718e+05	(-1.12466737562897e+01dB,-1.55584802114431e+02°)
1.18818818818819e+05	(-1.11948767320415e+01dB,-1.55767969335630e+02°)
1.18918918918919e+05	(-1.11430567521774e+01dB,-1.55951895141125e+02°)
1.19019019019019e+05	(-1.10912139484593e+01dB,-1.56136583877923e+02°)
1.19119119119119e+05	(-1.10393484568590e+01dB,-1.56322039920426e+02°)
1.19219219219219e+05	(-1.09874604176245e+01dB,-1.56508267670549e+02°)
1.19319319319319e+05	(-1.09355499753491e+01dB,-1.56695271557835e+02°)
1.19419419419419e+05	(-1.08836172790400e+01dB,-1.56883056039569e+02°)
1.19519519519519e+05	(-1.08316624821896e+01dB,-1.57071625600890e+02°)
1.19619619619619e+05	(-1.07796857428459e+01dB,-1.57260984754896e+02°)
1.19719719719719e+05	(-1.07276872236863e+01dB,-1.57451138042754e+02°)
1.19819819819820e+05	(-1.06756670920901e+01dB,-1.57642090033803e+02°)
1.19919919919920e+05	(-1.06236255202140e+01dB,-1.57833845325655e+02°)
1.20020020020020e+05	(-1.05715626850680e+01dB,-1.58026408544296e+02°)
1.20120120120120e+05	(-1.05194787685919e+01dB,-1.58219784344178e+02°)
1.20220220220220e+05	(-1.04673739577343e+01dB,-1.58413977408317e+02°)
1.20320320320320e+05	(-1.04152484445314e+01dB,-1.58608992448382e+02°)
1.20420420420420e+05	(-1.03631024261879e+01dB,-1.58804834204779e+02°)
1.20520520520520e+05	(-1.03109361051584e+01dB,-1.59001507446741e+02°)
1.20620620620620e+05	(-1.02587496892310e+01dB,-1.59199016972402e+02°)
1.20720720720720e+05	(-1.02065433916111e+01dB,-1.59397367608879e+02°)
1.20820820820821e+05	(-1.01543174310070e+01dB,-1.59596564212343e+02°)
1.20920920920921e+05	(-1.01020720317166e+01dB,-1.59796611668090e+02°)
1.21021021021021e+05	(-1.00498074237155e+01dB,-1.59997514890603e+02°)
1.21121121121121e+05	(-9.99752384274642e+00dB,-1.60199278823619e+02°)
1.21221221221221e+05	(-9.94522153040951e+00dB,-1.60401908440182e+02°)
1.21321321321321e+05	(-9.89290073425464e+00dB,-1.60605408742698e+02°)
1.21421421421421e+05	(-9.84056170787445e+00dB,-1.60809784762981e+02°)
1.21521521521521e+05	(-9.78820471099910e+00dB,-1.61015041562299e+02°)
1.21621621621621e+05	(-9.73583000959223e+00dB,-1.61221184231408e+02°)
1.21721721721721e+05	(-9.68343787594839e+00dB,-1.61428217890591e+02°)
1.21821821821822e+05	(-9.63102858879178e+00dB,-1.61636147689682e+02°)
1.21921921921922e+05	(-9.57860243337640e+00dB,-1.61844978808088e+02°)
1.22022022022022e+05	(-9.52615970158777e+00dB,-1.62054716454810e+02°)
1.22122122122122e+05	(-9.47370069204592e+00dB,-1.62265365868447e+02°)
1.22222222222222e+05	(-9.42122571020988e+00dB,-1.62476932317207e+02°)
1.22322322322322e+05	(-9.36873506848369e+00dB,-1.62689421098900e+02°)
1.22422422422422e+05	(-9.31622908632383e+00dB,-1.62902837540933e+02°)
1.22522522522522e+05	(-9.26370809034819e+00dB,-1.63117187000296e+02°)
1.22622622622622e+05	(-9.21117241444652e+00dB,-1.63332474863533e+02°)
1.22722722722722e+05	(-9.15862239989242e+00dB,-1.63548706546722e+02°)
1.22822822822822e+05	(-9.10605839545681e+00dB,-1.63765887495430e+02°)
1.22922922922923e+05	(-9.05348075752300e+00dB,-1.63984023184673e+02°)
1.23023023023023e+05	(-9.00088985020339e+00dB,-1.64203119118862e+02°)
1.23123123123123e+05	(-8.94828604545757e+00dB,-1.64423180831743e+02°)
1.23223223223223e+05	(-8.89566972321213e+00dB,-1.64644213886325e+02°)
1.23323323323323e+05	(-8.84304127148198e+00dB,-1.64866223874803e+02°)
1.23423423423423e+05	(-8.79040108649347e+00dB,-1.65089216418472e+02°)
1.23523523523523e+05	(-8.73774957280881e+00dB,-1.65313197167631e+02°)
1.23623623623623e+05	(-8.68508714345241e+00dB,-1.65538171801471e+02°)
1.23723723723723e+05	(-8.63241422003867e+00dB,-1.65764146027966e+02°)
1.23823823823823e+05	(-8.57973123290156e+00dB,-1.65991125583741e+02°)
1.23923923923924e+05	(-8.52703862122574e+00dB,-1.66219116233939e+02°)
1.24024024024024e+05	(-8.47433683317936e+00dB,-1.66448123772067e+02°)
1.24124124124124e+05	(-8.42162632604862e+00dB,-1.66678154019845e+02°)
1.24224224224224e+05	(-8.36890756637394e+00dB,-1.66909212827027e+02°)
1.24324324324324e+05	(-8.31618103008777e+00dB,-1.67141306071224e+02°)
1.24424424424424e+05	(-8.26344720265423e+00dB,-1.67374439657705e+02°)
1.24524524524524e+05	(-8.21070657921033e+00dB,-1.67608619519192e+02°)
1.24624624624624e+05	(-8.15795966470889e+00dB,-1.67843851615639e+02°)
1.24724724724724e+05	(-8.10520697406328e+00dB,-1.68080141933995e+02°)
1.24824824824824e+05	(-8.05244903229376e+00dB,-1.68317496487962e+02°)
1.24924924924925e+05	(-7.99968637467559e+00dB,-1.68555921317727e+02°)
1.25025025025025e+05	(-7.94691954688874e+00dB,-1.68795422489687e+02°)
1.25125125125125e+05	(-7.89414910516950e+00dB,-1.69036006096162e+02°)
1.25225225225225e+05	(-7.84137561646370e+00dB,-1.69277678255083e+02°)
1.25325325325325e+05	(-7.78859965858158e+00dB,-1.69520445109670e+02°)
1.25425425425425e+05	(-7.73582182035444e+00dB,-1.69764312828096e+02°)
1.25525525525525e+05	(-7.68304270179302e+00dB,-1.70009287603129e+02°)
1.25625625625625e+05	(-7.63026291424757e+00dB,-1.70255375651761e+02°)
1.25725725725725e+05	(-7.57748308056946e+00dB,-1.70502583214815e+02°)
1.25825825825825e+05	(-7.52470383527467e+00dB,-1.70750916556542e+02°)
1.25925925925926e+05	(-7.47192582470896e+00dB,-1.71000381964186e+02°)
1.26026026026026e+05	(-7.41914970721446e+00dB,-1.71250985747548e+02°)
1.26126126126126e+05	(-7.36637615329817e+00dB,-1.71502734238512e+02°)
1.26226226226226e+05	(-7.31360584580199e+00dB,-1.71755633790564e+02°)
1.26326326326326e+05	(-7.26083948007440e+00dB,-1.72009690778285e+02°)
1.26426426426426e+05	(-7.20807776414370e+00dB,-1.72264911596826e+02°)
1.26526526526526e+05	(-7.15532141889286e+00dB,-1.72521302661355e+02°)
1.26626626626626e+05	(-7.10257117823600e+00dB,-1.72778870406491e+02°)
1.26726726726726e+05	(-7.04982778929632e+00dB,-1.73037621285706e+02°)
1.26826826826826e+05	(-6.99709201258559e+00dB,-1.73297561770714e+02°)
1.26926926926927e+05	(-6.94436462218515e+00dB,-1.73558698350826e+02°)
1.27027027027027e+05	(-6.89164640592835e+00dB,-1.73821037532284e+02°)
1.27127127127127e+05	(-6.83893816558445e+00dB,-1.74084585837579e+02°)
1.27227227227227e+05	(-6.78624071704388e+00dB,-1.74349349804724e+02°)
1.27327327327327e+05	(-6.73355489050496e+00dB,-1.74615335986525e+02°)
1.27427427427427e+05	(-6.68088153066179e+00dB,-1.74882550949801e+02°)
1.27527527527527e+05	(-6.62822149689360e+00dB,-1.75151001274598e+02°)
1.27627627627627e+05	(-6.57557566345526e+00dB,-1.75420693553358e+02°)
1.27727727727727e+05	(-6.52294491966899e+00dB,-1.75691634390071e+02°)
1.27827827827827e+05	(-6.47033017011722e+00dB,-1.75963830399391e+02°)
1.27927927927928e+05	(-6.41773233483662e+00dB,-1.76237288205725e+02°)
1.28028028028028e+05	(-6.36515234951308e+00dB,-1.76512014442292e+02°)
