Freq.	I(Ls1)	I(Ls2)
1.00000000000000e+05	(-4.90848743752170e+01dB,5.16232757196057e+01°)	(-5.26720560972561e+01dB,3.42948872648626e+01°)
1.00100100100100e+05	(-4.90326789181172e+01dB,5.15124458537516e+01°)	(-5.26287568125989e+01dB,3.41842425542970e+01°)
1.00200200200200e+05	(-4.89804655073154e+01dB,5.14011791825520e+01°)	(-5.25854584577221e+01dB,3.40733546865528e+01°)
1.00300300300300e+05	(-4.89282341274741e+01dB,5.12894735195897e+01°)	(-5.25421609492773e+01dB,3.39622227121872e+01°)
1.00400400400400e+05	(-4.88759847650381e+01dB,5.11773266686284e+01°)	(-5.24988642042415e+01dB,3.38508456751893e+01°)
1.00500500500500e+05	(-4.88237174082555e+01dB,5.10647364236141e+01°)	(-5.24555681399247e+01dB,3.37392226129312e+01°)
1.00600600600601e+05	(-4.87714320471974e+01dB,5.09517005686781e+01°)	(-5.24122726739777e+01dB,3.36273525561185e+01°)
1.00700700700701e+05	(-4.87191286737794e+01dB,5.08382168781412e+01°)	(-5.23689777244003e+01dB,3.35152345287410e+01°)
1.00800800800801e+05	(-4.86668072817822e+01dB,5.07242831165197e+01°)	(-5.23256832095494e+01dB,3.34028675480239e+01°)
1.00900900900901e+05	(-4.86144678668725e+01dB,5.06098970385312e+01°)	(-5.22823890481474e+01dB,3.32902506243786e+01°)
1.01001001001001e+05	(-4.85621104266248e+01dB,5.04950563891034e+01°)	(-5.22390951592908e+01dB,3.31773827613543e+01°)
1.01101101101101e+05	(-4.85097349605428e+01dB,5.03797589033833e+01°)	(-5.21958014624590e+01dB,3.30642629555889e+01°)
1.01201201201201e+05	(-4.84573414700807e+01dB,5.02640023067476e+01°)	(-5.21525078775230e+01dB,3.29508901967606e+01°)
1.01301301301301e+05	(-4.84049299586658e+01dB,5.01477843148156e+01°)	(-5.21092143247547e+01dB,3.28372634675399e+01°)
1.01401401401401e+05	(-4.83525004317202e+01dB,5.00311026334618e+01°)	(-5.20659207248364e+01dB,3.27233817435414e+01°)
1.01501501501501e+05	(-4.83000528966833e+01dB,4.99139549588319e+01°)	(-5.20226269988698e+01dB,3.26092439932758e+01°)
1.01601601601602e+05	(-4.82475873630340e+01dB,4.97963389773586e+01°)	(-5.19793330683859e+01dB,3.24948491781023e+01°)
1.01701701701702e+05	(-4.81951038423141e+01dB,4.96782523657801e+01°)	(-5.19360388553549e+01dB,3.23801962521817e+01°)
1.01801801801802e+05	(-4.81426023481506e+01dB,4.95596927911592e+01°)	(-5.18927442821964e+01dB,3.22652841624286e+01°)
1.01901901901902e+05	(-4.80900828962792e+01dB,4.94406579109053e+01°)	(-5.18494492717890e+01dB,3.21501118484655e+01°)
1.02002002002002e+05	(-4.80375455045673e+01dB,4.93211453727964e+01°)	(-5.18061537474817e+01dB,3.20346782425759e+01°)
1.02102102102102e+05	(-4.79849901930379e+01dB,4.92011528150038e+01°)	(-5.17628576331036e+01dB,3.19189822696580e+01°)
1.02202202202202e+05	(-4.79324169838932e+01dB,4.90806778661186e+01°)	(-5.17195608529754e+01dB,3.18030228471798e+01°)
1.02302302302302e+05	(-4.78798259015384e+01dB,4.89597181451791e+01°)	(-5.16762633319200e+01dB,3.16867988851331e+01°)
1.02402402402402e+05	(-4.78272169726061e+01dB,4.88382712617007e+01°)	(-5.16329649952740e+01dB,3.15703092859889e+01°)
1.02502502502502e+05	(-4.77745902259801e+01dB,4.87163348157074e+01°)	(-5.15896657688991e+01dB,3.14535529446533e+01°)
1.02602602602603e+05	(-4.77219456928206e+01dB,4.85939063977646e+01°)	(-5.15463655791934e+01dB,3.13365287484226e+01°)
1.02702702702703e+05	(-4.76692834065886e+01dB,4.84709835890149e+01°)	(-5.15030643531038e+01dB,3.12192355769410e+01°)
1.02802802802803e+05	(-4.76166034030706e+01dB,4.83475639612147e+01°)	(-5.14597620181377e+01dB,3.11016723021569e+01°)
1.02902902902903e+05	(-4.75639057204041e+01dB,4.82236450767732e+01°)	(-5.14164585023754e+01dB,3.09838377882807e+01°)
1.03003003003003e+05	(-4.75111903991027e+01dB,4.80992244887935e+01°)	(-5.13731537344824e+01dB,3.08657308917430e+01°)
1.03103103103103e+05	(-4.74584574820816e+01dB,4.79742997411155e+01°)	(-5.13298476437223e+01dB,3.07473504611531e+01°)
1.03203203203203e+05	(-4.74057070146834e+01dB,4.78488683683611e+01°)	(-5.12865401599695e+01dB,3.06286953372590e+01°)
1.03303303303303e+05	(-4.73529390447038e+01dB,4.77229278959811e+01°)	(-5.12432312137226e+01dB,3.05097643529068e+01°)
1.03403403403403e+05	(-4.73001536224179e+01dB,4.75964758403046e+01°)	(-5.11999207361173e+01dB,3.03905563330018e+01°)
1.03503503503503e+05	(-4.72473508006061e+01dB,4.74695097085905e+01°)	(-5.11566086589407e+01dB,3.02710700944696e+01°)
1.03603603603604e+05	(-4.71945306345811e+01dB,4.73420269990813e+01°)	(-5.11132949146440e+01dB,3.01513044462187e+01°)
1.03703703703704e+05	(-4.71416931822139e+01dB,4.72140252010587e+01°)	(-5.10699794363574e+01dB,3.00312581891031e+01°)
1.03803803803804e+05	(-4.70888385039612e+01dB,4.70855017949023e+01°)	(-5.10266621579041e+01dB,2.99109301158863e+01°)
1.03903903903904e+05	(-4.70359666628919e+01dB,4.69564542521498e+01°)	(-5.09833430138144e+01dB,2.97903190112056e+01°)
1.04004004004004e+05	(-4.69830777247146e+01dB,4.68268800355605e+01°)	(-5.09400219393407e+01dB,2.96694236515379e+01°)
1.04104104104104e+05	(-4.69301717578048e+01dB,4.66967765991802e+01°)	(-5.08966988704722e+01dB,2.95482428051656e+01°)
1.04204204204204e+05	(-4.68772488332324e+01dB,4.65661413884094e+01°)	(-5.08533737439502e+01dB,2.94267752321443e+01°)
1.04304304304304e+05	(-4.68243090247896e+01dB,4.64349718400739e+01°)	(-5.08100464972832e+01dB,2.93050196842708e+01°)
1.04404404404404e+05	(-4.67713524090186e+01dB,4.63032653824975e+01°)	(-5.07667170687628e+01dB,2.91829749050526e+01°)
1.04504504504504e+05	(-4.67183790652394e+01dB,4.61710194355779e+01°)	(-5.07233853974789e+01dB,2.90606396296779e+01°)
1.04604604604605e+05	(-4.66653890755787e+01dB,4.60382314108648e+01°)	(-5.06800514233365e+01dB,2.89380125849870e+01°)
1.04704704704705e+05	(-4.66123825249975e+01dB,4.59048987116412e+01°)	(-5.06367150870712e+01dB,2.88150924894450e+01°)
1.04804804804805e+05	(-4.65593595013200e+01dB,4.57710187330069e+01°)	(-5.05933763302663e+01dB,2.86918780531153e+01°)
1.04904904904905e+05	(-4.65063200952624e+01dB,4.56365888619650e+01°)	(-5.05500350953689e+01dB,2.85683679776341e+01°)
1.05005005005005e+05	(-4.64532644004614e+01dB,4.55016064775117e+01°)	(-5.05066913257075e+01dB,2.84445609561871e+01°)
1.05105105105105e+05	(-4.64001925135033e+01dB,4.53660689507284e+01°)	(-5.04633449655086e+01dB,2.83204556734862e+01°)
1.05205205205205e+05	(-4.63471045339534e+01dB,4.52299736448769e+01°)	(-5.04199959599142e+01dB,2.81960508057483e+01°)
1.05305305305305e+05	(-4.62940005643847e+01dB,4.50933179154979e+01°)	(-5.03766442549999e+01dB,2.80713450206752e+01°)
1.05405405405405e+05	(-4.62408807104079e+01dB,4.49560991105120e+01°)	(-5.03332897977920e+01dB,2.79463369774353e+01°)
1.05505505505505e+05	(-4.61877450807006e+01dB,4.48183145703245e+01°)	(-5.02899325362861e+01dB,2.78210253266454e+01°)
1.05605605605606e+05	(-4.61345937870371e+01dB,4.46799616279328e+01°)	(-5.02465724194654e+01dB,2.76954087103562e+01°)
1.05705705705706e+05	(-4.60814269443181e+01dB,4.45410376090370e+01°)	(-5.02032093973189e+01dB,2.75694857620369e+01°)
1.05805805805806e+05	(-4.60282446706005e+01dB,4.44015398321544e+01°)	(-5.01598434208604e+01dB,2.74432551065633e+01°)
1.05905905905906e+05	(-4.59750470871280e+01dB,4.42614656087361e+01°)	(-5.01164744421477e+01dB,2.73167153602059e+01°)
1.06006006006006e+05	(-4.59218343183605e+01dB,4.41208122432884e+01°)	(-5.00731024143014e+01dB,2.71898651306214e+01°)
1.06106106106106e+05	(-4.58686064920049e+01dB,4.39795770334964e+01°)	(-5.00297272915244e+01dB,2.70627030168441e+01°)
1.06206206206206e+05	(-4.58153637390451e+01dB,4.38377572703519e+01°)	(-4.99863490291219e+01dB,2.69352276092801e+01°)
1.06306306306306e+05	(-4.57621061937727e+01dB,4.36953502382842e+01°)	(-4.99429675835210e+01dB,2.68074374897034e+01°)
1.06406406406406e+05	(-4.57088339938174e+01dB,4.35523532152947e+01°)	(-4.98995829122910e+01dB,2.66793312312527e+01°)
1.06506506506506e+05	(-4.56555472801777e+01dB,4.34087634730953e+01°)	(-4.98561949741633e+01dB,2.65509073984317e+01°)
1.06606606606607e+05	(-4.56022461972515e+01dB,4.32645782772503e+01°)	(-4.98128037290528e+01dB,2.64221645471101e+01°)
1.06706706706707e+05	(-4.55489308928670e+01dB,4.31197948873219e+01°)	(-4.97694091380776e+01dB,2.62931012245266e+01°)
1.06806806806807e+05	(-4.54956015183135e+01dB,4.29744105570199e+01°)	(-4.97260111635808e+01dB,2.61637159692948e+01°)
1.06906906906907e+05	(-4.54422582283721e+01dB,4.28284225343542e+01°)	(-4.96826097691513e+01dB,2.60340073114106e+01°)
1.07007007007007e+05	(-4.53889011813469e+01dB,4.26818280617932e+01°)	(-4.96392049196455e+01dB,2.59039737722614e+01°)
1.07107107107107e+05	(-4.53355305390959e+01dB,4.25346243764237e+01°)	(-4.95957965812084e+01dB,2.57736138646382e+01°)
1.07207207207207e+05	(-4.52821464670621e+01dB,4.23868087101166e+01°)	(-4.95523847212960e+01dB,2.56429260927493e+01°)
1.07307307307307e+05	(-4.52287491343044e+01dB,4.22383782896957e+01°)	(-4.95089693086968e+01dB,2.55119089522370e+01°)
1.07407407407407e+05	(-4.51753387135286e+01dB,4.20893303371113e+01°)	(-4.94655503135544e+01dB,2.53805609301958e+01°)
1.07507507507507e+05	(-4.51219153811190e+01dB,4.19396620696173e+01°)	(-4.94221277073896e+01dB,2.52488805051933e+01°)
1.07607607607607e+05	(-4.50684793171687e+01dB,4.17893706999529e+01°)	(-4.93787014631234e+01dB,2.51168661472942e+01°)
1.07707707707708e+05	(-4.50150307055116e+01dB,4.16384534365285e+01°)	(-4.93352715550993e+01dB,2.49845163180854e+01°)
1.07807807807808e+05	(-4.49615697337525e+01dB,4.14869074836159e+01°)	(-4.92918379591065e+01dB,2.48518294707053e+01°)
1.07907907907908e+05	(-4.49080965932990e+01dB,4.13347300415429e+01°)	(-4.92484006524032e+01dB,2.47188040498743e+01°)
1.08008008008008e+05	(-4.48546114793920e+01dB,4.11819183068925e+01°)	(-4.92049596137396e+01dB,2.45854384919285e+01°)
1.08108108108108e+05	(-4.48011145911369e+01dB,4.10284694727059e+01°)	(-4.91615148233817e+01dB,2.44517312248568e+01°)
1.08208208208208e+05	(-4.47476061315345e+01dB,4.08743807286913e+01°)	(-4.91180662631347e+01dB,2.43176806683393e+01°)
1.08308308308308e+05	(-4.46940863075116e+01dB,4.07196492614359e+01°)	(-4.90746139163672e+01dB,2.41832852337899e+01°)
1.08408408408408e+05	(-4.46405553299524e+01dB,4.05642722546235e+01°)	(-4.90311577680346e+01dB,2.40485433244010e+01°)
1.08508508508508e+05	(-4.45870134137285e+01dB,4.04082468892567e+01°)	(-4.89876978047039e+01dB,2.39134533351912e+01°)
1.08608608608608e+05	(-4.45334607777299e+01dB,4.02515703438835e+01°)	(-4.89442340145773e+01dB,2.37780136530569e+01°)
1.08708708708709e+05	(-4.44798976448955e+01dB,4.00942397948287e+01°)	(-4.89007663875173e+01dB,2.36422226568253e+01°)
1.08808808808809e+05	(-4.44263242422435e+01dB,3.99362524164307e+01°)	(-4.88572949150706e+01dB,2.35060787173121e+01°)
1.08908908908909e+05	(-4.43727408009013e+01dB,3.97776053812829e+01°)	(-4.88138195904934e+01dB,2.33695801973812e+01°)
1.09009009009009e+05	(-4.43191475561362e+01dB,3.96182958604796e+01°)	(-4.87703404087756e+01dB,2.32327254520087e+01°)
1.09109109109109e+05	(-4.42655447473848e+01dB,3.94583210238679e+01°)	(-4.87268573666661e+01dB,2.30955128283493e+01°)
1.09209209209209e+05	(-4.42119326182831e+01dB,3.92976780403039e+01°)	(-4.86833704626977e+01dB,2.29579406658066e+01°)
1.09309309309309e+05	(-4.41583114166962e+01dB,3.91363640779144e+01°)	(-4.86398796972122e+01dB,2.28200072961061e+01°)
1.09409409409409e+05	(-4.41046813947472e+01dB,3.89743763043633e+01°)	(-4.85963850723856e+01dB,2.26817110433729e+01°)
1.09509509509509e+05	(-4.40510428088470e+01dB,3.88117118871240e+01°)	(-4.85528865922535e+01dB,2.25430502242115e+01°)
1.09609609609609e+05	(-4.39973959197229e+01dB,3.86483679937565e+01°)	(-4.85093842627362e+01dB,2.24040231477903e+01°)
1.09709709709710e+05	(-4.39437409924476e+01dB,3.84843417921897e+01°)	(-4.84658780916643e+01dB,2.22646281159291e+01°)
1.09809809809810e+05	(-4.38900782964671e+01dB,3.83196304510096e+01°)	(-4.84223680888043e+01dB,2.21248634231905e+01°)
1.09909909909910e+05	(-4.38364081056299e+01dB,3.81542311397527e+01°)	(-4.83788542658838e+01dB,2.19847273569751e+01°)
1.10010010010010e+05	(-4.37827306982139e+01dB,3.79881410292041e+01°)	(-4.83353366366173e+01dB,2.18442181976205e+01°)
1.10110110110110e+05	(-4.37290463569546e+01dB,3.78213572917029e+01°)	(-4.82918152167318e+01dB,2.17033342185038e+01°)
1.10210210210210e+05	(-4.36753553690723e+01dB,3.76538771014508e+01°)	(-4.82482900239923e+01dB,2.15620736861490e+01°)
1.10310310310310e+05	(-4.36216580262991e+01dB,3.74856976348284e+01°)	(-4.82047610782273e+01dB,2.14204348603372e+01°)
1.10410410410410e+05	(-4.35679546249054e+01dB,3.73168160707155e+01°)	(-4.81612284013547e+01dB,2.12784159942213e+01°)
1.10510510510510e+05	(-4.35142454657260e+01dB,3.71472295908183e+01°)	(-4.81176920174072e+01dB,2.11360153344453e+01°)
1.10610610610610e+05	(-4.34605308541863e+01dB,3.69769353800013e+01°)	(-4.80741519525579e+01dB,2.09932311212671e+01°)
1.10710710710711e+05	(-4.34068111003278e+01dB,3.68059306266259e+01°)	(-4.80306082351457e+01dB,2.08500615886857e+01°)
1.10810810810811e+05	(-4.33530865188325e+01dB,3.66342125228937e+01°)	(-4.79870608957010e+01dB,2.07065049645725e+01°)
1.10910910910911e+05	(-4.32993574290482e+01dB,3.64617782651962e+01°)	(-4.79435099669709e+01dB,2.05625594708075e+01°)
1.11011011011011e+05	(-4.32456241550122e+01dB,3.62886250544707e+01°)	(-4.78999554839447e+01dB,2.04182233234190e+01°)
1.11111111111111e+05	(-4.31918870254749e+01dB,3.61147500965609e+01°)	(-4.78563974838788e+01dB,2.02734947327285e+01°)
1.11211211211211e+05	(-4.31381463739233e+01dB,3.59401506025849e+01°)	(-4.78128360063224e+01dB,2.01283719034995e+01°)
1.11311311311311e+05	(-4.30844025386031e+01dB,3.57648237893074e+01°)	(-4.77692710931418e+01dB,1.99828530350910e+01°)
1.11411411411411e+05	(-4.30306558625412e+01dB,3.55887668795196e+01°)	(-4.77257027885459e+01dB,1.98369363216158e+01°)
1.11511511511511e+05	(-4.29769066935669e+01dB,3.54119771024233e+01°)	(-4.76821311391103e+01dB,1.96906199521028e+01°)
1.11611611611611e+05	(-4.29231553843328e+01dB,3.52344516940227e+01°)	(-4.76385561938025e+01dB,1.95439021106650e+01°)
1.11711711711712e+05	(-4.28694022923354e+01dB,3.50561878975207e+01°)	(-4.75949780040059e+01dB,1.93967809766706e+01°)
1.11811811811812e+05	(-4.28156477799341e+01dB,3.48771829637218e+01°)	(-4.75513966235439e+01dB,1.92492547249208e+01°)
1.11911911911912e+05	(-4.27618922143711e+01dB,3.46974341514416e+01°)	(-4.75078121087041e+01dB,1.91013215258304e+01°)
1.12012012012012e+05	(-4.27081359677887e+01dB,3.45169387279212e+01°)	(-4.74642245182618e+01dB,1.89529795456151e+01°)
1.12112112112112e+05	(-4.26543794172479e+01dB,3.43356939692483e+01°)	(-4.74206339135038e+01dB,1.88042269464816e+01°)
1.12212212212212e+05	(-4.26006229447445e+01dB,3.41536971607845e+01°)	(-4.73770403582513e+01dB,1.86550618868251e+01°)
1.12312312312312e+05	(-4.25468669372255e+01dB,3.39709455975977e+01°)	(-4.73334439188828e+01dB,1.85054825214291e+01°)
1.12412412412412e+05	(-4.24931117866046e+01dB,3.37874365849020e+01°)	(-4.72898446643573e+01dB,1.83554870016721e+01°)
1.12512512512512e+05	(-4.24393578897764e+01dB,3.36031674385022e+01°)	(-4.72462426662356e+01dB,1.82050734757387e+01°)
1.12612612612612e+05	(-4.23856056486306e+01dB,3.34181354852449e+01°)	(-4.72026379987033e+01dB,1.80542400888351e+01°)
1.12712712712713e+05	(-4.23318554700644e+01dB,3.32323380634760e+01°)	(-4.71590307385918e+01dB,1.79029849834106e+01°)
1.12812812812813e+05	(-4.22781077659946e+01dB,3.30457725235034e+01°)	(-4.71154209653997e+01dB,1.77513062993835e+01°)
1.12912912912913e+05	(-4.22243629533687e+01dB,3.28584362280664e+01°)	(-4.70718087613135e+01dB,1.75992021743730e+01°)
1.13013013013013e+05	(-4.21706214541753e+01dB,3.26703265528106e+01°)	(-4.70281942112282e+01dB,1.74466707439344e+01°)
1.13113113113113e+05	(-4.21168836954527e+01dB,3.24814408867684e+01°)	(-4.69845774027672e+01dB,1.72937101418018e+01°)
1.13213213213213e+05	(-4.20631501092975e+01dB,3.22917766328467e+01°)	(-4.69409584263016e+01dB,1.71403185001340e+01°)
1.13313313313313e+05	(-4.20094211328717e+01dB,3.21013312083192e+01°)	(-4.68973373749695e+01dB,1.69864939497665e+01°)
1.13413413413413e+05	(-4.19556972084088e+01dB,3.19101020453245e+01°)	(-4.68537143446942e+01dB,1.68322346204687e+01°)
1.13513513513513e+05	(-4.19019787832187e+01dB,3.17180865913709e+01°)	(-4.68100894342024e+01dB,1.66775386412056e+01°)
1.13613613613613e+05	(-4.18482663096916e+01dB,3.15252823098467e+01°)	(-4.67664627450416e+01dB,1.65224041404055e+01°)
1.13713713713714e+05	(-4.17945602453014e+01dB,3.13316866805351e+01°)	(-4.67228343815967e+01dB,1.63668292462324e+01°)
1.13813813813814e+05	(-4.17408610526062e+01dB,3.11372972001364e+01°)	(-4.66792044511065e+01dB,1.62108120868635e+01°)
1.13913913913914e+05	(-4.16871691992501e+01dB,3.09421113827944e+01°)	(-4.66355730636789e+01dB,1.60543507907725e+01°)
1.14014014014014e+05	(-4.16334851579610e+01dB,3.07461267606291e+01°)	(-4.65919403323064e+01dB,1.58974434870166e+01°)
1.14114114114114e+05	(-4.15798094065498e+01dB,3.05493408842747e+01°)	(-4.65483063728800e+01dB,1.57400883055309e+01°)
1.14214214214214e+05	(-4.15261424279063e+01dB,3.03517513234226e+01°)	(-4.65046713042026e+01dB,1.55822833774257e+01°)
1.14314314314314e+05	(-4.14724847099947e+01dB,3.01533556673701e+01°)	(-4.64610352480024e+01dB,1.54240268352899e+01°)
1.14414414414414e+05	(-4.14188367458480e+01dB,2.99541515255742e+01°)	(-4.64173983289443e+01dB,1.52653168134999e+01°)
1.14514514514514e+05	(-4.13651990335601e+01dB,2.97541365282106e+01°)	(-4.63737606746418e+01dB,1.51061514485327e+01°)
1.14614614614614e+05	(-4.13115720762772e+01dB,2.95533083267371e+01°)	(-4.63301224156670e+01dB,1.49465288792842e+01°)
1.14714714714715e+05	(-4.12579563821876e+01dB,2.93516645944632e+01°)	(-4.62864836855607e+01dB,1.47864472473930e+01°)
1.14814814814815e+05	(-4.12043524645102e+01dB,2.91492030271230e+01°)	(-4.62428446208407e+01dB,1.46259046975683e+01°)
1.14914914914915e+05	(-4.11507608414807e+01dB,2.89459213434544e+01°)	(-4.61992053610101e+01dB,1.44648993779233e+01°)
1.15015015015015e+05	(-4.10971820363376e+01dB,2.87418172857810e+01°)	(-4.61555660485641e+01dB,1.43034294403133e+01°)
1.15115115115115e+05	(-4.10436165773052e+01dB,2.85368886206007e+01°)	(-4.61119268289960e+01dB,1.41414930406782e+01°)
1.15215215215215e+05	(-4.09900649975760e+01dB,2.83311331391763e+01°)	(-4.60682878508023e+01dB,1.39790883393904e+01°)
1.15315315315315e+05	(-4.09365278352913e+01dB,2.81245486581323e+01°)	(-4.60246492654870e+01dB,1.38162135016064e+01°)
1.15415415415415e+05	(-4.08830056335195e+01dB,2.79171330200546e+01°)	(-4.59810112275640e+01dB,1.36528666976237e+01°)
1.15515515515515e+05	(-4.08294989402334e+01dB,2.77088840940946e+01°)	(-4.59373738945598e+01dB,1.34890461032419e+01°)
1.15615615615615e+05	(-4.07760083082855e+01dB,2.74997997765765e+01°)	(-4.58937374270139e+01dB,1.33247499001283e+01°)
1.15715715715715e+05	(-4.07225342953816e+01dB,2.72898779916089e+01°)	(-4.58501019884785e+01dB,1.31599762761876e+01°)
1.15815815815816e+05	(-4.06690774640524e+01dB,2.70791166916995e+01°)	(-4.58064677455175e+01dB,1.29947234259360e+01°)
1.15915915915916e+05	(-4.06156383816235e+01dB,2.68675138583728e+01°)	(-4.57628348677035e+01dB,1.28289895508791e+01°)
1.16016016016016e+05	(-4.05622176201835e+01dB,2.66550675027917e+01°)	(-4.57192035276144e+01dB,1.26627728598945e+01°)
1.16116116116116e+05	(-4.05088157565498e+01dB,2.64417756663805e+01°)	(-4.56755739008280e+01dB,1.24960715696172e+01°)
1.16216216216216e+05	(-4.04554333722334e+01dB,2.62276364214524e+01°)	(-4.56319461659159e+01dB,1.23288839048301e+01°)
1.16316316316316e+05	(-4.04020710534003e+01dB,2.60126478718380e+01°)	(-4.55883205044360e+01dB,1.21612080988566e+01°)
1.16416416416416e+05	(-4.03487293908328e+01dB,2.57968081535166e+01°)	(-4.55446971009231e+01dB,1.19930423939581e+01°)
1.16516516516516e+05	(-4.02954089798865e+01dB,2.55801154352498e+01°)	(-4.55010761428795e+01dB,1.18243850417340e+01°)
1.16616616616616e+05	(-4.02421104204476e+01dB,2.53625679192168e+01°)	(-4.54574578207623e+01dB,1.16552343035254e+01°)
1.16716716716716e+05	(-4.01888343168860e+01dB,2.51441638416508e+01°)	(-4.54138423279711e+01dB,1.14855884508216e+01°)
1.16816816816817e+05	(-4.01355812780079e+01dB,2.49249014734773e+01°)	(-4.53702298608331e+01dB,1.13154457656692e+01°)
