time	I(Ls1)	I(Ls2)
0.000000000000000e+00	-3.439668e+00	-3.439668e+00
2.499999999985154e-08	-3.494334e+00	-3.494334e+00
4.999999999970308e-08	-3.547134e+00	-3.547134e+00
7.499999999955462e-08	-3.598068e+00	-3.598068e+00
9.999999999940616e-08	-3.647137e+00	-3.647137e+00
1.249999999992577e-07	-3.694339e+00	-3.694339e+00
1.499999999991092e-07	-3.739675e+00	-3.739675e+00
1.749999999989607e-07	-3.783146e+00	-3.783146e+00
1.964285714274049e-07	-3.818664e+00	-3.818664e+00
2.178571428558491e-07	-3.852482e+00	-3.852482e+00
2.392857142842933e-07	-3.884601e+00	-3.884601e+00
2.607142857127374e-07	-3.915021e+00	-3.915021e+00
2.821428571411816e-07	-3.943741e+00	-3.943741e+00
3.035714285696258e-07	-3.970761e+00	-3.970761e+00
3.249999999980699e-07	-3.996081e+00	-3.996081e+00
3.449999999979511e-07	-4.017965e+00	-4.017965e+00
3.592857142835805e-07	-4.032626e+00	-4.032626e+00
3.735714285692100e-07	-4.046419e+00	-4.046419e+00
3.878571428548395e-07	-4.059343e+00	-4.059343e+00
4.021428571404689e-07	-4.071400e+00	-4.071400e+00
4.164285714260984e-07	-4.082589e+00	-4.082589e+00
4.307142857117278e-07	-4.092909e+00	-4.092909e+00
4.449999999973572e-07	-4.102362e+00	-4.102362e+00
4.707142857114902e-07	-4.117171e+00	-4.117171e+00
4.964285714256233e-07	-4.128877e+00	-4.128877e+00
5.221428571397563e-07	-4.137482e+00	-4.137482e+00
5.478571428538893e-07	-4.142985e+00	-4.142985e+00
5.735714285680223e-07	-4.145385e+00	-4.145385e+00
5.992857142821553e-07	-4.144684e+00	-4.144684e+00
6.249999999962882e-07	-4.140881e+00	-4.140881e+00
6.692857142817395e-07	-4.126784e+00	-4.126784e+00
7.135714285671909e-07	-4.102520e+00	-4.102520e+00
7.578571428526422e-07	-4.068088e+00	-4.068088e+00
8.021428571380934e-07	-4.023488e+00	-4.023488e+00
8.464285714235447e-07	-3.968721e+00	-3.968721e+00
8.907142857089961e-07	-3.903786e+00	-3.903786e+00
9.349999999944472e-07	-3.828684e+00	-3.828684e+00
9.478571428515137e-07	-3.804857e+00	-3.804857e+00
9.607142857085801e-07	-3.780151e+00	-3.780151e+00
9.735714285656467e-07	-3.754567e+00	-3.754567e+00
9.864285714227133e-07	-3.728105e+00	-3.728105e+00
9.992857142797798e-07	-3.700764e+00	-3.700764e+00
1.012142857136846e-06	-3.672544e+00	-3.672544e+00
1.024999999993913e-06	-3.643447e+00	-3.643447e+00
1.034999999993853e-06	-3.620210e+00	-3.620210e+00
1.044999999993794e-06	-3.596444e+00	-3.596444e+00
1.054999999993735e-06	-3.572148e+00	-3.572148e+00
1.074999999993616e-06	-3.521973e+00	-3.521973e+00
1.104999999993438e-06	-3.442762e+00	-3.442762e+00
1.142142857136074e-06	-3.337914e+00	-3.337914e+00
1.179285714278711e-06	-3.226137e+00	-3.226137e+00
1.216428571421347e-06	-3.107431e+00	-3.107431e+00
1.253571428563984e-06	-2.981797e+00	-2.981797e+00
1.290714285706621e-06	-2.849234e+00	-2.849234e+00
1.327857142849257e-06	-2.709743e+00	-2.709743e+00
1.364999999991894e-06	-2.563323e+00	-2.563323e+00
1.374999999991834e-06	-2.522864e+00	-2.522864e+00
1.384999999991775e-06	-2.481937e+00	-2.481937e+00
1.394999999991715e-06	-2.440547e+00	-2.440547e+00
1.414999999991597e-06	-2.356388e+00	-2.356388e+00
1.444999999991418e-06	-2.226753e+00	-2.226753e+00
1.492142857133996e-06	-2.013802e+00	-2.013802e+00
1.539285714276573e-06	-1.792587e+00	-1.792587e+00
1.586428571419150e-06	-1.563108e+00	-1.563108e+00
1.633571428561727e-06	-1.325365e+00	-1.325365e+00
1.680714285704304e-06	-1.079359e+00	-1.079359e+00
1.727857142846882e-06	-8.250887e-01	-8.250887e-01
1.774999999989459e-06	-5.625548e-01	-5.625548e-01
1.787857142846525e-06	-4.901435e-01	-4.901435e-01
1.800714285703592e-06	-4.173092e-01	-4.173092e-01
1.813571428560658e-06	-3.440519e-01	-3.440519e-01
1.826428571417725e-06	-2.703716e-01	-2.703716e-01
1.839285714274791e-06	-1.962683e-01	-1.962683e-01
1.852142857131858e-06	-1.217421e-01	-1.217421e-01
1.864999999988924e-06	-4.679285e-02	-4.679285e-02
1.871580915533419e-06	-1.100567e-02	-1.100567e-02
1.876004846230236e-06	8.607781e-03	8.607781e-03
1.876012817542648e-06	8.630260e-03	8.630260e-03
1.876124415917070e-06	8.832370e-03	8.832370e-03
1.877272284912113e-06	1.091313e-02	1.091313e-02
1.878420153907157e-06	1.299758e-02	1.299758e-02
1.879568022902200e-06	1.508573e-02	1.508573e-02
1.880715891897244e-06	1.717758e-02	1.717758e-02
1.881863760892287e-06	1.927313e-02	1.927313e-02
1.883011629887331e-06	2.137237e-02	2.137237e-02
1.884159498882374e-06	2.347531e-02	2.347531e-02
1.892322122847142e-06	3.850895e-02	3.850895e-02
1.902322122847083e-06	5.711108e-02	5.711109e-02
1.922322122846964e-06	9.498143e-02	9.498143e-02
1.932322122846905e-06	1.142591e-01	1.142591e-01
1.942322122846845e-06	1.337637e-01	1.337637e-01
1.952322122846786e-06	1.534941e-01	1.534941e-01
1.962322122846727e-06	1.734489e-01	1.734489e-01
1.972322122846667e-06	1.936267e-01	1.936267e-01
1.982322122846608e-06	2.140259e-01	2.140259e-01
1.992322122846548e-06	2.346451e-01	2.346451e-01
2.002322122846489e-06	2.554826e-01	2.554826e-01
2.012322122846430e-06	2.765365e-01	2.765365e-01
2.022322122846370e-06	2.978053e-01	2.978053e-01
2.032322122846311e-06	3.192871e-01	3.192871e-01
2.042322122846251e-06	3.409799e-01	3.409799e-01
2.052322122846192e-06	3.628818e-01	3.628818e-01
2.062322122846133e-06	3.849909e-01	3.849909e-01
2.072322122846073e-06	4.073051e-01	4.073051e-01
2.082322122846014e-06	4.298223e-01	4.298223e-01
2.092322122845955e-06	4.525403e-01	4.525403e-01
2.102322122845895e-06	4.754570e-01	4.754570e-01
2.112322122845836e-06	4.985700e-01	4.985700e-01
2.122322122845776e-06	5.218771e-01	5.218771e-01
2.132322122845717e-06	5.453760e-01	5.453760e-01
2.142322122845658e-06	5.690641e-01	5.690641e-01
2.152322122845598e-06	5.929391e-01	5.929391e-01
2.162322122845539e-06	6.169986e-01	6.169986e-01
2.172322122845479e-06	6.412396e-01	6.412396e-01
2.182322122845420e-06	6.656600e-01	6.656600e-01
2.192322122845361e-06	6.902568e-01	6.902568e-01
2.202322122845301e-06	7.150276e-01	7.150276e-01
2.212322122845242e-06	7.399694e-01	7.399694e-01
2.222322122845182e-06	7.650794e-01	7.650794e-01
2.242322122845064e-06	8.157930e-01	8.157930e-01
2.262322122844945e-06	8.671452e-01	8.671452e-01
2.282322122844826e-06	9.191117e-01	9.191117e-01
2.302322122844707e-06	9.716679e-01	9.716679e-01
2.332322122844529e-06	1.051552e+00	1.051552e+00
2.362322122844351e-06	1.132617e+00	1.132617e+00
2.392322122844173e-06	1.214770e+00	1.214770e+00
2.439464979986750e-06	1.346910e+00	1.346910e+00
2.486607837129327e-06	1.480054e+00	1.480054e+00
2.533750694271905e-06	1.614202e+00	1.614202e+00
2.580893551414482e-06	1.749354e+00	1.749354e+00
2.628036408557059e-06	1.885510e+00	1.885510e+00
2.675179265699636e-06	2.022669e+00	2.022669e+00
2.722322122842213e-06	2.160831e+00	2.160831e+00
2.738036408556406e-06	2.206453e+00	2.206453e+00
2.753750694270598e-06	2.251945e+00	2.251945e+00
2.769464979984790e-06	2.297308e+00	2.297308e+00
2.785179265698983e-06	2.342541e+00	2.342541e+00
2.800893551413175e-06	2.387645e+00	2.387645e+00
2.816607837127367e-06	2.432619e+00	2.432619e+00
2.832322122841560e-06	2.477464e+00	2.477464e+00
2.852322122841441e-06	2.534198e+00	2.534198e+00
2.882322122841263e-06	2.618955e+00	2.618955e+00
2.912322122841085e-06	2.702460e+00	2.702460e+00
2.942322122840907e-06	2.784713e+00	2.784713e+00
2.972322122840728e-06	2.865713e+00	2.865713e+00
3.002322122840550e-06	2.945461e+00	2.945461e+00
3.032322122840372e-06	3.023957e+00	3.023957e+00
3.062322122840194e-06	3.101200e+00	3.101200e+00
3.082322122840075e-06	3.151628e+00	3.151628e+00
3.102322122839956e-06	3.201158e+00	3.201158e+00
3.122322122839838e-06	3.249791e+00	3.249791e+00
3.142322122839719e-06	3.297525e+00	3.297525e+00
3.162322122839600e-06	3.344362e+00	3.344362e+00
3.182322122839481e-06	3.390301e+00	3.390301e+00
3.202322122839362e-06	3.435343e+00	3.435343e+00
3.225179265696370e-06	3.485580e+00	3.485580e+00
3.248036408553377e-06	3.534275e+00	3.534275e+00
3.270893551410384e-06	3.581428e+00	3.581428e+00
3.293750694267391e-06	3.627038e+00	3.627038e+00
3.316607837124398e-06	3.671107e+00	3.671107e+00
3.339464979981405e-06	3.713633e+00	3.713633e+00
3.362322122838412e-06	3.754617e+00	3.754617e+00
3.372322122838353e-06	3.771947e+00	3.771947e+00
3.382322122838293e-06	3.788942e+00	3.788942e+00
3.402322122838175e-06	3.821907e+00	3.821907e+00
3.435179265695122e-06	3.873367e+00	3.873367e+00
3.468036408552070e-06	3.920566e+00	3.920566e+00
3.500893551409018e-06	3.963503e+00	3.963503e+00
3.533750694265966e-06	4.002178e+00	4.002178e+00
3.566607837122913e-06	4.036592e+00	4.036592e+00
3.599464979979861e-06	4.066744e+00	4.066744e+00
3.632322122836809e-06	4.092635e+00	4.092635e+00
3.643750694265312e-06	4.100437e+00	4.100437e+00
3.655179265693816e-06	4.107651e+00	4.107651e+00
3.666607837122319e-06	4.114279e+00	4.114279e+00
3.678036408550823e-06	4.120319e+00	4.120319e+00
3.689464979979326e-06	4.125771e+00	4.125771e+00
3.700893551407830e-06	4.130637e+00	4.130637e+00
3.712322122836334e-06	4.134915e+00	4.134915e+00
3.758036408550348e-06	4.146416e+00	4.146416e+00
3.803750694264362e-06	4.147466e+00	4.147466e+00
3.849464979978377e-06	4.138065e+00	4.138065e+00
3.895179265692391e-06	4.118215e+00	4.118215e+00
3.940893551406405e-06	4.087915e+00	4.087915e+00
3.986607837120419e-06	4.047164e+00	4.047164e+00
4.032322122834433e-06	3.995963e+00	3.995963e+00
4.099464979976892e-06	3.899773e+00	3.899773e+00
4.166607837119350e-06	3.779959e+00	3.779959e+00
4.233750694261809e-06	3.636522e+00	3.636522e+00
4.300893551404267e-06	3.469461e+00	3.469461e+00
4.368036408546725e-06	3.278775e+00	3.278775e+00
4.435179265689184e-06	3.064466e+00	3.064466e+00
4.502322122831642e-06	2.826533e+00	2.826533e+00
4.532322122831464e-06	2.713387e+00	2.713387e+00
4.552322122831345e-06	2.635545e+00	2.635545e+00
4.562322122831286e-06	2.595910e+00	2.595910e+00
4.572322122831226e-06	2.555802e+00	2.555802e+00
4.582322122831167e-06	2.515225e+00	2.515225e+00
4.592322122831108e-06	2.474181e+00	2.474181e+00
4.602322122831048e-06	2.432674e+00	2.432674e+00
4.622322122830929e-06	2.348283e+00	2.348283e+00
4.652322122830751e-06	2.218306e+00	2.218306e+00
4.699464979973329e-06	2.004826e+00	2.004826e+00
4.746607837115905e-06	1.783106e+00	1.783106e+00
4.793750694258483e-06	1.553145e+00	1.553145e+00
4.840893551401060e-06	1.314943e+00	1.314943e+00
4.888036408543637e-06	1.068500e+00	1.068500e+00
4.935179265686215e-06	8.138160e-01	8.138160e-01
4.982322122828791e-06	5.508915e-01	5.508915e-01
4.995179265685858e-06	4.783784e-01	4.783784e-01
5.008036408542924e-06	4.054455e-01	4.054455e-01
5.020893551399991e-06	3.320928e-01	3.320928e-01
5.033750694257058e-06	2.583202e-01	2.583202e-01
5.046607837114124e-06	1.841279e-01	1.841279e-01
5.059464979971191e-06	1.095158e-01	1.095158e-01
5.072322122828257e-06	3.448385e-02	3.448385e-02
5.077985652655014e-06	3.759979e-03	3.759979e-03
5.082078131179914e-06	-1.432513e-02	-1.432513e-02
5.082085408218478e-06	-1.434567e-02	-1.434567e-02
5.119926668329973e-06	-8.485249e-02	-8.485249e-02
5.157767928441469e-06	-1.584126e-01	-1.584126e-01
5.195609188552964e-06	-2.350261e-01	-2.350261e-01
5.233450448664460e-06	-3.146929e-01	-3.146929e-01
5.271291708775955e-06	-3.974130e-01	-3.974130e-01
5.309132968887451e-06	-4.831865e-01	-4.831865e-01
5.346974228998946e-06	-5.720133e-01	-5.720133e-01
5.358402800427449e-06	-5.993078e-01	-5.993078e-01
5.369831371855952e-06	-6.268322e-01	-6.268322e-01
5.381259943284456e-06	-6.545865e-01	-6.545865e-01
5.392688514712960e-06	-6.825707e-01	-6.825707e-01
5.404117086141464e-06	-7.107848e-01	-7.107848e-01
5.415545657569967e-06	-7.392287e-01	-7.392287e-01
5.426974228998471e-06	-7.679024e-01	-7.679024e-01
5.452688514712604e-06	-8.333137e-01	-8.333137e-01
5.478402800426737e-06	-8.996313e-01	-8.996313e-01
5.504117086140870e-06	-9.668553e-01	-9.668553e-01
5.529831371855002e-06	-1.034986e+00	-1.034986e+00
5.555545657569135e-06	-1.104022e+00	-1.104022e+00
5.581259943283268e-06	-1.173966e+00	-1.173966e+00
5.606974228997402e-06	-1.244815e+00	-1.244815e+00
5.652688514711416e-06	-1.373199e+00	-1.373199e+00
5.698402800425430e-06	-1.502478e+00	-1.502478e+00
5.744117086139445e-06	-1.632652e+00	-1.632652e+00
5.789831371853459e-06	-1.763722e+00	-1.763722e+00
5.835545657567472e-06	-1.895687e+00	-1.895687e+00
5.881259943281487e-06	-2.028547e+00	-2.028547e+00
5.926974228995501e-06	-2.162302e+00	-2.162302e+00
5.942688514709694e-06	-2.207870e+00	-2.207870e+00
5.958402800423886e-06	-2.253308e+00	-2.253308e+00
5.974117086138079e-06	-2.298616e+00	-2.298616e+00
5.989831371852270e-06	-2.343794e+00	-2.343794e+00
6.005545657566463e-06	-2.388842e+00	-2.388842e+00
6.021259943280655e-06	-2.433760e+00	-2.433760e+00
6.036974228994848e-06	-2.478549e+00	-2.478549e+00
6.056974228994729e-06	-2.535211e+00	-2.535211e+00
6.086974228994551e-06	-2.619860e+00	-2.619860e+00
6.116974228994373e-06	-2.703256e+00	-2.703256e+00
6.146974228994195e-06	-2.785399e+00	-2.785399e+00
6.176974228994016e-06	-2.866290e+00	-2.866290e+00
6.206974228993838e-06	-2.945928e+00	-2.945928e+00
6.236974228993660e-06	-3.024314e+00	-3.024314e+00
6.266974228993482e-06	-3.101447e+00	-3.101447e+00
6.286974228993363e-06	-3.151802e+00	-3.151802e+00
6.306974228993244e-06	-3.201260e+00	-3.201260e+00
6.326974228993126e-06	-3.249820e+00	-3.249820e+00
6.346974228993007e-06	-3.297483e+00	-3.297483e+00
6.366974228992888e-06	-3.344248e+00	-3.344248e+00
6.386974228992769e-06	-3.390116e+00	-3.390116e+00
6.406974228992651e-06	-3.435086e+00	-3.435086e+00
6.429831371849657e-06	-3.485243e+00	-3.485243e+00
6.452688514706665e-06	-3.533859e+00	-3.533859e+00
6.475545657563672e-06	-3.580934e+00	-3.580934e+00
6.498402800420679e-06	-3.626467e+00	-3.626467e+00
6.521259943277686e-06	-3.670460e+00	-3.670460e+00
6.544117086134694e-06	-3.712911e+00	-3.712911e+00
6.566974228991700e-06	-3.753821e+00	-3.753821e+00
6.591259943277270e-06	-3.795396e+00	-3.795396e+00
6.615545657562840e-06	-3.834807e+00	-3.834807e+00
6.639831371848410e-06	-3.872055e+00	-3.872055e+00
6.664117086133981e-06	-3.907139e+00	-3.907139e+00
6.688402800419551e-06	-3.940059e+00	-3.940059e+00
6.712688514705121e-06	-3.970816e+00	-3.970816e+00
6.736974228990691e-06	-3.999410e+00	-3.999410e+00
6.766974228990513e-06	-4.031283e+00	-4.031283e+00
6.779831371847579e-06	-4.043833e+00	-4.043833e+00
6.792688514704646e-06	-4.055676e+00	-4.055676e+00
6.805545657561712e-06	-4.066812e+00	-4.066812e+00
6.818402800418779e-06	-4.077241e+00	-4.077241e+00
6.831259943275845e-06	-4.086963e+00	-4.086963e+00
6.844117086132912e-06	-4.095977e+00	-4.095977e+00
6.856974228989978e-06	-4.104285e+00	-4.104285e+00
6.884117086132674e-06	-4.119512e+00	-4.119512e+00
6.911259943275370e-06	-4.131271e+00	-4.131271e+00
6.938402800418066e-06	-4.139560e+00	-4.139560e+00
6.965545657560762e-06	-4.144381e+00	-4.144381e+00
6.992688514703458e-06	-4.145732e+00	-4.145732e+00
7.019831371846154e-06	-4.143615e+00	-4.143615e+00
7.046974228988850e-06	-4.138028e+00	-4.138028e+00
7.091259943274301e-06	-4.121137e+00	-4.121137e+00
7.135545657559752e-06	-4.094054e+00	-4.094054e+00
7.179831371845204e-06	-4.056781e+00	-4.056781e+00
7.224117086130655e-06	-4.009317e+00	-4.009317e+00
7.268402800416106e-06	-3.951662e+00	-3.951662e+00
7.312688514701558e-06	-3.883816e+00	-3.883816e+00
7.356974228987009e-06	-3.805780e+00	-3.805780e+00
7.371259943272638e-06	-3.778310e+00	-3.778310e+00
7.385545657558267e-06	-3.749757e+00	-3.749757e+00
7.399831371843897e-06	-3.720121e+00	-3.720121e+00
7.414117086129527e-06	-3.689402e+00	-3.689402e+00
7.428402800415156e-06	-3.657600e+00	-3.657600e+00
7.442688514700785e-06	-3.624715e+00	-3.624715e+00
7.456974228986415e-06	-3.590747e+00	-3.590747e+00
7.476974228986296e-06	-3.541384e+00	-3.541384e+00
7.506974228986118e-06	-3.463388e+00	-3.463388e+00
7.545545657557317e-06	-3.355904e+00	-3.355904e+00
7.584117086128517e-06	-3.240946e+00	-3.240946e+00
7.622688514699716e-06	-3.118515e+00	-3.118515e+00
7.661259943270917e-06	-2.988611e+00	-2.988611e+00
7.699831371842116e-06	-2.851233e+00	-2.851233e+00
7.738402800413315e-06	-2.706382e+00	-2.706382e+00
7.776974228984514e-06	-2.554057e+00	-2.554057e+00
7.786974228984455e-06	-2.513501e+00	-2.513501e+00
7.796974228984396e-06	-2.472478e+00	-2.472478e+00
7.816974228984277e-06	-2.389048e+00	-2.389048e+00
7.836974228984158e-06	-2.303793e+00	-2.303793e+00
7.866974228983980e-06	-2.172549e+00	-2.172549e+00
7.915545657555120e-06	-1.950375e+00	-1.950375e+00
7.964117086126260e-06	-1.719635e+00	-1.719635e+00
8.012688514697400e-06	-1.480329e+00	-1.480329e+00
8.061259943268541e-06	-1.232458e+00	-1.232458e+00
8.109831371839681e-06	-9.760207e-01	-9.760207e-01
8.158402800410821e-06	-7.110183e-01	-7.110183e-01
8.206974228981961e-06	-4.374502e-01	-4.374502e-01
8.216974228981901e-06	-3.805857e-01	-3.805857e-01
8.226974228981842e-06	-3.234751e-01	-3.234751e-01
8.236974228981783e-06	-2.661185e-01	-2.661185e-01
8.246974228981723e-06	-2.085159e-01	-2.085159e-01
8.256974228981664e-06	-1.506672e-01	-1.506672e-01
8.266974228981604e-06	-9.257251e-02	-9.257251e-02
8.276974228981545e-06	-3.423176e-02	-3.423176e-02
8.282646426526971e-06	-3.480884e-03	-3.480884e-03
8.286740389688938e-06	1.459569e-02	1.459569e-02
8.286747671075586e-06	1.461621e-02	1.461621e-02
8.288875916391274e-06	1.847498e-02	1.847498e-02
8.291004161706963e-06	2.234519e-02	2.234519e-02
8.293132407022651e-06	2.622687e-02	2.622687e-02
8.295260652338339e-06	3.011999e-02	3.011999e-02
8.297388897654027e-06	3.402458e-02	3.402458e-02
8.299517142969716e-06	3.794062e-02	3.794062e-02
8.301645388285404e-06	4.186812e-02	4.186812e-02
8.321645388285285e-06	7.920785e-02	7.920785e-02
8.331645388285226e-06	9.821309e-02	9.821309e-02
8.341645388285166e-06	1.174458e-01	1.174458e-01
8.351645388285107e-06	1.369047e-01	1.369047e-01
8.361645388285047e-06	1.565889e-01	1.565889e-01
8.371645388284988e-06	1.764967e-01	1.764967e-01
8.381645388284929e-06	1.966270e-01	1.966270e-01
8.391645388284869e-06	2.169780e-01	2.169780e-01
8.401645388284810e-06	2.375484e-01	2.375484e-01
8.411645388284750e-06	2.583364e-01	2.583364e-01
8.421645388284691e-06	2.793403e-01	2.793403e-01
8.431645388284632e-06	3.005584e-01	3.005584e-01
8.441645388284572e-06	3.219889e-01	3.219889e-01
8.451645388284513e-06	3.436299e-01	3.436299e-01
8.461645388284453e-06	3.654794e-01	3.654794e-01
8.471645388284394e-06	3.875355e-01	3.875355e-01
8.481645388284335e-06	4.097961e-01	4.097961e-01
8.491645388284275e-06	4.322592e-01	4.322592e-01
8.501645388284216e-06	4.549226e-01	4.549226e-01
8.511645388284157e-06	4.777841e-01	4.777841e-01
8.521645388284097e-06	5.008414e-01	5.008414e-01
8.531645388284038e-06	5.240924e-01	5.240924e-01
8.541645388283978e-06	5.475345e-01	5.475345e-01
8.551645388283919e-06	5.711655e-01	5.711655e-01
8.561645388283860e-06	5.949829e-01	5.949829e-01
8.571645388283800e-06	6.189841e-01	6.189841e-01
8.581645388283741e-06	6.431667e-01	6.431667e-01
8.591645388283681e-06	6.675279e-01	6.675279e-01
8.601645388283622e-06	6.920654e-01	6.920654e-01
8.611645388283563e-06	7.167762e-01	7.167762e-01
8.621645388283503e-06	7.416577e-01	7.416577e-01
8.631645388283444e-06	7.667071e-01	7.667071e-01
8.651645388283325e-06	8.172982e-01	8.172982e-01
8.671645388283206e-06	8.685263e-01	8.685263e-01
8.691645388283088e-06	9.203674e-01	9.203674e-01
8.721645388282909e-06	9.992246e-01	9.992246e-01
8.751645388282731e-06	1.079319e+00	1.079319e+00
8.781645388282553e-06	1.160562e+00	1.160562e+00
8.811645388282375e-06	1.242860e+00	1.242860e+00
8.857359673996388e-06	1.371058e+00	1.371058e+00
8.903073959710404e-06	1.500158e+00	1.500158e+00
8.948788245424417e-06	1.630160e+00	1.630160e+00
8.994502531138432e-06	1.761063e+00	1.761063e+00
9.040216816852446e-06	1.892869e+00	1.892869e+00
9.085931102566461e-06	2.025577e+00	2.025577e+00
9.131645388280474e-06	2.159186e+00	2.159186e+00
9.147359673994666e-06	2.204706e+00	2.204706e+00
9.163073959708860e-06	2.250098e+00	2.250098e+00
9.178788245423051e-06	2.295360e+00	2.295360e+00
