time	I(Ls1)	I(Ls2)
0.000000000000000e+00	-4.551743e+00	-3.564650e+00
1.928571428559976e-08	-4.625836e+00	-3.619459e+00
3.857142857119952e-08	-4.698675e+00	-3.673294e+00
5.785714285679928e-08	-4.770262e+00	-3.726154e+00
7.714285714239904e-08	-4.840596e+00	-3.778039e+00
9.642857142799880e-08	-4.909676e+00	-3.828950e+00
1.157142857135986e-07	-4.977503e+00	-3.878887e+00
1.349999999991983e-07	-5.044078e+00	-3.927849e+00
1.692857142847089e-07	-5.159266e+00	-4.012430e+00
2.035714285702196e-07	-5.269214e+00	-4.092832e+00
2.378571428557303e-07	-5.373921e+00	-4.169055e+00
2.721428571412410e-07	-5.473388e+00	-4.241099e+00
3.064285714267516e-07	-5.567614e+00	-4.308963e+00
3.407142857122623e-07	-5.656599e+00	-4.372647e+00
3.749999999977729e-07	-5.740343e+00	-4.432152e+00
3.849999999977136e-07	-5.763494e+00	-4.448472e+00
3.949999999976542e-07	-5.786131e+00	-4.464379e+00
4.249999999974760e-07	-5.850915e+00	-4.509572e+00
4.407142857116684e-07	-5.882988e+00	-4.531743e+00
4.564285714258608e-07	-5.913685e+00	-4.552796e+00
4.721428571400532e-07	-5.943005e+00	-4.572734e+00
4.878571428542456e-07	-5.970949e+00	-4.591554e+00
5.035714285684379e-07	-5.997516e+00	-4.609258e+00
5.192857142826304e-07	-6.022707e+00	-4.625846e+00
5.349999999968227e-07	-6.046522e+00	-4.641316e+00
5.549999999967040e-07	-6.074701e+00	-4.659269e+00
5.921428571393406e-07	-6.121180e+00	-4.687868e+00
6.292857142819771e-07	-6.158902e+00	-4.709298e+00
6.664285714246137e-07	-6.187868e+00	-4.723558e+00
7.035714285672503e-07	-6.208078e+00	-4.730648e+00
7.407142857098869e-07	-6.219531e+00	-4.730569e+00
7.778571428525234e-07	-6.222227e+00	-4.723320e+00
8.149999999951599e-07	-6.216167e+00	-4.708902e+00
8.692857142805518e-07	-6.190459e+00	-4.673975e+00
9.235714285659437e-07	-6.144156e+00	-4.622063e+00
9.778571428513356e-07	-6.077256e+00	-4.553166e+00
1.032142857136728e-06	-5.989761e+00	-4.467283e+00
1.086428571422119e-06	-5.881670e+00	-4.364414e+00
1.140714285707511e-06	-5.752984e+00	-4.244560e+00
1.194999999992903e-06	-5.603701e+00	-4.107721e+00
1.220714285707036e-06	-5.525568e+00	-4.036762e+00
1.246428571421169e-06	-5.442851e+00	-3.962020e+00
1.272142857135302e-06	-5.355552e+00	-3.883495e+00
1.297857142849435e-06	-5.263669e+00	-3.801187e+00
1.323571428563568e-06	-5.167203e+00	-3.715096e+00
1.349285714277701e-06	-5.066153e+00	-3.625221e+00
1.374999999991834e-06	-4.960521e+00	-3.531564e+00
1.384999999991775e-06	-4.918255e+00	-3.494164e+00
1.394999999991715e-06	-4.875314e+00	-3.456207e+00
1.404999999991656e-06	-4.831700e+00	-3.417696e+00
1.414999999991597e-06	-4.787416e+00	-3.378632e+00
1.424999999991537e-06	-4.742463e+00	-3.339017e+00
1.444999999991418e-06	-4.650564e+00	-3.258144e+00
1.474999999991240e-06	-4.507771e+00	-3.132765e+00
1.504999999991062e-06	-4.359117e+00	-3.002560e+00
1.524999999990943e-06	-4.256799e+00	-2.913112e+00
1.544999999990825e-06	-4.151939e+00	-2.821576e+00
1.554999999990765e-06	-4.098565e+00	-2.775033e+00
1.564999999990706e-06	-4.044567e+00	-2.727976e+00
1.574999999990646e-06	-3.989947e+00	-2.680409e+00
1.594999999990528e-06	-3.878860e+00	-2.583761e+00
1.624999999990349e-06	-3.707670e+00	-2.435050e+00
1.646428571418794e-06	-3.581979e+00	-2.326027e+00
1.667857142847238e-06	-3.453704e+00	-2.214897e+00
1.689285714275682e-06	-3.322846e+00	-2.101659e+00
1.710714285704126e-06	-3.189404e+00	-1.986314e+00
1.732142857132570e-06	-3.053378e+00	-1.868862e+00
1.753571428561014e-06	-2.914769e+00	-1.749303e+00
1.774999999989459e-06	-2.773577e+00	-1.627636e+00
1.804999999989280e-06	-2.571632e+00	-1.453818e+00
1.834999999989102e-06	-2.365515e+00	-1.276648e+00
1.864999999988924e-06	-2.155226e+00	-1.096129e+00
1.894999999988746e-06	-1.940765e+00	-9.122583e-01
1.924999999988568e-06	-1.722132e+00	-7.250374e-01
1.954999999988390e-06	-1.499327e+00	-5.344659e-01
1.984999999988211e-06	-1.272350e+00	-3.405438e-01
2.014999999988033e-06	-1.042228e+00	-1.441794e-01
2.024999999987974e-06	-9.647614e-01	-7.813207e-02
2.034999999987915e-06	-8.871193e-01	-1.571558e-02
2.040634636383187e-06	-8.434798e-01	1.347236e-02
2.040645132154973e-06	-8.433991e-01	1.350831e-02
2.045034657678511e-06	-8.097555e-01	2.388836e-02
2.049424183202049e-06	-7.760480e-01	3.432034e-02
2.053813708725586e-06	-7.422767e-01	4.480426e-02
2.058203234249124e-06	-7.084415e-01	5.534012e-02
2.062592759772661e-06	-6.745424e-01	6.592791e-02
2.066982285296199e-06	-6.405794e-01	7.656764e-02
2.071371810819737e-06	-6.065526e-01	8.725931e-02
2.091371810819618e-06	-4.507283e-01	1.366377e-01
2.111371810819499e-06	-2.936146e-01	1.871144e-01
2.131371810819380e-06	-1.352713e-01	2.386670e-01
2.141371810819321e-06	-5.568531e-02	2.648170e-01
2.147948358724320e-06	-6.057090e-03	2.820350e-01
2.152370317558142e-06	2.259475e-02	2.934838e-01
2.152378284983473e-06	2.263270e-02	2.935039e-01
2.184707049578982e-06	1.438086e-01	3.755932e-01
2.217035814174492e-06	2.675197e-01	4.599814e-01
2.249364578770002e-06	3.937658e-01	5.466683e-01
2.281693343365512e-06	5.225471e-01	6.356540e-01
2.314022107961022e-06	6.538634e-01	7.269385e-01
2.346350872556531e-06	7.877148e-01	8.205218e-01
2.378679637152041e-06	9.241014e-01	9.164038e-01
2.437251065723122e-06	1.178319e+00	1.096566e+00
2.495822494294202e-06	1.435328e+00	1.279814e+00
2.554393922865283e-06	1.695129e+00	1.466148e+00
2.612965351436364e-06	1.957721e+00	1.655568e+00
2.671536780007445e-06	2.223104e+00	1.848074e+00
2.730108208578526e-06	2.491279e+00	2.043666e+00
2.788679637149606e-06	2.762245e+00	2.242344e+00
2.817251065720865e-06	2.892977e+00	2.338360e+00
2.845822494292124e-06	3.022885e+00	2.433873e+00
2.874393922863383e-06	3.151969e+00	2.528886e+00
2.902965351434642e-06	3.280228e+00	2.623397e+00
2.931536780005901e-06	3.407663e+00	2.717407e+00
2.960108208577160e-06	3.534275e+00	2.810915e+00
2.988679637148418e-06	3.660062e+00	2.903922e+00
2.998679637148359e-06	3.703652e+00	2.936153e+00
3.008679637148300e-06	3.747071e+00	2.968265e+00
3.028679637148181e-06	3.833376e+00	3.032108e+00
3.052965351433751e-06	3.937377e+00	3.109089e+00
3.077251065719321e-06	4.039951e+00	3.185004e+00
3.101536780004891e-06	4.141097e+00	3.259853e+00
3.125822494290461e-06	4.240816e+00	3.333636e+00
3.150108208576031e-06	4.339108e+00	3.406353e+00
3.174393922861601e-06	4.435972e+00	3.478005e+00
3.198679637147171e-06	4.531408e+00	3.548591e+00
3.215822494289927e-06	4.597653e+00	3.597551e+00
3.232965351432682e-06	4.662925e+00	3.645756e+00
3.250108208575437e-06	4.727224e+00	3.693208e+00
3.267251065718193e-06	4.790551e+00	3.739905e+00
3.284393922860948e-06	4.852904e+00	3.785848e+00
3.301536780003703e-06	4.914286e+00	3.831037e+00
3.318679637146459e-06	4.974694e+00	3.875472e+00
3.338679637146340e-06	5.043719e+00	3.926168e+00
3.348679637146280e-06	5.077667e+00	3.951073e+00
3.358679637146221e-06	5.111230e+00	3.975676e+00
3.378679637146102e-06	5.177182e+00	4.023955e+00
3.408679637145924e-06	5.273085e+00	4.093983e+00
3.432965351431494e-06	5.348161e+00	4.148657e+00
3.457251065717064e-06	5.420499e+00	4.201141e+00
3.481536780002634e-06	5.490098e+00	4.251435e+00
3.505822494288204e-06	5.556958e+00	4.299538e+00
3.530108208573775e-06	5.621079e+00	4.345451e+00
3.554393922859345e-06	5.682461e+00	4.389174e+00
3.578679637144914e-06	5.741104e+00	4.430707e+00
3.588679637144855e-06	5.764307e+00	4.447043e+00
3.618679637144677e-06	5.830819e+00	4.493556e+00
3.660108208573002e-06	5.915561e+00	4.552093e+00
3.701536780001328e-06	5.990185e+00	4.602391e+00
3.742965351429653e-06	6.054690e+00	4.644451e+00
3.784393922857979e-06	6.109076e+00	4.678272e+00
3.825822494286304e-06	6.153343e+00	4.703855e+00
3.867251065714629e-06	6.187492e+00	4.721200e+00
3.908679637142955e-06	6.211523e+00	4.730307e+00
3.977251065713976e-06	6.227115e+00	4.725594e+00
4.045822494284998e-06	6.210226e+00	4.694132e+00
4.114393922856019e-06	6.160854e+00	4.635919e+00
4.182965351427040e-06	6.078999e+00	4.550956e+00
4.251536779998062e-06	5.964662e+00	4.439242e+00
4.320108208569083e-06	5.817842e+00	4.300778e+00
4.388679637140104e-06	5.638540e+00	4.135564e+00
4.440108208568370e-06	5.481034e+00	3.992576e+00
4.491536779996636e-06	5.305610e+00	3.834821e+00
4.542965351424902e-06	5.112271e+00	3.662300e+00
4.594393922853168e-06	4.901015e+00	3.475013e+00
4.645822494281434e-06	4.671843e+00	3.272960e+00
4.697251065709700e-06	4.424754e+00	3.056141e+00
4.748679637137966e-06	4.159749e+00	2.824555e+00
4.758679637137907e-06	4.106425e+00	2.778057e+00
4.768679637137847e-06	4.052476e+00	2.731045e+00
4.778679637137788e-06	3.997906e+00	2.683524e+00
4.798679637137669e-06	3.886917e+00	2.586965e+00
4.828679637137491e-06	3.715868e+00	2.438387e+00
4.850108208565935e-06	3.590275e+00	2.329458e+00
4.871536779994379e-06	3.462096e+00	2.218420e+00
4.892965351422823e-06	3.331330e+00	2.105274e+00
4.914393922851268e-06	3.197978e+00	1.990019e+00
4.935822494279712e-06	3.062039e+00	1.872656e+00
4.957251065708156e-06	2.923514e+00	1.753184e+00
4.978679637136600e-06	2.782402e+00	1.631604e+00
5.007251065707859e-06	2.590320e+00	1.466294e+00
5.035822494279118e-06	2.394422e+00	1.297918e+00
5.064393922850377e-06	2.194707e+00	1.126478e+00
5.092965351421636e-06	1.991177e+00	9.519735e-01
5.121536779992895e-06	1.783831e+00	7.744037e-01
5.150108208564154e-06	1.572669e+00	5.937691e-01
5.178679637135412e-06	1.357692e+00	4.100695e-01
5.185822494278227e-06	1.303510e+00	3.638048e-01
5.192965351421042e-06	1.249131e+00	3.173855e-01
5.200108208563857e-06	1.194555e+00	2.708117e-01
5.207251065706671e-06	1.139781e+00	2.240832e-01
5.214393922849486e-06	1.084810e+00	1.772002e-01
5.221536779992300e-06	1.029643e+00	1.301626e-01
5.228679637135115e-06	9.742774e-01	8.297047e-02
5.238679637135056e-06	8.966525e-01	2.058110e-02
5.244313325075039e-06	8.530297e-01	-8.587343e-03
5.244323819333062e-06	8.529490e-01	-8.623262e-03
5.244386784881636e-06	8.524673e-01	-8.771375e-03
5.258767094342274e-06	7.419956e-01	-4.293649e-02
5.273147403802912e-06	6.308667e-01	-7.766053e-02
5.287527713263551e-06	5.190806e-01	-1.129435e-01
5.301908022724190e-06	4.066372e-01	-1.487854e-01
5.316288332184828e-06	2.935366e-01	-1.851863e-01
5.330668641645467e-06	1.797787e-01	-2.221461e-01
5.345048951106105e-06	6.536366e-02	-2.596648e-01
5.351625933720230e-06	1.573339e-02	-2.768685e-01
5.356047318758267e-06	-1.291507e-02	-2.883056e-01
5.356055285579697e-06	-1.295302e-02	-2.883257e-01
5.356166821081235e-06	-1.336468e-02	-2.886030e-01
5.387050904129982e-06	-1.290263e-01	-3.668837e-01
5.417934987178729e-06	-2.470306e-01	-4.472845e-01
5.448819070227476e-06	-3.673775e-01	-5.298055e-01
5.479703153276224e-06	-4.900671e-01	-6.144467e-01
5.510587236324970e-06	-6.150993e-01	-7.012080e-01
5.541471319373718e-06	-7.424742e-01	-7.900894e-01
5.572355402422464e-06	-8.721918e-01	-8.810910e-01
5.629498259564983e-06	-1.119054e+00	-1.055651e+00
5.686641116707500e-06	-1.368884e+00	-1.233400e+00
5.743783973850018e-06	-1.621683e+00	-1.414339e+00
5.800926830992535e-06	-1.877449e+00	-1.598468e+00
5.858069688135053e-06	-2.136183e+00	-1.785786e+00
5.915212545277572e-06	-2.397886e+00	-1.976294e+00
5.972355402420089e-06	-2.662556e+00	-2.169992e+00
6.003783973848474e-06	-2.806867e+00	-2.275818e+00
6.035212545276858e-06	-2.950253e+00	-2.381098e+00
6.066641116705243e-06	-3.092712e+00	-2.485830e+00
6.098069688133628e-06	-3.234247e+00	-2.590016e+00
6.129498259562013e-06	-3.374855e+00	-2.693654e+00
6.160926830990397e-06	-3.514538e+00	-2.796745e+00
6.192355402418782e-06	-3.653295e+00	-2.899289e+00
6.202355402418723e-06	-3.696963e+00	-2.931560e+00
6.212355402418664e-06	-3.740461e+00	-2.963712e+00
6.232355402418545e-06	-3.826927e+00	-3.027639e+00
6.256641116704115e-06	-3.931130e+00	-3.104725e+00
6.280926830989685e-06	-4.033910e+00	-3.180750e+00
6.305212545275255e-06	-4.135268e+00	-3.255714e+00
6.329498259560825e-06	-4.235204e+00	-3.329617e+00
6.353783973846395e-06	-4.333718e+00	-3.402458e+00
6.378069688131965e-06	-4.430810e+00	-3.474238e+00
6.402355402417535e-06	-4.526480e+00	-3.544956e+00
6.413783973846039e-06	-4.570824e+00	-3.577711e+00
6.425212545274542e-06	-4.614753e+00	-3.610146e+00
6.436641116703046e-06	-4.658267e+00	-3.642259e+00
6.448069688131550e-06	-4.701365e+00	-3.674052e+00
6.459498259560053e-06	-4.744047e+00	-3.705524e+00
6.470926830988556e-06	-4.786314e+00	-3.736675e+00
6.482355402417060e-06	-4.828166e+00	-3.767505e+00
6.516641116702571e-06	-4.951508e+00	-3.858314e+00
6.550926830988081e-06	-5.070012e+00	-3.945293e+00
6.585212545273592e-06	-5.183678e+00	-4.028441e+00
6.619498259559103e-06	-5.292506e+00	-4.107760e+00
6.653783973844614e-06	-5.396496e+00	-4.183249e+00
6.688069688130124e-06	-5.495648e+00	-4.254908e+00
6.722355402415635e-06	-5.589962e+00	-4.322738e+00
6.738069688129827e-06	-5.631118e+00	-4.352155e+00
6.753783973844020e-06	-5.671027e+00	-4.380569e+00
6.769498259558212e-06	-5.709689e+00	-4.407979e+00
6.785212545272404e-06	-5.747104e+00	-4.434385e+00
6.800926830986597e-06	-5.783272e+00	-4.459788e+00
6.816641116700789e-06	-5.818193e+00	-4.484187e+00
6.832355402414982e-06	-5.851867e+00	-4.507583e+00
6.849498259557737e-06	-5.887108e+00	-4.531898e+00
6.866641116700492e-06	-5.920707e+00	-4.554882e+00
6.883783973843248e-06	-5.952664e+00	-4.576534e+00
6.900926830986003e-06	-5.982978e+00	-4.596854e+00
6.918069688128758e-06	-6.011650e+00	-4.615843e+00
6.935212545271513e-06	-6.038680e+00	-4.633500e+00
6.952355402414269e-06	-6.064068e+00	-4.649826e+00
6.982355402414091e-06	-6.104493e+00	-4.675147e+00
7.012355402413913e-06	-6.139310e+00	-4.695885e+00
7.042355402413734e-06	-6.168519e+00	-4.712041e+00
7.072355402413556e-06	-6.192120e+00	-4.723615e+00
7.102355402413378e-06	-6.210113e+00	-4.730605e+00
7.132355402413200e-06	-6.222498e+00	-4.733013e+00
7.162355402413022e-06	-6.229274e+00	-4.730839e+00
7.220926830984102e-06	-6.225694e+00	-4.712828e+00
7.279498259555184e-06	-6.198303e+00	-4.675208e+00
7.338069688126264e-06	-6.147101e+00	-4.617976e+00
7.396641116697345e-06	-6.072088e+00	-4.541135e+00
7.455212545268426e-06	-5.973264e+00	-4.444683e+00
7.513783973839506e-06	-5.850630e+00	-4.328620e+00
7.572355402410587e-06	-5.704184e+00	-4.192947e+00
7.600926830981846e-06	-5.623643e+00	-4.119234e+00
7.629498259553104e-06	-5.537416e+00	-4.040830e+00
7.658069688124363e-06	-5.445502e+00	-3.957735e+00
7.686641116695623e-06	-5.347902e+00	-3.869950e+00
7.715212545266882e-06	-5.244615e+00	-3.777473e+00
7.743783973838140e-06	-5.135642e+00	-3.680306e+00
7.772355402409399e-06	-5.020982e+00	-3.578448e+00
7.782355402409340e-06	-4.979564e+00	-3.541737e+00
7.792355402409280e-06	-4.937467e+00	-3.504467e+00
7.802355402409221e-06	-4.894693e+00	-3.466639e+00
7.812355402409162e-06	-4.851245e+00	-3.428257e+00
7.822355402409102e-06	-4.807126e+00	-3.389321e+00
7.832355402409043e-06	-4.762337e+00	-3.349833e+00
7.852355402408924e-06	-4.670762e+00	-3.269215e+00
7.882355402408746e-06	-4.528445e+00	-3.144210e+00
7.912355402408568e-06	-4.380254e+00	-3.014374e+00
7.932355402408449e-06	-4.278238e+00	-2.925169e+00
7.952355402408330e-06	-4.173674e+00	-2.833871e+00
7.962355402408271e-06	-4.120446e+00	-2.787446e+00
7.972355402408211e-06	-4.066591e+00	-2.740506e+00
7.982355402408152e-06	-4.012115e+00	-2.693056e+00
7.992355402408093e-06	-3.957019e+00	-2.645099e+00
8.012355402407974e-06	-3.844986e+00	-2.547676e+00
8.042355402407796e-06	-3.672396e+00	-2.397823e+00
8.062355402407677e-06	-3.554262e+00	-2.295401e+00
8.082355402407558e-06	-3.433879e+00	-2.191148e+00
8.102355402407439e-06	-3.311248e+00	-2.085062e+00
8.122355402407321e-06	-3.186368e+00	-1.977144e+00
8.142355402407202e-06	-3.059240e+00	-1.867395e+00
8.162355402407083e-06	-2.929864e+00	-1.755814e+00
8.182355402406964e-06	-2.798239e+00	-1.642400e+00
8.209498259549660e-06	-2.616078e+00	-1.485612e+00
8.236641116692357e-06	-2.430441e+00	-1.326030e+00
8.263783973835052e-06	-2.241327e+00	-1.163655e+00
8.290926830977748e-06	-2.048737e+00	-9.984866e-01
8.318069688120443e-06	-1.852670e+00	-8.305246e-01
8.345212545263140e-06	-1.653126e+00	-6.597692e-01
8.372355402405836e-06	-1.450105e+00	-4.862204e-01
8.380926830977213e-06	-1.385442e+00	-4.309850e-01
8.389498259548591e-06	-1.320492e+00	-3.755237e-01
8.398069688119968e-06	-1.255254e+00	-3.198365e-01
8.406641116691347e-06	-1.189728e+00	-2.639233e-01
8.415212545262725e-06	-1.123915e+00	-2.077842e-01
8.423783973834102e-06	-1.057814e+00	-1.514191e-01
8.432355402405479e-06	-9.914258e-01	-9.482814e-02
8.442355402405420e-06	-9.137924e-01	-3.139431e-02
8.447988670843296e-06	-8.701724e-01	-2.168026e-03
8.451257965324914e-06	-8.450053e-01	9.683003e-03
8.451263862351488e-06	-8.449601e-01	9.698646e-03
8.454416050394039e-06	-8.207902e-01	1.715528e-02
8.457568238436589e-06	-7.965850e-01	2.464034e-02
8.460720426479141e-06	-7.723446e-01	3.215382e-02
8.463872614521691e-06	-7.480689e-01	3.969571e-02
8.467024802564242e-06	-7.237579e-01	4.726603e-02
8.470176990606792e-06	-6.994117e-01	5.486477e-02
8.473329178649344e-06	-6.750302e-01	6.249193e-02
8.493329178649225e-06	-5.196442e-01	1.114611e-01
8.513329178649106e-06	-3.629438e-01	1.615385e-01
8.533329178648987e-06	-2.049867e-01	2.127026e-01
8.543329178648928e-06	-1.255567e-01	2.386848e-01
8.553329178648868e-06	-4.587055e-02	2.649015e-01
8.558966494304383e-06	-3.390737e-03	2.796890e-01
8.563051320640072e-06	2.302812e-02	2.902821e-01
8.563058580265915e-06	2.306276e-02	2.903005e-01
8.595180465178305e-06	1.436768e-01	3.719816e-01
8.627302350090694e-06	2.667955e-01	4.559364e-01
8.659424235003084e-06	3.924190e-01	5.421649e-01
8.691546119915473e-06	5.205471e-01	6.306670e-01
8.723668004827862e-06	6.511800e-01	7.214428e-01
8.755789889740252e-06	7.843177e-01	8.144923e-01
8.787911774652641e-06	9.199600e-01	9.098154e-01
8.846483203223722e-06	1.174423e+00	1.090091e+00
8.905054631794802e-06	1.431694e+00	1.273475e+00
8.963626060365883e-06	1.691773e+00	1.459969e+00
9.022197488936965e-06	1.954660e+00	1.649573e+00
9.080768917508045e-06	2.220355e+00	1.842285e+00
9.139340346079126e-06	2.488858e+00	2.038107e+00
9.197911774650206e-06	2.760169e+00	2.237038e+00
9.226483203221465e-06	2.891074e+00	2.333185e+00
9.255054631792724e-06	3.021159e+00	2.428836e+00
9.283626060363982e-06	3.150423e+00	2.523990e+00
9.312197488935243e-06	3.278866e+00	2.618649e+00
9.340768917506501e-06	3.406488e+00	2.712811e+00
9.369340346077760e-06	3.533290e+00	2.806477e+00
9.397911774649019e-06	3.659271e+00	2.899647e+00
9.407911774648959e-06	3.702929e+00	2.931936e+00
9.417911774648900e-06	3.746417e+00	2.964107e+00
9.437911774648781e-06	3.832860e+00	3.028069e+00
9.459340346077226e-06	3.924793e+00	3.096130e+00
9.480768917505670e-06	4.015645e+00	3.163389e+00
9.502197488934114e-06	4.105416e+00	3.229845e+00
9.523626060362557e-06	4.194105e+00	3.295498e+00
9.545054631791001e-06	4.281713e+00	3.360347e+00
9.566483203219446e-06	4.368240e+00	3.424394e+00
9.587911774647890e-06	4.453685e+00	3.487638e+00
9.597911774647831e-06	4.493048e+00	3.516757e+00
9.610768917504898e-06	4.543266e+00	3.553900e+00
9.623626060361963e-06	4.592962e+00	3.590640e+00
9.636483203219030e-06	4.642136e+00	3.626978e+00
9.649340346076097e-06	4.690788e+00	3.662915e+00
9.662197488933164e-06	4.738919e+00	3.698449e+00
9.675054631790229e-06	4.786527e+00	3.733581e+00
9.687911774647296e-06	4.833614e+00	3.768311e+00
9.699340346075800e-06	4.874987e+00	3.798807e+00
9.710768917504304e-06	4.915881e+00	3.828928e+00
9.722197488932808e-06	4.956297e+00	3.858675e+00
9.733626060361310e-06	4.996234e+00	3.888047e+00
9.745054631789814e-06	5.035693e+00	3.917045e+00
9.756483203218317e-06	5.074673e+00	3.945668e+00
9.767911774646821e-06	5.113174e+00	3.973917e+00
9.777911774646762e-06	5.146426e+00	3.998290e+00
9.797911774646643e-06	5.211739e+00	4.046095e+00
9.825054631789339e-06	5.298033e+00	4.109141e+00
9.852197488932036e-06	5.380947e+00	4.169489e+00
9.879340346074731e-06	5.460480e+00	4.227136e+00
9.906483203217427e-06	5.536633e+00	4.282085e+00
