time	I(Ls1)	I(Ls2)
0.000000000000000e+00	-6.976755e+00	-2.788578e+00
1.499999999991092e-08	-6.990387e+00	-2.793222e+00
2.999999999982185e-08	-7.002498e+00	-2.797060e+00
4.499999999973277e-08	-7.013089e+00	-2.800092e+00
5.999999999964370e-08	-7.022160e+00	-2.802319e+00
7.499999999955462e-08	-7.029710e+00	-2.803741e+00
8.999999999946555e-08	-7.035740e+00	-2.804357e+00
1.049999999993764e-07	-7.040249e+00	-2.804167e+00
1.349999999991983e-07	-7.044582e+00	-2.801310e+00
1.649999999990201e-07	-7.042373e+00	-2.794851e+00
1.949999999988420e-07	-7.033621e+00	-2.784789e+00
2.249999999986638e-07	-7.018327e+00	-2.771126e+00
2.549999999984857e-07	-6.996490e+00	-2.753859e+00
2.849999999983075e-07	-6.968110e+00	-2.732991e+00
3.149999999981293e-07	-6.933188e+00	-2.708520e+00
3.478571428550770e-07	-6.887116e+00	-2.677315e+00
3.807142857120247e-07	-6.832889e+00	-2.641451e+00
4.135714285689725e-07	-6.770506e+00	-2.600930e+00
4.464285714259202e-07	-6.699967e+00	-2.555751e+00
4.792857142828680e-07	-6.621273e+00	-2.505914e+00
5.121428571398158e-07	-6.534423e+00	-2.451419e+00
5.449999999967634e-07	-6.439418e+00	-2.392266e+00
5.649999999966446e-07	-6.377587e+00	-2.353917e+00
5.749999999965852e-07	-6.345541e+00	-2.334087e+00
5.849999999965258e-07	-6.312743e+00	-2.313821e+00
5.949999999964664e-07	-6.279195e+00	-2.293118e+00
6.149999999963476e-07	-6.209848e+00	-2.250407e+00
6.449999999961695e-07	-6.100224e+00	-2.183077e+00
6.864285714244949e-07	-5.937358e+00	-2.083417e+00
7.278571428528203e-07	-5.762341e+00	-1.976634e+00
7.692857142811457e-07	-5.575174e+00	-1.862727e+00
8.107142857094712e-07	-5.375855e+00	-1.741698e+00
8.521428571377966e-07	-5.164386e+00	-1.613545e+00
8.935714285661219e-07	-4.940765e+00	-1.478270e+00
9.349999999944472e-07	-4.704994e+00	-1.335872e+00
9.449999999943878e-07	-4.646518e+00	-1.300581e+00
9.549999999943284e-07	-4.587389e+00	-1.264907e+00
9.749999999942097e-07	-4.467193e+00	-1.192425e+00
1.004999999994032e-06	-4.282116e+00	-1.080906e+00
1.039285714279542e-06	-4.063137e+00	-9.490555e-01
1.073571428565053e-06	-3.837598e+00	-8.134320e-01
1.107857142850564e-06	-3.605498e+00	-6.740355e-01
1.142142857136074e-06	-3.366838e+00	-5.308659e-01
1.176428571421585e-06	-3.121618e+00	-3.839232e-01
1.210714285707096e-06	-2.869838e+00	-2.332075e-01
1.244999999992606e-06	-2.611497e+00	-7.871877e-02
1.254999999992547e-06	-2.535290e+00	-3.320357e-02
1.261576559590015e-06	-2.485475e+00	-5.750805e-03
1.265997727369766e-06	-2.452792e+00	8.388906e-03
1.266005693673381e-06	-2.452735e+00	8.401875e-03
1.266021626280612e-06	-2.452626e+00	8.412171e-03
1.302633501224128e-06	-2.197060e+00	3.398595e-02
1.339245376167645e-06	-1.936204e+00	6.298771e-02
1.375857251111162e-06	-1.670059e+00	9.541744e-02
1.412469126054679e-06	-1.398625e+00	1.312751e-01
1.449081000998196e-06	-1.121901e+00	1.705608e-01
1.485692875941713e-06	-8.398879e-01	2.132745e-01
1.522304750885229e-06	-5.525853e-01	2.594161e-01
1.530876179456607e-06	-4.848639e-01	2.706577e-01
1.539447608027985e-06	-4.169316e-01	2.820680e-01
1.548019036599362e-06	-3.487885e-01	2.936469e-01
1.556590465170740e-06	-2.804346e-01	3.053944e-01
1.565161893742118e-06	-2.118698e-01	3.173106e-01
1.573733322313495e-06	-1.430943e-01	3.293954e-01
1.582304750884873e-06	-7.410789e-02	3.416488e-01
1.588906938169814e-06	-2.348712e-02	3.506391e-01
1.593334397237151e-06	6.131259e-03	3.558098e-01
1.593342378663652e-06	6.172092e-03	3.558166e-01
1.593358341516436e-06	6.238051e-03	3.558269e-01
1.594521349368878e-06	1.104556e-02	3.565772e-01
1.595684357221321e-06	1.585740e-02	3.573313e-01
1.596847365073763e-06	2.067356e-02	3.580892e-01
1.598010372926205e-06	2.549406e-02	3.588508e-01
1.599173380778647e-06	3.031888e-02	3.596163e-01
1.600336388631089e-06	3.514803e-02	3.603855e-01
1.601499396483531e-06	3.998152e-02	3.611585e-01
1.619672377156135e-06	1.159253e-01	3.735917e-01
1.649672377155957e-06	2.431018e-01	3.956738e-01
1.679672377155779e-06	3.725566e-01	4.197578e-01
1.709672377155601e-06	5.041999e-01	4.458208e-01
1.739672377155423e-06	6.379342e-01	4.738349e-01
1.769672377155244e-06	7.736567e-01	5.037680e-01
1.789672377155126e-06	8.651899e-01	5.247717e-01
1.809672377155007e-06	9.575258e-01	5.466003e-01
1.829672377154888e-06	1.050631e+00	5.692413e-01
1.849672377154769e-06	1.144470e+00	5.926812e-01
1.859672377154710e-06	1.191654e+00	6.046963e-01
1.869672377154651e-06	1.239008e+00	6.169058e-01
1.879672377154591e-06	1.286527e+00	6.293077e-01
1.889672377154532e-06	1.334208e+00	6.419001e-01
1.899672377154472e-06	1.382045e+00	6.546810e-01
1.909672377154413e-06	1.430033e+00	6.676483e-01
1.919672377154354e-06	1.478168e+00	6.808000e-01
1.929672377154294e-06	1.526445e+00	6.941339e-01
1.939672377154235e-06	1.574859e+00	7.076479e-01
1.949672377154175e-06	1.623406e+00	7.213396e-01
1.959672377154116e-06	1.672080e+00	7.352068e-01
1.969672377154057e-06	1.720876e+00	7.492473e-01
1.979672377153997e-06	1.769789e+00	7.634585e-01
1.989672377153938e-06	1.818814e+00	7.778382e-01
1.999672377153879e-06	1.867947e+00	7.923838e-01
2.009672377153819e-06	1.917181e+00	8.070928e-01
2.019672377153760e-06	1.966512e+00	8.219628e-01
2.029672377153700e-06	2.015934e+00	8.369910e-01
2.049672377153582e-06	2.115031e+00	8.675115e-01
2.069672377153463e-06	2.214430e+00	8.986330e-01
2.089672377153344e-06	2.314086e+00	9.303330e-01
2.119672377153166e-06	2.463958e+00	9.789174e-01
2.149672377152988e-06	2.614159e+00	1.028671e+00
2.188243805724187e-06	2.808384e+00	1.094735e+00
2.226815234295387e-06	3.001697e+00	1.161904e+00
2.265386662866586e-06	3.194100e+00	1.230180e+00
2.303958091437786e-06	3.385591e+00	1.299561e+00
2.342529520008985e-06	3.576171e+00	1.370049e+00
2.381100948580185e-06	3.765841e+00	1.441642e+00
2.419672377151384e-06	3.954599e+00	1.514341e+00
2.439672377151265e-06	4.051187e+00	1.551915e+00
2.449672377151206e-06	4.099247e+00	1.570728e+00
2.459672377151147e-06	4.147142e+00	1.589551e+00
2.469672377151087e-06	4.194867e+00	1.608382e+00
2.479672377151028e-06	4.242414e+00	1.627216e+00
2.499672377150909e-06	4.336951e+00	1.664877e+00
2.529672377150731e-06	4.477265e+00	1.721290e+00
2.559672377150553e-06	4.615636e+00	1.777507e+00
2.601100948578878e-06	4.804334e+00	1.855381e+00
2.642529520007204e-06	4.987401e+00	1.931589e+00
2.683958091435529e-06	5.164839e+00	2.006132e+00
2.725386662863854e-06	5.336645e+00	2.079010e+00
2.766815234292180e-06	5.502822e+00	2.150223e+00
2.808243805720505e-06	5.663368e+00	2.219771e+00
2.849672377148831e-06	5.818284e+00	2.287654e+00
2.895386662862845e-06	5.980970e+00	2.359490e+00
2.941100948576859e-06	6.132985e+00	2.426572e+00
2.986815234290873e-06	6.274330e+00	2.488900e+00
3.032529520004888e-06	6.405003e+00	2.546474e+00
3.078243805718902e-06	6.525005e+00	2.599295e+00
3.123958091432916e-06	6.634337e+00	2.647362e+00
3.169672377146930e-06	6.732997e+00	2.690676e+00
3.199672377146752e-06	6.790173e+00	2.715186e+00
3.209672377146693e-06	6.808022e+00	2.722758e+00
3.239672377146514e-06	6.857871e+00	2.743628e+00
3.253958091432144e-06	6.879665e+00	2.752597e+00
3.268243805717773e-06	6.900138e+00	2.760888e+00
3.282529520003403e-06	6.919291e+00	2.768500e+00
3.296815234289032e-06	6.937123e+00	2.775434e+00
3.311100948574662e-06	6.953634e+00	2.781689e+00
3.325386662860291e-06	6.968825e+00	2.787266e+00
3.339672377145921e-06	6.982695e+00	2.792165e+00
3.355386662860113e-06	6.996380e+00	2.796733e+00
3.371100948574305e-06	7.008372e+00	2.800401e+00
3.386815234288498e-06	7.018669e+00	2.803169e+00
3.402529520002690e-06	7.027273e+00	2.805038e+00
3.418243805716883e-06	7.034182e+00	2.806006e+00
3.433958091431075e-06	7.039397e+00	2.806074e+00
3.449672377145267e-06	7.042917e+00	2.805243e+00
3.485386662859341e-06	7.044606e+00	2.800018e+00
3.521100948573415e-06	7.036943e+00	2.789608e+00
3.556815234287488e-06	7.019926e+00	2.774015e+00
3.592529520001562e-06	6.993556e+00	2.753238e+00
3.628243805715636e-06	6.957834e+00	2.727277e+00
3.663958091429709e-06	6.912759e+00	2.696133e+00
3.699672377143783e-06	6.858331e+00	2.659804e+00
3.768243805714804e-06	6.725704e+00	2.574210e+00
3.836815234285826e-06	6.558105e+00	2.468303e+00
3.905386662856847e-06	6.355534e+00	2.342083e+00
3.973958091427868e-06	6.117991e+00	2.195549e+00
4.042529519998890e-06	5.845476e+00	2.028702e+00
4.111100948569911e-06	5.537989e+00	1.841542e+00
4.179672377140932e-06	5.195530e+00	1.634068e+00
4.209672377140754e-06	5.035959e+00	1.537476e+00
4.239672377140576e-06	4.870260e+00	1.437287e+00
4.259672377140457e-06	4.756443e+00	1.368528e+00
4.269672377140397e-06	4.698540e+00	1.333566e+00
4.279672377140338e-06	4.639981e+00	1.298219e+00
4.289672377140279e-06	4.580770e+00	1.262490e+00
4.309672377140160e-06	4.460409e+00	1.189897e+00
4.339672377139982e-06	4.275090e+00	1.078214e+00
4.373958091425492e-06	4.055837e+00	9.461759e-01
4.408243805711003e-06	3.830031e+00	8.103676e-01
4.442529519996513e-06	3.597672e+00	6.707894e-01
4.476815234282025e-06	3.358759e+00	5.274411e-01
4.511100948567535e-06	3.113293e+00	3.803227e-01
4.545386662853046e-06	2.861273e+00	2.294344e-01
4.579672377138556e-06	2.602700e+00	7.477597e-02
4.593422377138475e-06	2.497754e+00	1.208716e-02
4.595596785303500e-06	2.481064e+00	2.124231e-03
4.595775932228442e-06	2.479693e+00	1.327989e-03
4.596134226078326e-06	2.476987e+00	-8.982771e-05
4.596339998238271e-06	2.475469e+00	-7.306453e-04
4.596343179767747e-06	2.475446e+00	-7.371914e-04
4.596349542826698e-06	2.475401e+00	-7.465232e-04
4.596384557085552e-06	2.475156e+00	-7.910526e-04
4.596429133367236e-06	2.474847e+00	-8.348294e-04
4.596468810960479e-06	2.474573e+00	-8.665348e-04
4.596469595667630e-06	2.474568e+00	-8.670714e-04
4.596471165082151e-06	2.474557e+00	-8.680785e-04
4.599735951404980e-06	2.452115e+00	-2.983217e-03
4.603000737727808e-06	2.429624e+00	-5.126289e-03
4.606265524050637e-06	2.407082e+00	-7.297295e-03
4.609530310373466e-06	2.384491e+00	-9.496235e-03
4.612795096696295e-06	2.361850e+00	-1.172311e-02
4.616059883019123e-06	2.339159e+00	-1.397792e-02
4.619324669341953e-06	2.316419e+00	-1.626066e-02
4.629324669341893e-06	2.246518e+00	-2.339862e-02
4.639324669341834e-06	2.176164e+00	-3.080099e-02
4.649324669341775e-06	2.105362e+00	-3.846784e-02
4.659324669341715e-06	2.034118e+00	-4.639890e-02
4.679324669341596e-06	1.890325e+00	-6.305148e-02
4.699324669341478e-06	1.744831e+00	-8.075343e-02
4.719324669341359e-06	1.597681e+00	-9.949803e-02
4.749324669341181e-06	1.373957e+00	-1.295524e-01
4.779324669341002e-06	1.146782e+00	-1.619038e-01
4.809324669340824e-06	9.163287e-01	-1.965164e-01
4.825038955055017e-06	7.942904e-01	-2.155583e-01
4.840753240769209e-06	6.714997e-01	-2.351826e-01
4.856467526483402e-06	5.479563e-01	-2.553893e-01
4.872181812197594e-06	4.236605e-01	-2.761783e-01
4.887896097911786e-06	2.986122e-01	-2.975496e-01
4.903610383625979e-06	1.728113e-01	-3.195033e-01
4.919324669340171e-06	4.625792e-02	-3.420394e-01
4.924895150099778e-06	3.599294e-03	-3.496597e-01
4.928918804147095e-06	-2.327404e-02	-3.543804e-01
4.928925963162880e-06	-2.331071e-02	-3.543865e-01
4.965304155517183e-06	-1.760541e-01	-3.797351e-01
5.001682347871485e-06	-3.317766e-01	-4.079172e-01
5.038060540225788e-06	-4.904782e-01	-4.389327e-01
5.074438732580091e-06	-6.521590e-01	-4.727815e-01
5.110816924934394e-06	-8.168188e-01	-5.094638e-01
5.147195117288696e-06	-9.844577e-01	-5.489795e-01
5.183573309642999e-06	-1.155076e+00	-5.913286e-01
5.196430452500065e-06	-1.215802e+00	-6.068813e-01
5.209287595357132e-06	-1.276781e+00	-6.227434e-01
5.222144738214198e-06	-1.338012e+00	-6.389152e-01
5.235001881071265e-06	-1.399496e+00	-6.553965e-01
5.247859023928331e-06	-1.461233e+00	-6.721873e-01
5.260716166785398e-06	-1.523222e+00	-6.892877e-01
5.273573309642465e-06	-1.585464e+00	-7.066977e-01
5.306430452499412e-06	-1.745897e+00	-7.527245e-01
5.339287595356360e-06	-1.907098e+00	-8.003502e-01
5.372144738213308e-06	-2.069067e+00	-8.495749e-01
5.405001881070256e-06	-2.231804e+00	-9.003986e-01
5.437859023927203e-06	-2.395308e+00	-9.528212e-01
5.470716166784151e-06	-2.559580e+00	-1.006843e+00
5.503573309641099e-06	-2.724620e+00	-1.062463e+00
5.540716166783736e-06	-2.911500e+00	-1.126994e+00
5.577859023926372e-06	-3.097395e+00	-1.192471e+00
5.615001881069009e-06	-3.282304e+00	-1.258894e+00
5.652144738211645e-06	-3.466228e+00	-1.326263e+00
5.689287595354282e-06	-3.649166e+00	-1.394579e+00
5.726430452496919e-06	-3.831117e+00	-1.463841e+00
5.763573309639555e-06	-4.012084e+00	-1.534050e+00
5.779287595353747e-06	-4.087758e+00	-1.563683e+00
5.795001881067940e-06	-4.162967e+00	-1.593307e+00
5.810716166782132e-06	-4.237713e+00	-1.622924e+00
5.826430452496324e-06	-4.311995e+00	-1.652531e+00
5.842144738210516e-06	-4.385812e+00	-1.682131e+00
5.857859023924709e-06	-4.459165e+00	-1.711722e+00
5.873573309638901e-06	-4.532054e+00	-1.741304e+00
5.912144738210101e-06	-4.709338e+00	-1.814130e+00
5.950716166781301e-06	-4.882011e+00	-1.885700e+00
5.989287595352500e-06	-5.050073e+00	-1.956015e+00
6.027859023923699e-06	-5.213525e+00	-2.025074e+00
6.066430452494899e-06	-5.372367e+00	-2.092877e+00
6.105001881066099e-06	-5.526598e+00	-2.159425e+00
6.143573309637298e-06	-5.676219e+00	-2.224718e+00
6.156430452494364e-06	-5.724533e+00	-2.245835e+00
6.169287595351431e-06	-5.772149e+00	-2.266684e+00
6.182144738208497e-06	-5.819067e+00	-2.287264e+00
6.195001881065564e-06	-5.865286e+00	-2.307575e+00
6.207859023922630e-06	-5.910808e+00	-2.327616e+00
6.220716166779697e-06	-5.955632e+00	-2.347389e+00
6.233573309636763e-06	-5.999757e+00	-2.366892e+00
6.243573309636704e-06	-6.033539e+00	-2.381836e+00
6.263573309636585e-06	-6.099732e+00	-2.411160e+00
6.293573309636407e-06	-6.195506e+00	-2.453674e+00
6.337859023921858e-06	-6.329991e+00	-2.513831e+00
6.382144738207309e-06	-6.453364e+00	-2.568701e+00
6.426430452492761e-06	-6.565625e+00	-2.618282e+00
6.470716166778213e-06	-6.666773e+00	-2.662575e+00
6.515001881063664e-06	-6.756809e+00	-2.701579e+00
6.559287595349115e-06	-6.835733e+00	-2.735296e+00
6.603573309634566e-06	-6.903544e+00	-2.763724e+00
6.633573309634388e-06	-6.941654e+00	-2.778807e+00
6.647859023920017e-06	-6.957774e+00	-2.784953e+00
6.662144738205646e-06	-6.972526e+00	-2.790382e+00
6.676430452491276e-06	-6.985909e+00	-2.795093e+00
6.690716166776906e-06	-6.997924e+00	-2.799086e+00
6.705001881062535e-06	-7.008570e+00	-2.802361e+00
6.719287595348165e-06	-7.017848e+00	-2.804919e+00
6.733573309633794e-06	-7.025757e+00	-2.806759e+00
6.749287595347986e-06	-7.032835e+00	-2.807921e+00
6.765001881062179e-06	-7.038172e+00	-2.808142e+00
6.780716166776371e-06	-7.041768e+00	-2.807422e+00
6.796430452490563e-06	-7.043623e+00	-2.805762e+00
6.812144738204756e-06	-7.043737e+00	-2.803162e+00
6.827859023918948e-06	-7.042111e+00	-2.799622e+00
6.843573309633141e-06	-7.038743e+00	-2.795141e+00
6.887859023918592e-06	-7.019878e+00	-2.777503e+00
6.932144738204043e-06	-6.986367e+00	-2.751612e+00
6.976430452489495e-06	-6.938210e+00	-2.717468e+00
7.020716166774946e-06	-6.875407e+00	-2.675071e+00
7.065001881060397e-06	-6.797958e+00	-2.624421e+00
7.109287595345848e-06	-6.705863e+00	-2.565517e+00
7.153573309631300e-06	-6.599122e+00	-2.498361e+00
7.165001881059803e-06	-6.569106e+00	-2.479575e+00
7.176430452488306e-06	-6.538104e+00	-2.460219e+00
7.187859023916810e-06	-6.506115e+00	-2.440292e+00
7.199287595345314e-06	-6.473140e+00	-2.419795e+00
7.210716166773818e-06	-6.439178e+00	-2.398727e+00
7.222144738202321e-06	-6.404229e+00	-2.377088e+00
7.233573309630825e-06	-6.368293e+00	-2.354879e+00
7.243573309630765e-06	-6.336045e+00	-2.334978e+00
7.253573309630706e-06	-6.303045e+00	-2.314640e+00
7.263573309630646e-06	-6.269295e+00	-2.293865e+00
7.283573309630528e-06	-6.199546e+00	-2.251008e+00
7.313573309630349e-06	-6.089324e+00	-2.183457e+00
7.353573309630112e-06	-5.931530e+00	-2.087080e+00
7.393573309629874e-06	-5.762397e+00	-1.984047e+00
7.433573309629637e-06	-5.581927e+00	-1.874357e+00
7.473573309629399e-06	-5.390117e+00	-1.758012e+00
7.513573309629162e-06	-5.186969e+00	-1.635012e+00
7.553573309628924e-06	-4.972483e+00	-1.505355e+00
7.593573309628687e-06	-4.746659e+00	-1.369043e+00
7.603573309628627e-06	-4.688667e+00	-1.334061e+00
7.613573309628568e-06	-4.630019e+00	-1.298694e+00
7.623573309628508e-06	-4.570720e+00	-1.262946e+00
7.643573309628390e-06	-4.450186e+00	-1.190314e+00
7.673573309628211e-06	-4.264614e+00	-1.078573e+00
7.707859023913723e-06	-4.045083e+00	-9.464692e-01
7.742144738199233e-06	-3.819010e+00	-8.105978e-01
7.776430452484744e-06	-3.586397e+00	-6.709584e-01
7.810716166770254e-06	-3.347242e+00	-5.275510e-01
7.845001881055765e-06	-3.101547e+00	-3.803756e-01
7.879287595341275e-06	-2.849310e+00	-2.294321e-01
7.913573309626786e-06	-2.590532e+00	-7.472070e-02
7.927323309626704e-06	-2.485507e+00	-1.201149e-02
7.929497728159304e-06	-2.468806e+00	-2.045378e-03
7.929655193958168e-06	-2.467597e+00	-1.330941e-03
7.929970125555895e-06	-2.465195e+00	1.977145e-05
7.930146890256645e-06	-2.463878e+00	6.259973e-04
7.930274211965377e-06	-2.462960e+00	9.176626e-04
7.930275062023031e-06	-2.462954e+00	9.186211e-04
7.930292063178289e-06	-2.462836e+00	9.336892e-04
7.930310197743970e-06	-2.462711e+00	9.471821e-04
7.930323447822955e-06	-2.462620e+00	9.561505e-04
7.930325213202465e-06	-2.462608e+00	9.572922e-04
7.930328743961700e-06	-2.462584e+00	9.595622e-04
7.946679447945230e-06	-2.349578e+00	1.183551e-02
7.963030151928758e-06	-2.235411e+00	2.340839e-02
7.979380855912287e-06	-2.120083e+00	3.567820e-02
7.995731559895815e-06	-2.003594e+00	4.864495e-02
8.012082263879345e-06	-1.885945e+00	6.230863e-02
8.028432967862873e-06	-1.767134e+00	7.666923e-02
8.044783671846403e-06	-1.647162e+00	9.172677e-02
8.064783671846284e-06	-1.498996e+00	1.110932e-01
8.094783671846106e-06	-1.273810e+00	1.420687e-01
8.124783671845928e-06	-1.045251e+00	1.753256e-01
8.141926528988683e-06	-9.131083e-01	1.953623e-01
8.159069386131439e-06	-7.800420e-01	2.161017e-01
8.176212243274194e-06	-6.460519e-01	2.375438e-01
8.193355100416949e-06	-5.111379e-01	2.596886e-01
8.210497957559704e-06	-3.753000e-01	2.825361e-01
8.227640814702460e-06	-2.385382e-01	3.060863e-01
8.244783671845215e-06	-1.008526e-01	3.303391e-01
8.254783671845156e-06	-2.309787e-02	3.441589e-01
8.258797260423832e-06	4.193788e-03	3.489346e-01
8.258805005208680e-06	4.233398e-03	3.489411e-01
8.258820494778376e-06	4.297376e-03	3.489511e-01
8.259949020566510e-06	8.960278e-03	3.496790e-01
8.261077546354643e-06	1.362722e-02	3.504105e-01
8.262206072142777e-06	1.829821e-02	3.511455e-01
8.263334597930912e-06	2.297325e-02	3.518841e-01
8.264463123719046e-06	2.765233e-02	3.526262e-01
8.265591649507179e-06	3.233545e-02	3.533719e-01
8.266720175295313e-06	3.702262e-02	3.541211e-01
8.284650834951366e-06	1.119045e-01	3.663747e-01
8.314650834951188e-06	2.389875e-01	3.884271e-01
8.344650834951010e-06	3.683525e-01	4.124874e-01
8.374650834950832e-06	4.999098e-01	4.385326e-01
8.404650834950653e-06	6.335621e-01	4.665353e-01
8.434650834950475e-06	7.692070e-01	4.964632e-01
8.454650834950356e-06	8.606910e-01	5.174671e-01
8.474650834950238e-06	9.529799e-01	5.392988e-01
8.494650834950119e-06	1.046040e+00	5.619459e-01
8.514650834950000e-06	1.139836e+00	5.853949e-01
8.524650834949941e-06	1.187000e+00	5.974157e-01
8.534650834949881e-06	1.234334e+00	6.096317e-01
8.544650834949822e-06	1.281834e+00	6.220408e-01
8.554650834949763e-06	1.329495e+00	6.346412e-01
8.564650834949703e-06	1.377314e+00	6.474309e-01
8.574650834949644e-06	1.425285e+00	6.604078e-01
8.584650834949584e-06	1.473403e+00	6.735699e-01
8.594650834949525e-06	1.521663e+00	6.869149e-01
8.604650834949466e-06	1.570062e+00	7.004408e-01
8.614650834949406e-06	1.618593e+00	7.141453e-01
8.624650834949347e-06	1.667252e+00	7.280261e-01
8.634650834949287e-06	1.716034e+00	7.420809e-01
8.644650834949228e-06	1.764934e+00	7.563073e-01
8.654650834949169e-06	1.813947e+00	7.707030e-01
