time	V(n003)	V(n011)	I(L1)	I(L4)
0.000000000000000e+00	0.000000e+00	0.000000e+00	0.000000e+00	0.000000e+00
3.906249976259879e-11	4.862596e-03	4.862596e-03	3.152064e-09	3.152064e-09
4.008439995977193e-11	4.989805e-03	4.989805e-03	3.236280e-09	3.236280e-09
6.046966069619435e-11	7.527413e-03	7.527413e-03	5.527544e-09	5.527544e-09
8.085492143261677e-11	1.006502e-02	1.006502e-02	8.638691e-09	8.638691e-09
1.012401821690392e-10	1.260263e-02	1.260263e-02	1.256972e-08	1.256972e-08
1.216254429054616e-10	1.514024e-02	1.514024e-02	1.732064e-08	1.732064e-08
1.420107036418840e-10	1.767784e-02	1.767784e-02	2.289143e-08	2.289143e-08
1.623959643783065e-10	2.021545e-02	2.021545e-02	2.928211e-08	2.928211e-08
1.827812251147288e-10	2.275306e-02	2.275306e-02	3.649268e-08	3.649268e-08
2.339812044861960e-10	2.912656e-02	2.912656e-02	5.826512e-08	5.826512e-08
2.997372162849149e-10	3.731203e-02	3.731203e-02	9.371862e-08	9.371862e-08
3.815209268146242e-10	4.749266e-02	4.749266e-02	1.491809e-07	1.491809e-07
4.905841440745867e-10	6.106912e-02	6.106912e-02	2.422138e-07	2.422138e-07
6.392111140411208e-10	7.957057e-02	7.957057e-02	4.044482e-07	4.044482e-07
8.725380770912371e-10	1.086157e-01	1.086157e-01	7.548840e-07	7.548840e-07
1.339192003191470e-09	1.667059e-01	1.667059e-01	1.723187e-06	1.723187e-06
1.760823595795987e-09	2.191916e-01	2.191916e-01	2.963003e-06	2.963003e-06
2.508968291373700e-09	3.123223e-01	3.123223e-01	6.116951e-06	6.116951e-06
3.680172287181659e-09	4.581159e-01	4.581159e-01	1.295898e-05	1.295898e-05
4.946337418852644e-09	6.157299e-01	6.157299e-01	2.329764e-05	2.329764e-05
6.885153859436649e-09	8.570744e-01	8.570744e-01	4.509373e-05	4.509373e-05
9.300471692257722e-09	1.157730e+00	1.157730e+00	8.225864e-05	8.225864e-05
1.283304390575468e-08	1.597447e+00	1.597447e+00	1.565843e-04	1.565843e-04
1.742562105850629e-08	2.169079e+00	2.169079e+00	2.886676e-04	2.886676e-04
2.393145272717896e-08	2.978773e+00	2.978773e+00	5.388997e-04	5.388997e-04
3.071900778298173e-08	3.823400e+00	3.823400e+00	8.684857e-04	8.684857e-04
3.506249526992337e-08	4.363807e+00	4.363807e+00	1.121956e-03	1.121956e-03
3.879481165301891e-08	4.828110e+00	4.828110e+00	1.371681e-03	1.371681e-03
4.224997184019839e-08	5.257877e+00	5.257877e+00	1.628193e-03	1.628193e-03
4.605835070566032e-08	5.731510e+00	5.731510e+00	1.939883e-03	1.939883e-03
5.072226196286919e-08	6.311431e+00	6.311431e+00	2.362591e-03	2.362591e-03
5.672158832452484e-08	7.057206e+00	7.057206e+00	2.972357e-03	2.972357e-03
6.453456367990305e-08	8.028066e+00	8.028066e+00	3.878132e-03	3.878132e-03
7.485954717154889e-08	9.310342e+00	9.310342e+00	5.269799e-03	5.269799e-03
8.859604238576940e-08	1.101480e+01	1.101480e+01	7.465785e-03	7.465785e-03
1.070246341611332e-07	1.329827e+01	1.329827e+01	1.103009e-02	1.103009e-02
1.318479910224824e-07	1.636712e+01	1.636712e+01	1.694890e-02	1.694890e-02
1.654616681373146e-07	2.050690e+01	2.050690e+01	2.699719e-02	2.699719e-02
2.111358097648647e-07	2.609550e+01	2.609550e+01	4.435696e-02	4.435696e-02
2.735025330119064e-07	3.363993e+01	3.363993e+01	7.480632e-02	7.480632e-02
3.591212523542164e-07	4.378682e+01	4.378682e+01	1.287725e-01	1.287725e-01
4.778252625793118e-07	5.733002e+01	5.733002e+01	2.250500e-01	2.250500e-01
6.452621827919901e-07	7.507474e+01	7.507474e+01	3.964542e-01	3.964542e-01
8.906023315931074e-07	9.731076e+01	9.731076e+01	6.947935e-01	6.947935e-01
1.205242998935499e-06	1.174902e+02	1.174902e+02	1.109509e+00	1.109509e+00
1.337685351371048e-06	1.227437e+02	1.227437e+02	1.282899e+00	1.282899e+00
1.436453068143707e-06	1.253203e+02	1.253203e+02	1.403078e+00	1.403078e+00
1.552348324692264e-06	1.268462e+02	1.268462e+02	1.527779e+00	1.527779e+00
1.680040936491770e-06	1.266340e+02	1.266340e+02	1.640433e+00	1.640433e+00
1.824828136582933e-06	1.239981e+02	1.239981e+02	1.722704e+00	1.722704e+00
2.059532510668180e-06	1.144720e+02	1.144720e+02	1.728966e+00	1.728966e+00
2.433303372229594e-06	8.717260e+01	8.717260e+01	1.454073e+00	1.454073e+00
2.796768585857815e-06	4.948709e+01	4.948709e+01	9.233299e-01	9.233299e-01
2.846644598105616e-06	4.371230e+01	4.371230e+01	8.192540e-01	8.192540e-01
2.946396622601218e-06	3.186342e+01	3.186342e+01	5.658345e-01	5.658345e-01
3.145900671592423e-06	7.368649e+00	7.368649e+00	-4.328595e-03	-4.328595e-03
3.483801268286125e-06	-3.426015e+01	-3.426015e+01	-1.065376e+00	-1.065376e+00
3.989120071468154e-06	-8.826781e+01	-8.826781e+01	-2.669444e+00	-2.669444e+00
4.256636497710169e-06	-1.089204e+02	-1.089204e+02	-3.432604e+00	-3.432604e+00
4.431292784893772e-06	-1.184543e+02	-1.184543e+02	-3.835704e+00	-3.835704e+00
4.558269894397782e-06	-1.232235e+02	-1.232235e+02	-4.061335e+00	-4.061335e+00
4.655612310098085e-06	-1.255916e+02	-1.255916e+02	-4.185793e+00	-4.185793e+00
4.776437299405924e-06	-1.269404e+02	-1.269404e+02	-4.281344e+00	-4.281344e+00
4.892226174763448e-06	-1.265643e+02	-1.265643e+02	-4.309480e+00	-4.309480e+00
5.041433461259789e-06	-1.236814e+02	-1.236814e+02	-4.234780e+00	-4.234780e+00
5.283169751015077e-06	-1.134554e+02	-1.134554e+02	-3.877381e+00	-3.877381e+00
5.601039391605624e-06	-9.049829e+01	-9.049829e+01	-3.130974e+00	-3.130974e+00
5.637270880622824e-06	-8.727761e+01	-8.727761e+01	-3.018589e+00	-3.018589e+00
5.709733858657224e-06	-8.051027e+01	-8.051027e+01	-2.750766e+00	-2.750766e+00
5.854659814726024e-06	-6.579380e+01	-6.579380e+01	-2.149433e+00	-2.149433e+00
6.144511726863625e-06	-3.270774e+01	-3.270774e+01	-7.792133e-01	-7.792133e-01
6.646761882700174e-06	2.917780e+01	2.917780e+01	1.735500e+00	1.735500e+00
7.160971900380154e-06	8.524311e+01	8.524311e+01	4.139795e+00	4.139795e+00
7.441640017184036e-06	1.076110e+02	1.076110e+02	5.188669e+00	5.188669e+00
7.622120308083368e-06	1.178007e+02	1.178007e+02	5.657065e+00	5.657065e+00
7.752826589813625e-06	1.228984e+02	1.228984e+02	5.874829e+00	5.874829e+00
7.850390084515285e-06	1.253938e+02	1.253938e+02	5.960994e+00	5.960994e+00
7.967084269309889e-06	1.268724e+02	1.268724e+02	5.978735e+00	5.978735e+00
8.091965420348741e-06	1.266180e+02	1.266180e+02	5.901837e+00	5.901837e+00
8.237797615813706e-06	1.239246e+02	1.239246e+02	5.679457e+00	5.679457e+00
8.440166999414059e-06	1.160205e+02	1.160205e+02	5.227488e+00	5.227488e+00
8.443087863384090e-06	1.158721e+02	1.158721e+02	5.219497e+00	5.219497e+00
8.468958372832934e-06	1.145152e+02	1.145152e+02	5.138770e+00	5.138770e+00
8.494828882281776e-06	1.130867e+02	1.130867e+02	5.053571e+00	5.053571e+00
8.520699391730621e-06	1.115867e+02	1.115867e+02	4.963900e+00	4.963900e+00
8.546569901179465e-06	1.100153e+02	1.100153e+02	4.869758e+00	4.869758e+00
8.572440410628309e-06	1.083723e+02	1.083723e+02	4.771144e+00	4.771144e+00
8.598310920077151e-06	1.066579e+02	1.066579e+02	4.668058e+00	4.668058e+00
8.624181429525995e-06	1.048720e+02	1.048720e+02	4.560501e+00	4.560501e+00
8.811116723607961e-06	9.006499e+01	9.006499e+01	3.682363e+00	3.682363e+00
9.184987311771895e-06	5.200182e+01	5.200182e+01	1.604514e+00	1.604514e+00
9.702174633453153e-06	-1.079081e+01	-1.079081e+01	-1.455063e+00	-1.455063e+00
1.024752006863541e-05	-7.375059e+01	-7.375059e+01	-4.357687e+00	-4.357687e+00
1.062708281620091e-05	-1.062897e+02	-1.062897e+02	-5.848468e+00	-5.848468e+00
1.081333284723723e-05	-1.171425e+02	-1.171425e+02	-6.278434e+00	-6.278434e+00
1.094769510388582e-05	-1.225702e+02	-1.225702e+02	-6.417759e+00	-6.417759e+00
1.104779057731069e-05	-1.252377e+02	-1.252377e+02	-6.429892e+00	-6.429892e+00
1.116281186688602e-05	-1.268146e+02	-1.268146e+02	-6.348801e+00	-6.348801e+00
1.129359235664049e-05	-1.266511e+02	-1.266511e+02	-6.152324e+00	-6.152324e+00
1.143723096802977e-05	-1.240778e+02	-1.240778e+02	-5.834163e+00	-5.834163e+00
1.152996199935917e-05	-1.211069e+02	-1.211069e+02	-5.568250e+00	-5.568250e+00
1.163203675483760e-05	-1.166819e+02	-1.166819e+02	-5.208901e+00	-5.208901e+00
1.175984446052773e-05	-1.095024e+02	-1.095024e+02	-4.664084e+00	-4.664084e+00
1.201545987190801e-05	-9.013387e+01	-9.013387e+01	-3.341839e+00	-3.341839e+00
1.252669069466856e-05	-3.607218e+01	-3.607218e+01	-3.617896e-01	-3.617896e-01
1.303184015630248e-05	2.611883e+01	2.611883e+01	2.463609e+00	2.463609e+00
1.356644583887871e-05	8.480087e+01	8.480087e+01	4.790576e+00	4.790576e+00
1.389213839543175e-05	1.101869e+02	1.101869e+02	5.623703e+00	5.623703e+00
1.406104626486591e-05	1.190875e+02	1.190875e+02	5.770966e+00	5.770966e+00
1.418430408435328e-05	1.235377e+02	1.235377e+02	5.735999e+00	5.735999e+00
1.428425330235384e-05	1.258261e+02	1.258261e+02	5.627791e+00	5.627791e+00
1.438973880828696e-05	1.269322e+02	1.269322e+02	5.440768e+00	5.440768e+00
1.450683588207238e-05	1.265722e+02	1.265722e+02	5.162837e+00	5.162837e+00
1.462569496357570e-05	1.245036e+02	1.245036e+02	4.834637e+00	4.834637e+00
1.462737267052159e-05	1.244622e+02	1.244622e+02	4.829695e+00	4.829695e+00
1.464223236061376e-05	1.240810e+02	1.240810e+02	4.784179e+00	4.784179e+00
1.465709205070593e-05	1.236736e+02	1.236736e+02	4.737352e+00	4.737352e+00
1.467195174079811e-05	1.232401e+02	1.232401e+02	4.689215e+00	4.689215e+00
1.468681143089028e-05	1.227804e+02	1.227804e+02	4.639767e+00	4.639767e+00
1.470167112098246e-05	1.222947e+02	1.222947e+02	4.589009e+00	4.589009e+00
1.471653081107463e-05	1.217828e+02	1.217828e+02	4.536940e+00	4.536940e+00
1.473139050116680e-05	1.212448e+02	1.212448e+02	4.483560e+00	4.483560e+00
1.483876374570380e-05	1.166032e+02	1.166032e+02	4.065169e+00	4.065169e+00
1.505351023477779e-05	1.035146e+02	1.035146e+02	3.095808e+00	3.095808e+00
1.548300321292578e-05	6.440874e+01	6.440874e+01	9.532382e-01	9.532382e-01
1.604129928125103e-05	-1.949102e+00	-1.949102e+00	-1.727982e+00	-1.727982e+00
1.653082920754570e-05	-6.034844e+01	-6.034844e+01	-3.472908e+00	-3.472908e+00
1.702772553230566e-05	-1.056300e+02	-1.056300e+02	-4.377163e+00	-4.377163e+00
1.721682000145266e-05	-1.168144e+02	-1.168144e+02	-4.407391e+00	-4.407391e+00
1.735297064459574e-05	-1.224064e+02	-1.224064e+02	-4.262436e+00	-4.262436e+00
1.745429914267914e-05	-1.251594e+02	-1.251594e+02	-4.084846e+00	-4.084846e+00
1.756851539059506e-05	-1.267827e+02	-1.267827e+02	-3.819818e+00	-3.819818e+00
1.770215201244902e-05	-1.266665e+02	-1.266665e+02	-3.453725e+00	-3.453725e+00
1.780149245319068e-05	-1.251724e+02	-1.251724e+02	-3.161074e+00	-3.161074e+00
1.780167905681018e-05	-1.251685e+02	-1.251685e+02	-3.160524e+00	-3.160524e+00
1.782519111286700e-05	-1.246400e+02	-1.246400e+02	-3.091291e+00	-3.091291e+00
1.784907637616281e-05	-1.240354e+02	-1.240354e+02	-3.018712e+00	-3.018712e+00
1.789684690275444e-05	-1.226226e+02	-1.226226e+02	-2.867209e+00	-2.867209e+00
1.799238795593770e-05	-1.189942e+02	-1.189942e+02	-2.542266e+00	-2.542266e+00
1.818347006230422e-05	-1.086500e+02	-1.086500e+02	-1.833793e+00	-1.833793e+00
1.856563427503726e-05	-7.705567e+01	-7.705567e+01	-3.752733e-01	-3.752733e-01
1.917134082516990e-05	-7.393612e+00	-7.393612e+00	1.680452e+00	1.680452e+00
1.965752133808754e-05	5.158751e+01	5.158751e+01	2.730996e+00	2.730996e+00
2.016615755682799e-05	1.007982e+02	1.007982e+02	3.033504e+00	3.033504e+00
2.039154928923997e-05	1.152779e+02	1.152779e+02	2.861218e+00	2.861218e+00
2.053581412537169e-05	1.216379e+02	1.216379e+02	2.612334e+00	2.612334e+00
2.064269092105983e-05	1.247892e+02	1.247892e+02	2.374059e+00	2.374059e+00
2.075336470739328e-05	1.266101e+02	1.266101e+02	2.086615e+00	2.086615e+00
2.089971288759283e-05	1.267313e+02	1.267313e+02	1.675648e+00	1.675648e+00
2.098715529584340e-05	1.255592e+02	1.255592e+02	1.429484e+00	1.429484e+00
2.098731915913429e-05	1.255562e+02	1.255562e+02	1.429051e+00	1.429051e+00
2.101124319960483e-05	1.250733e+02	1.250733e+02	1.368572e+00	1.368572e+00
2.103516724007537e-05	1.245225e+02	1.245225e+02	1.307274e+00	1.307274e+00
2.105909128054591e-05	1.239036e+02	1.239036e+02	1.245157e+00	1.245157e+00
2.108301532101645e-05	1.232167e+02	1.232167e+02	1.182220e+00	1.182220e+00
2.110693936148699e-05	1.224618e+02	1.224618e+02	1.118464e+00	1.118464e+00
2.113086340195753e-05	1.216389e+02	1.216389e+02	1.053889e+00	1.053889e+00
2.115478744242807e-05	1.207479e+02	1.207479e+02	9.884952e-01	9.884952e-01
2.132258345230365e-05	1.126746e+02	1.126746e+02	5.247309e-01	5.247309e-01
2.165817547205480e-05	8.770499e+01	8.770499e+01	-3.648013e-01	-3.648013e-01
2.221794857903883e-05	2.692492e+01	2.692492e+01	-1.568192e+00	-1.568192e+00
2.273373775272129e-05	-3.655149e+01	-3.655149e+01	-2.172621e+00	-2.172621e+00
2.317973574522136e-05	-8.460658e+01	-8.460658e+01	-2.143420e+00	-2.143420e+00
2.352475389755374e-05	-1.112377e+02	-1.112377e+02	-1.760736e+00	-1.760736e+00
2.368879505177742e-05	-1.196136e+02	-1.196136e+02	-1.464065e+00	-1.464065e+00
2.380887399034741e-05	-1.237978e+02	-1.237978e+02	-1.199190e+00	-1.199190e+00
2.391106334375829e-05	-1.260111e+02	-1.260111e+02	-9.533643e-01	-9.533643e-01
2.400767153443372e-05	-1.269422e+02	-1.269422e+02	-7.087720e-01	-7.087720e-01
2.407774392129990e-05	-1.269059e+02	-1.269059e+02	-5.313603e-01	-5.313603e-01
2.412072561683260e-05	-1.265874e+02	-1.265874e+02	-4.296275e-01	-4.296275e-01
2.412080684862927e-05	-1.265865e+02	-1.265865e+02	-4.294610e-01	-4.294610e-01
2.414454974234031e-05	-1.263136e+02	-1.263136e+02	-3.852985e-01	-3.852985e-01
2.416829263605135e-05	-1.259728e+02	-1.259728e+02	-3.409083e-01	-3.409083e-01
2.419203552976239e-05	-1.255640e+02	-1.255640e+02	-2.962904e-01	-2.962904e-01
2.421577842347343e-05	-1.250874e+02	-1.250874e+02	-2.514450e-01	-2.514450e-01
2.423952131718448e-05	-1.245428e+02	-1.245428e+02	-2.063719e-01	-2.063719e-01
2.426326421089551e-05	-1.239303e+02	-1.239303e+02	-1.610712e-01	-1.610712e-01
2.428700710460656e-05	-1.232499e+02	-1.232499e+02	-1.155429e-01	-1.155429e-01
2.445336982417717e-05	-1.166416e+02	-1.166416e+02	1.999400e-01	1.999400e-01
2.478609526331840e-05	-9.439851e+01	-9.439851e+01	7.835126e-01	7.835126e-01
2.531107180293002e-05	-4.036118e+01	-4.036118e+01	1.501202e+00	1.501202e+00
2.582935096227132e-05	2.331029e+01	2.331029e+01	1.859128e+00	1.859128e+00
2.629593586289234e-05	7.604006e+01	7.604006e+01	1.787642e+00	1.787642e+00
2.668128998325713e-05	1.081940e+02	1.081940e+02	1.447811e+00	1.447811e+00
2.685919104615558e-05	1.180915e+02	1.180915e+02	1.200729e+00	1.200729e+00
2.698825064963826e-05	1.230432e+02	1.230432e+02	9.831811e-01	9.831811e-01
2.708466878409920e-05	1.254623e+02	1.254623e+02	8.060402e-01	8.060402e-01
2.720212832299403e-05	1.268951e+02	1.268951e+02	5.786773e-01	5.786773e-01
2.727953410824560e-05	1.269212e+02	1.269212e+02	4.309787e-01	4.309787e-01
2.733226482387882e-05	1.265206e+02	1.265206e+02	3.402055e-01	3.402055e-01
2.733235943373074e-05	1.265196e+02	1.265196e+02	3.400750e-01	3.400750e-01
2.736001254187608e-05	1.261733e+02	1.261733e+02	3.077082e-01	3.077082e-01
2.738766565002141e-05	1.257353e+02	1.257353e+02	2.749652e-01	2.749652e-01
2.741531875816675e-05	1.252054e+02	1.252054e+02	2.418461e-01	2.418461e-01
2.744297186631209e-05	1.245837e+02	1.245837e+02	2.083508e-01	2.083508e-01
2.747062497445742e-05	1.238702e+02	1.238702e+02	1.744794e-01	1.744794e-01
2.749827808260276e-05	1.230648e+02	1.230648e+02	1.402318e-01	1.402318e-01
2.752593119074809e-05	1.221676e+02	1.221676e+02	1.056080e-01	1.056080e-01
2.771969216746928e-05	1.134204e+02	1.134204e+02	-1.427604e-01	-1.427604e-01
2.810424988309847e-05	8.442686e+01	8.442686e+01	-6.427793e-01	-6.427793e-01
2.864663104514640e-05	2.467907e+01	2.467907e+01	-1.295356e+00	-1.295356e+00
2.919080700452343e-05	-4.209188e+01	-4.209188e+01	-1.784660e+00	-1.784660e+00
2.968047412353545e-05	-9.266307e+01	-9.266307e+01	-1.997060e+00	-1.997060e+00
2.994729364975457e-05	-1.119674e+02	-1.119674e+02	-1.978719e+00	-1.978719e+00
3.010789681708593e-05	-1.199791e+02	-1.199791e+02	-1.900760e+00	-1.900760e+00
3.022571344181309e-05	-1.239781e+02	-1.239781e+02	-1.810542e+00	-1.810542e+00
3.032950374487525e-05	-1.261339e+02	-1.261339e+02	-1.709356e+00	-1.709356e+00
3.043155953201125e-05	-1.269820e+02	-1.269820e+02	-1.592868e+00	-1.592868e+00
3.050116050213704e-05	-1.268323e+02	-1.268323e+02	-1.510392e+00	-1.510392e+00
3.054470158792874e-05	-1.264384e+02	-1.264384e+02	-1.464981e+00	-1.464981e+00
3.054478373042294e-05	-1.264374e+02	-1.264374e+02	-1.464922e+00	-1.464922e+00
3.056879280801375e-05	-1.261210e+02	-1.261210e+02	-1.452162e+00	-1.452162e+00
3.059280188560455e-05	-1.257353e+02	-1.257353e+02	-1.438170e+00	-1.438170e+00
3.061681096319535e-05	-1.252803e+02	-1.252803e+02	-1.422946e+00	-1.422946e+00
3.064082004078615e-05	-1.247561e+02	-1.247561e+02	-1.406490e+00	-1.406490e+00
3.066482911837695e-05	-1.241625e+02	-1.241625e+02	-1.388802e+00	-1.388802e+00
3.068883819596775e-05	-1.234997e+02	-1.234997e+02	-1.369882e+00	-1.369882e+00
3.071284727355856e-05	-1.227676e+02	-1.227676e+02	-1.349729e+00	-1.349729e+00
3.088107510168257e-05	-1.157654e+02	-1.157654e+02	-1.172257e+00	-1.172257e+00
3.121753075793061e-05	-9.261462e+01	-9.261462e+01	-6.597301e-01	-6.597301e-01
3.175230537872929e-05	-3.668694e+01	-3.668694e+01	4.359607e-01	4.359607e-01
3.233137968456471e-05	3.443087e+01	3.443087e+01	1.778052e+00	1.778052e+00
3.290613175583291e-05	9.439179e+01	9.439179e+01	3.017803e+00	3.017803e+00
3.314110368030375e-05	1.112956e+02	1.112956e+02	3.395473e+00	3.395473e+00
3.330487375765199e-05	1.196426e+02	1.196426e+02	3.556422e+00	3.556422e+00
3.342477481962565e-05	1.238121e+02	1.238121e+02	3.616997e+00	3.616997e+00
3.352708984797336e-05	1.260210e+02	1.260210e+02	3.627181e+00	3.627181e+00
3.362328797188630e-05	1.269430e+02	1.269430e+02	3.599859e+00	3.599859e+00
3.373863921924597e-05	1.265616e+02	1.265616e+02	3.536765e+00	3.536765e+00
3.380398865483735e-05	1.256272e+02	1.256272e+02	3.498986e+00	3.498986e+00
3.380410628327240e-05	1.256251e+02	1.256251e+02	3.498942e+00	3.498942e+00
3.383848739443004e-05	1.249240e+02	1.249240e+02	3.488671e+00	3.488671e+00
3.387286850558769e-05	1.240835e+02	1.240835e+02	3.472556e+00	3.472556e+00
3.390724961674534e-05	1.231036e+02	1.231036e+02	3.450599e+00	3.450599e+00
3.394163072790298e-05	1.219843e+02	1.219843e+02	3.422799e+00	3.422799e+00
3.397601183906063e-05	1.207256e+02	1.207256e+02	3.389155e+00	3.389155e+00
3.401039295021828e-05	1.193276e+02	1.193276e+02	3.349669e+00	3.349669e+00
3.404477406137592e-05	1.177901e+02	1.177901e+02	3.304339e+00	3.304339e+00
3.428567709634954e-05	1.034137e+02	1.034137e+02	2.830703e+00	2.830703e+00
3.475392726947305e-05	6.005193e+01	6.005193e+01	1.361826e+00	1.361826e+00
3.534498304950540e-05	-1.101191e+01	-1.101191e+01	-1.071495e+00	-1.071495e+00
3.595414613137663e-05	-8.024169e+01	-8.024169e+01	-3.747695e+00	-3.747695e+00
3.626638263401893e-05	-1.061719e+02	-1.061719e+02	-4.942850e+00	-4.942850e+00
3.645314199042322e-05	-1.170839e+02	-1.170839e+02	-5.479667e+00	-5.479667e+00
3.658782515198352e-05	-1.225410e+02	-1.225410e+02	-5.752595e+00	-5.752595e+00
3.668814214587611e-05	-1.252237e+02	-1.252237e+02	-5.883591e+00	-5.883591e+00
3.680301833647201e-05	-1.268090e+02	-1.268090e+02	-5.953850e+00	-5.953850e+00
3.693431276413440e-05	-1.266539e+02	-1.266539e+02	-5.947804e+00	-5.947804e+00
3.702675718019537e-05	-1.252864e+02	-1.252864e+02	-5.895154e+00	-5.895154e+00
3.708449642384404e-05	-1.239098e+02	-1.239098e+02	-5.849522e+00	-5.849522e+00
3.708460482083839e-05	-1.239068e+02	-1.239068e+02	-5.849448e+00	-5.849448e+00
3.710043078201308e-05	-1.234596e+02	-1.234596e+02	-5.839660e+00	-5.839660e+00
3.711625674318777e-05	-1.229829e+02	-1.229829e+02	-5.827893e+00	-5.827893e+00
3.713208270436246e-05	-1.224768e+02	-1.224768e+02	-5.814147e+00	-5.814147e+00
3.714790866553714e-05	-1.219412e+02	-1.219412e+02	-5.798420e+00	-5.798420e+00
3.716373462671184e-05	-1.213762e+02	-1.213762e+02	-5.780714e+00	-5.780714e+00
3.717956058788652e-05	-1.207818e+02	-1.207818e+02	-5.761028e+00	-5.761028e+00
3.719538654906121e-05	-1.201579e+02	-1.201579e+02	-5.739363e+00	-5.739363e+00
3.730638507127273e-05	-1.149822e+02	-1.149822e+02	-5.531954e+00	-5.531954e+00
