time	I(L2)	I(L3)	I(L5)	I(L6)
0.000000000000000e+00	0.000000e+00	0.000000e+00	0.000000e+00	0.000000e+00
3.906249976259879e-11	-6.848145e-10	-6.848145e-10	-6.848145e-10	-6.848145e-10
4.008439995983500e-11	-7.031196e-10	-7.031196e-10	-7.031196e-10	-7.031196e-10
6.046966069896986e-11	-1.221521e-09	-1.221521e-09	-1.221521e-09	-1.221521e-09
8.085492143810474e-11	-1.893855e-09	-1.893855e-09	-1.893855e-09	-1.893855e-09
1.012401821772396e-10	-2.720122e-09	-2.720122e-09	-2.720122e-09	-2.720122e-09
1.216254429163745e-10	-3.700321e-09	-3.700321e-09	-3.700321e-09	-3.700321e-09
1.420107036555093e-10	-4.834453e-09	-4.834453e-09	-4.834453e-09	-4.834453e-09
1.623959643946442e-10	-6.122518e-09	-6.122518e-09	-6.122518e-09	-6.122518e-09
1.827812251337790e-10	-7.564516e-09	-7.564516e-09	-7.564516e-09	-7.564516e-09
2.339812045556960e-10	-1.156059e-08	-1.156059e-08	-1.156059e-08	-1.156059e-08
2.997372164159951e-10	-1.724701e-08	-1.724701e-08	-1.724701e-08	-1.724701e-08
3.815209269910526e-10	-2.422919e-08	-2.422919e-08	-2.422919e-08	-2.422919e-08
4.905841442293893e-10	-3.146046e-08	-3.146046e-08	-3.146046e-08	-3.146046e-08
6.392111143005794e-10	-3.454025e-08	-3.454025e-08	-3.454025e-08	-3.454025e-08
8.725380781068076e-10	-2.751029e-08	-2.751030e-08	-2.751029e-08	-2.751029e-08
1.339192005719264e-09	-1.120599e-08	-1.120601e-08	-1.120599e-08	-1.120599e-08
1.760823598783668e-09	-1.347473e-08	-1.347475e-08	-1.347473e-08	-1.347473e-08
2.508968301728144e-09	-2.284627e-08	-2.284630e-08	-2.284627e-08	-2.284627e-08
3.680172291273020e-09	-1.765246e-08	-1.765251e-08	-1.765246e-08	-1.765246e-08
4.946337429709217e-09	-1.814346e-08	-1.814353e-08	-1.814346e-08	-1.814346e-08
6.885153866514721e-09	-1.979129e-08	-1.979138e-08	-1.979129e-08	-1.979129e-08
9.300471707520770e-09	-1.814201e-08	-1.814212e-08	-1.814201e-08	-1.814201e-08
1.283304392067784e-08	-2.000118e-08	-2.000134e-08	-2.000118e-08	-2.000118e-08
1.742562108532987e-08	-2.130828e-08	-2.130842e-08	-2.130828e-08	-2.130828e-08
2.393145275723327e-08	-7.599596e-08	-7.599606e-08	-7.599596e-08	-7.599596e-08
3.071900776833083e-08	-5.828820e-07	-5.828822e-07	-5.828820e-07	-5.828820e-07
3.506249523823738e-08	-2.100622e-06	-2.100623e-06	-2.100622e-06	-2.100622e-06
3.879481161536013e-08	-5.539258e-06	-5.539259e-06	-5.539258e-06	-5.539258e-06
4.224997179204195e-08	-1.166868e-05	-1.166868e-05	-1.166868e-05	-1.166868e-05
4.605835062838287e-08	-2.273552e-05	-2.273552e-05	-2.273552e-05	-2.273552e-05
5.072226185910142e-08	-4.325023e-05	-4.325023e-05	-4.325023e-05	-4.325023e-05
5.672158821410523e-08	-8.184624e-05	-8.184624e-05	-8.184624e-05	-8.184624e-05
6.453456352636839e-08	-1.540074e-04	-1.540074e-04	-1.540074e-04	-1.540074e-04
7.485954697462563e-08	-2.891604e-04	-2.891604e-04	-2.891604e-04	-2.891604e-04
8.859604211286260e-08	-5.415498e-04	-5.415498e-04	-5.415498e-04	-5.415498e-04
1.070246338011881e-07	-1.013291e-03	-1.013291e-03	-1.013291e-03	-1.013291e-03
1.318479905296073e-07	-1.893169e-03	-1.893169e-03	-1.893169e-03	-1.893169e-03
1.654616674759595e-07	-3.533736e-03	-3.533736e-03	-3.533736e-03	-3.533736e-03
2.111358088571929e-07	-6.585059e-03	-6.585059e-03	-6.585059e-03	-6.585059e-03
2.735025317765545e-07	-1.224394e-02	-1.224394e-02	-1.224394e-02	-1.224394e-02
3.591212506448571e-07	-2.266671e-02	-2.266671e-02	-2.266671e-02	-2.266671e-02
4.778252602017216e-07	-4.162804e-02	-4.162804e-02	-4.162804e-02	-4.162804e-02
6.452621793882225e-07	-7.512490e-02	-7.512490e-02	-7.512490e-02	-7.512490e-02
8.906023264596888e-07	-1.303238e-01	-1.303238e-01	-1.303238e-01	-1.303238e-01
1.205242996944249e-06	-2.002037e-01	-2.002037e-01	-2.002037e-01	-2.002037e-01
1.337685349902847e-06	-2.252361e-01	-2.252361e-01	-2.252361e-01	-2.252361e-01
1.436453067037805e-06	-2.387623e-01	-2.387623e-01	-2.387623e-01	-2.387623e-01
1.552348323346893e-06	-2.479338e-01	-2.479338e-01	-2.479338e-01	-2.479338e-01
1.680040935990697e-06	-2.488899e-01	-2.488899e-01	-2.488899e-01	-2.488899e-01
1.824828135767934e-06	-2.346344e-01	-2.346344e-01	-2.346344e-01	-2.346344e-01
2.059532509353206e-06	-1.732112e-01	-1.732112e-01	-1.732112e-01	-1.732112e-01
2.433303370169901e-06	-2.131278e-03	-2.131278e-03	-2.131278e-03	-2.131278e-03
2.796768584719728e-06	2.216102e-01	2.216102e-01	2.216102e-01	2.216102e-01
2.846644571404580e-06	2.575721e-01	2.575721e-01	2.575721e-01	2.575721e-01
2.946396544774286e-06	3.351348e-01	3.351348e-01	3.351348e-01	3.351348e-01
3.145900491513696e-06	4.909989e-01	4.909989e-01	4.909989e-01	4.909989e-01
3.483801310090769e-06	7.219325e-01	7.219325e-01	7.219325e-01	7.219325e-01
3.989120052980485e-06	9.566452e-01	9.566452e-01	9.566452e-01	9.566452e-01
4.256636423209917e-06	9.921166e-01	9.921166e-01	9.921166e-01	9.921166e-01
4.431292731816418e-06	9.529971e-01	9.529971e-01	9.529971e-01	9.529971e-01
4.558269855109830e-06	8.906194e-01	8.906194e-01	8.906194e-01	8.906194e-01
4.655612261173847e-06	8.213838e-01	8.213838e-01	8.213838e-01	8.213838e-01
4.776437238850627e-06	7.117215e-01	7.117215e-01	7.117215e-01	7.117215e-01
4.892226152238313e-06	5.833998e-01	5.833998e-01	5.833998e-01	5.833998e-01
5.041433424630250e-06	3.821615e-01	3.821615e-01	3.821615e-01	3.821615e-01
5.283169691971914e-06	-3.428594e-03	-3.428594e-03	-3.428594e-03	-3.428594e-03
5.601040973545698e-06	-5.643106e-01	-5.643106e-01	-5.643106e-01	-5.643106e-01
5.637272711423371e-06	-6.316710e-01	-6.316710e-01	-6.316710e-01	-6.316710e-01
5.709736187178715e-06	-7.698344e-01	-7.698344e-01	-7.698344e-01	-7.698344e-01
5.854663138689404e-06	-1.043551e+00	-1.043551e+00	-1.043551e+00	-1.043551e+00
6.144517041710783e-06	-1.536156e+00	-1.536156e+00	-1.536156e+00	-1.536156e+00
6.646766257648193e-06	-2.125953e+00	-2.125953e+00	-2.125953e+00	-2.125953e+00
7.160976126922342e-06	-2.306773e+00	-2.306773e+00	-2.306773e+00	-2.306773e+00
7.441640859559631e-06	-2.135430e+00	-2.135430e+00	-2.135430e+00	-2.135430e+00
7.622120905114988e-06	-1.878014e+00	-1.878014e+00	-1.878014e+00	-1.878014e+00
7.752827030572416e-06	-1.623179e+00	-1.623179e+00	-1.623179e+00	-1.623179e+00
7.850390416722313e-06	-1.395947e+00	-1.395947e+00	-1.395947e+00	-1.395947e+00
7.967084673801440e-06	-1.087605e+00	-1.087605e+00	-1.087605e+00	-1.087605e+00
8.091965570946091e-06	-7.217301e-01	-7.217301e-01	-7.217301e-01	-7.217301e-01
8.237797860749583e-06	-2.575912e-01	-2.575912e-01	-2.575912e-01	-2.575912e-01
8.440167115561653e-06	4.141107e-01	4.141107e-01	4.141107e-01	4.141107e-01
8.443087975641714e-06	4.239077e-01	4.239077e-01	4.239077e-01	4.239077e-01
8.468958450636542e-06	5.113882e-01	5.113882e-01	5.113882e-01	5.113882e-01
8.494828925631373e-06	5.992226e-01	5.992226e-01	5.992226e-01	5.992226e-01
8.520699400626201e-06	6.874110e-01	6.874110e-01	6.874110e-01	6.874110e-01
8.546569875621030e-06	7.759532e-01	7.759532e-01	7.759532e-01	7.759532e-01
8.572440350615859e-06	8.648494e-01	8.648494e-01	8.648494e-01	8.648494e-01
8.598310825610689e-06	9.540994e-01	9.540994e-01	9.540994e-01	9.540994e-01
8.624181300605517e-06	1.043703e+00	1.043703e+00	1.043703e+00	1.043703e+00
8.811116345729445e-06	1.673329e+00	1.673329e+00	1.673329e+00	1.673329e+00
9.184986435977298e-06	2.774215e+00	2.774215e+00	2.774215e+00	2.774215e+00
9.702173798984300e-06	3.749270e+00	3.749270e+00	3.749270e+00	3.749270e+00
1.024751957439001e-05	3.890811e+00	3.890811e+00	3.890811e+00	3.890811e+00
1.062708257326197e-05	3.332150e+00	3.332150e+00	3.332150e+00	3.332150e+00
1.081333267595459e-05	2.797712e+00	2.797712e+00	2.797712e+00	2.797712e+00
1.094769497777164e-05	2.296879e+00	2.296879e+00	2.296879e+00	2.296879e+00
1.104779048238454e-05	1.873331e+00	1.873331e+00	1.873331e+00	1.873331e+00
1.116281175151690e-05	1.341925e+00	1.341925e+00	1.341925e+00	1.341925e+00
1.129359231365409e-05	7.037156e-01	7.037156e-01	7.037156e-01	7.037156e-01
1.143723089810842e-05	-9.606738e-03	-9.606738e-03	-9.606738e-03	-9.606738e-03
1.152996229192620e-05	-4.700636e-01	-4.700636e-01	-4.700636e-01	-4.700636e-01
1.163203736730503e-05	-9.803353e-01	-9.803353e-01	-9.803353e-01	-9.803353e-01
1.175984548273695e-05	-1.618528e+00	-1.618528e+00	-1.618528e+00	-1.618528e+00
1.201546171360080e-05	-2.800837e+00	-2.800837e+00	-2.800837e+00	-2.800837e+00
1.252669417532850e-05	-4.648074e+00	-4.648074e+00	-4.648074e+00	-4.648074e+00
1.303184377917628e-05	-5.477824e+00	-5.477824e+00	-5.477824e+00	-5.477824e+00
1.356644933901205e-05	-5.025259e+00	-5.025259e+00	-5.025259e+00	-5.025259e+00
1.389213994212170e-05	-4.027281e+00	-4.027281e+00	-4.027281e+00	-4.027281e+00
1.406104737237080e-05	-3.240144e+00	-3.240144e+00	-3.240144e+00	-3.240144e+00
1.418430490623310e-05	-2.559216e+00	-2.559216e+00	-2.559216e+00	-2.559216e+00
1.428425432501301e-05	-1.958178e+00	-1.958178e+00	-1.958178e+00	-1.958178e+00
1.438973903621459e-05	-1.286569e+00	-1.286569e+00	-1.286569e+00	-1.286569e+00
1.450683596686531e-05	-5.218326e-01	-5.218326e-01	-5.218326e-01	-5.218326e-01
1.462569401804048e-05	2.494034e-01	2.494034e-01	2.494034e-01	2.494034e-01
1.462737170624134e-05	2.599238e-01	2.599238e-01	2.599238e-01	2.599238e-01
1.464223123030609e-05	3.508589e-01	3.508589e-01	3.508589e-01	3.508589e-01
1.465709075437084e-05	4.419106e-01	4.419106e-01	4.419106e-01	4.419106e-01
1.467195027843560e-05	5.330788e-01	5.330788e-01	5.330788e-01	5.330788e-01
1.468680980250035e-05	6.243637e-01	6.243637e-01	6.243637e-01	6.243637e-01
1.470166932656510e-05	7.157651e-01	7.157651e-01	7.157651e-01	7.157651e-01
1.471652885062986e-05	8.072831e-01	8.072831e-01	8.072831e-01	8.072831e-01
1.473138837469461e-05	8.989177e-01	8.989177e-01	8.989177e-01	8.989177e-01
1.483876041954960e-05	1.555871e+00	1.555871e+00	1.555871e+00	1.555871e+00
1.505350450925959e-05	2.797873e+00	2.797873e+00	2.797873e+00	2.797873e+00
1.548299268867955e-05	4.823908e+00	4.823908e+00	4.823908e+00	4.823908e+00
1.604129353401086e-05	6.325036e+00	6.325036e+00	6.325036e+00	6.325036e+00
1.653082456582225e-05	6.197109e+00	6.197109e+00	6.197109e+00	6.197109e+00
1.702772225705602e-05	4.679933e+00	4.679933e+00	4.679933e+00	4.679933e+00
1.721681769827963e-05	3.723603e+00	3.723603e+00	3.723603e+00	3.723603e+00
1.735296895102692e-05	2.867836e+00	2.867836e+00	2.867836e+00	2.867836e+00
1.745429786878637e-05	2.176565e+00	2.176565e+00	2.176565e+00	2.176565e+00
1.756851384378075e-05	1.355954e+00	1.355954e+00	1.355954e+00	1.355954e+00
1.770215143586383e-05	3.807747e-01	3.807747e-01	3.807747e-01	3.807747e-01
1.780149271465925e-05	-3.280567e-01	-3.280567e-01	-3.280567e-01	-3.280567e-01
1.780167932002645e-05	-3.293125e-01	-3.293125e-01	-3.293125e-01	-3.293125e-01
1.782519159629502e-05	-4.811483e-01	-4.811483e-01	-4.811483e-01	-4.811483e-01
1.784907708329800e-05	-6.355455e-01	-6.355455e-01	-6.355455e-01	-6.355455e-01
1.789684805730397e-05	-9.440630e-01	-9.440630e-01	-9.440630e-01	-9.440630e-01
1.799239000531591e-05	-1.554803e+00	-1.554803e+00	-1.554803e+00	-1.554803e+00
1.818347390133979e-05	-2.711121e+00	-2.711121e+00	-2.711121e+00	-2.711121e+00
1.856564169338755e-05	-4.594269e+00	-4.594269e+00	-4.594269e+00	-4.594269e+00
1.917135107156323e-05	-6.341236e+00	-6.341236e+00	-6.341236e+00	-6.341236e+00
1.965753155919939e-05	-6.299146e+00	-6.299146e+00	-6.299146e+00	-6.299146e+00
2.016616282298140e-05	-4.785788e+00	-4.785788e+00	-4.785788e+00	-4.785788e+00
2.039155153089415e-05	-3.661771e+00	-3.661771e+00	-3.661771e+00	-3.661771e+00
2.053581576354713e-05	-2.765218e+00	-2.765218e+00	-2.765218e+00	-2.765218e+00
2.064269214941709e-05	-2.044797e+00	-2.044797e+00	-2.044797e+00	-2.044797e+00
2.075336619249155e-05	-1.264107e+00	-1.264107e+00	-1.264107e+00	-1.264107e+00
2.089971344244133e-05	-2.258169e-01	-2.258169e-01	-2.258169e-01	-2.258169e-01
2.098715579513995e-05	3.688686e-01	3.688686e-01	3.688686e-01	3.688686e-01
2.098731965828771e-05	3.698865e-01	3.698865e-01	3.698865e-01	3.698865e-01
2.101124367786112e-05	5.097230e-01	5.097230e-01	5.097230e-01	5.097230e-01
2.103516769743453e-05	6.490583e-01	6.490583e-01	6.490583e-01	6.490583e-01
2.105909171700793e-05	7.878923e-01	7.878923e-01	7.878923e-01	7.878923e-01
2.108301573658133e-05	9.262250e-01	9.262250e-01	9.262250e-01	9.262250e-01
2.110693975615474e-05	1.064057e+00	1.064057e+00	1.064057e+00	1.064057e+00
2.113086377572815e-05	1.201387e+00	1.201387e+00	1.201387e+00	1.201387e+00
2.115478779530155e-05	1.338216e+00	1.338216e+00	1.338216e+00	1.338216e+00
2.132258365861091e-05	2.254158e+00	2.254158e+00	2.254158e+00	2.254158e+00
2.165817538522963e-05	3.786994e+00	3.786994e+00	3.786994e+00	3.786994e+00
2.221794845453928e-05	5.398882e+00	5.398882e+00	5.398882e+00	5.398882e+00
2.273373762837773e-05	5.641867e+00	5.641867e+00	5.641867e+00	5.641867e+00
2.317973567952605e-05	4.708484e+00	4.708484e+00	4.708484e+00	4.708484e+00
2.352475399825379e-05	3.330040e+00	3.330040e+00	3.330040e+00	3.330040e+00
2.368879512418649e-05	2.486287e+00	2.486287e+00	2.486287e+00	2.486287e+00
2.380887404419683e-05	1.797809e+00	1.797809e+00	1.797809e+00	1.797809e+00
2.391106341071884e-05	1.185448e+00	1.185448e+00	1.185448e+00	1.185448e+00
2.400767154937830e-05	5.928693e-01	5.928693e-01	5.928693e-01	5.928693e-01
2.407774389955709e-05	1.700599e-01	1.700599e-01	1.700599e-01	1.700599e-01
2.412072561158843e-05	-7.112727e-02	-7.112727e-02	-7.112727e-02	-7.112727e-02
2.412080684339963e-05	-7.152439e-02	-7.152439e-02	-7.152439e-02	-7.152439e-02
2.414454974136070e-05	-1.771252e-01	-1.771252e-01	-1.771252e-01	-1.771252e-01
2.416829263932177e-05	-2.823994e-01	-2.823994e-01	-2.823994e-01	-2.823994e-01
2.419203553728284e-05	-3.873471e-01	-3.873471e-01	-3.873471e-01	-3.873471e-01
2.421577843524390e-05	-4.919683e-01	-4.919683e-01	-4.919683e-01	-4.919683e-01
2.423952133320498e-05	-5.962628e-01	-5.962628e-01	-5.962628e-01	-5.962628e-01
2.426326423116604e-05	-7.002309e-01	-7.002309e-01	-7.002309e-01	-7.002309e-01
2.428700712912711e-05	-8.038723e-01	-8.038723e-01	-8.038723e-01	-8.038723e-01
2.445336987847701e-05	-1.499646e+00	-1.499646e+00	-1.499646e+00	-1.499646e+00
2.478609537717679e-05	-2.689200e+00	-2.689200e+00	-2.689200e+00	-2.689200e+00
2.531107196996327e-05	-3.941560e+00	-3.941560e+00	-3.941560e+00	-3.941560e+00
2.582934738393929e-05	-4.271721e+00	-4.271721e+00	-4.271721e+00	-4.271721e+00
2.629593120949701e-05	-3.668848e+00	-3.668848e+00	-3.668848e+00	-3.668848e+00
2.668128857696688e-05	-2.592535e+00	-2.592535e+00	-2.592535e+00	-2.592535e+00
2.685919004714051e-05	-1.928580e+00	-1.928580e+00	-1.928580e+00	-1.928580e+00
2.698824991124854e-05	-1.383433e+00	-1.383433e+00	-1.383433e+00	-1.383433e+00
2.708466822723105e-05	-9.557922e-01	-9.557922e-01	-9.557922e-01	-9.557922e-01
2.720212764440931e-05	-4.213138e-01	-4.213138e-01	-4.213138e-01	-4.213138e-01
2.727953353171173e-05	-8.008597e-02	-8.008597e-02	-8.008597e-02	-8.008597e-02
2.733226422931420e-05	1.278440e-01	1.278440e-01	1.278440e-01	1.278440e-01
2.733235883918280e-05	1.281438e-01	1.281438e-01	1.281438e-01	1.281438e-01
2.736001195220523e-05	2.024579e-01	2.024579e-01	2.024579e-01	2.024579e-01
2.738766506522766e-05	2.764385e-01	2.764385e-01	2.764385e-01	2.764385e-01
2.741531817825009e-05	3.500857e-01	3.500857e-01	3.500857e-01	3.500857e-01
2.744297129127253e-05	4.233995e-01	4.233995e-01	4.233995e-01	4.233995e-01
2.747062440429495e-05	4.963798e-01	4.963798e-01	4.963798e-01	4.963798e-01
2.749827751731738e-05	5.690268e-01	5.690268e-01	5.690268e-01	5.690268e-01
2.752593063033981e-05	6.413403e-01	6.413403e-01	6.413403e-01	6.413403e-01
2.771969164123403e-05	1.120018e+00	1.120018e+00	1.120018e+00	1.120018e+00
2.810424906157423e-05	1.904045e+00	1.904045e+00	1.904045e+00	1.904045e+00
2.864663025904651e-05	2.567854e+00	2.567854e+00	2.567854e+00	2.567854e+00
2.919080687794988e-05	2.604732e+00	2.604732e+00	2.604732e+00	2.604732e+00
2.968047407529582e-05	2.070724e+00	2.070724e+00	2.070724e+00	2.070724e+00
2.994729358469691e-05	1.546594e+00	1.546594e+00	1.546594e+00	1.546594e+00
3.010789677016918e-05	1.145740e+00	1.145740e+00	1.145740e+00	1.145740e+00
3.022571340687011e-05	8.214588e-01	8.214588e-01	8.214588e-01	8.214588e-01
3.032950370144424e-05	5.209592e-01	5.209592e-01	5.209592e-01	5.209592e-01
3.043155945485517e-05	2.166717e-01	2.166717e-01	2.166717e-01	2.166717e-01
3.050116042552937e-05	1.894534e-02	1.894534e-02	1.894534e-02	1.894534e-02
3.054470149945985e-05	-8.418390e-02	-8.418390e-02	-8.418390e-02	-8.418390e-02
3.054478364193557e-05	-8.431339e-02	-8.431339e-02	-8.431339e-02	-8.431339e-02
3.056879271412271e-05	-1.104908e-01	-1.104908e-01	-1.104908e-01	-1.104908e-01
3.059280178630985e-05	-1.368202e-01	-1.368202e-01	-1.368202e-01	-1.368202e-01
3.061681085849699e-05	-1.633016e-01	-1.633016e-01	-1.633016e-01	-1.633016e-01
3.064081993068414e-05	-1.899350e-01	-1.899350e-01	-1.899350e-01	-1.899350e-01
3.066482900287128e-05	-2.167205e-01	-2.167205e-01	-2.167205e-01	-2.167205e-01
3.068883807505842e-05	-2.436580e-01	-2.436580e-01	-2.436580e-01	-2.436580e-01
3.071284714724556e-05	-2.707475e-01	-2.707475e-01	-2.707475e-01	-2.707475e-01
3.088107493750699e-05	-4.600000e-01	-4.600000e-01	-4.600000e-01	-4.600000e-01
3.121753051802984e-05	-8.161870e-01	-8.161870e-01	-8.161870e-01	-8.161870e-01
3.175230502890582e-05	-1.255182e+00	-1.255182e+00	-1.255182e+00	-1.255182e+00
3.233137969608222e-05	-1.439303e+00	-1.439303e+00	-1.439303e+00	-1.439303e+00
3.290613177109171e-05	-1.261607e+00	-1.261607e+00	-1.261607e+00	-1.261607e+00
3.314110369057367e-05	-1.048949e+00	-1.048949e+00	-1.048949e+00	-1.048949e+00
3.330487376503836e-05	-8.293006e-01	-8.293006e-01	-8.293006e-01	-8.293006e-01
3.342477482511941e-05	-6.403773e-01	-6.403773e-01	-6.403773e-01	-6.403773e-01
3.352708985480448e-05	-4.622506e-01	-4.622506e-01	-4.622506e-01	-4.622506e-01
3.362328798402381e-05	-2.821736e-01	-2.821736e-01	-2.821736e-01	-2.821736e-01
3.373863922376068e-05	-7.471491e-02	-7.471491e-02	-7.471491e-02	-7.471491e-02
3.380398864391062e-05	1.552906e-02	1.552906e-02	1.552906e-02	1.552906e-02
3.380410627232502e-05	1.560309e-02	1.560309e-02	1.560309e-02	1.560309e-02
3.383848737744830e-05	2.178370e-02	2.178370e-02	2.178370e-02	2.178370e-02
3.387286848257158e-05	2.924496e-02	2.924496e-02	2.924496e-02	2.924496e-02
3.390724958769486e-05	3.798685e-02	3.798685e-02	3.798685e-02	3.798685e-02
3.394163069281815e-05	4.800938e-02	4.800938e-02	4.800938e-02	4.800938e-02
3.397601179794144e-05	5.931254e-02	5.931254e-02	5.931254e-02	5.931254e-02
3.401039290306472e-05	7.189635e-02	7.189635e-02	7.189635e-02	7.189635e-02
3.404477400818800e-05	8.576079e-02	8.576079e-02	8.576079e-02	8.576079e-02
3.428567700087979e-05	2.106942e-01	2.106942e-01	2.106942e-01	2.106942e-01
3.475392712515828e-05	5.246879e-01	5.246879e-01	5.246879e-01	5.246879e-01
3.534498309807526e-05	8.969449e-01	8.969449e-01	8.969449e-01	8.969449e-01
3.595414620328974e-05	1.093621e+00	1.093621e+00	1.093621e+00	1.093621e+00
3.626638265633482e-05	1.035008e+00	1.035008e+00	1.035008e+00	1.035008e+00
3.645314200614957e-05	9.048828e-01	9.048828e-01	9.048828e-01	9.048828e-01
3.658782516355999e-05	7.637377e-01	7.637377e-01	7.637377e-01	7.637377e-01
3.668814215458868e-05	6.325653e-01	6.325653e-01	6.325653e-01	6.325653e-01
3.680301834705915e-05	4.566164e-01	4.566164e-01	4.566164e-01	4.566164e-01
3.693431276807945e-05	2.302101e-01	2.302101e-01	2.302101e-01	2.302101e-01
3.702675701663934e-05	7.220809e-02	7.220809e-02	7.220809e-02	7.220809e-02
3.708449617952860e-05	-5.995099e-03	-5.995099e-03	-5.995099e-03	-5.995099e-03
3.708460457637862e-05	-6.066815e-03	-6.066815e-03	-6.066815e-03	-6.066815e-03
3.710043051648072e-05	-9.776876e-03	-9.776876e-03	-9.776876e-03	-9.776876e-03
3.711625645658283e-05	-1.393605e-02	-1.393605e-02	-1.393605e-02	-1.393605e-02
3.713208239668494e-05	-1.854433e-02	-1.854433e-02	-1.854433e-02	-1.854433e-02
3.714790833678705e-05	-2.360173e-02	-2.360173e-02	-2.360173e-02	-2.360173e-02
3.716373427688915e-05	-2.910824e-02	-2.910824e-02	-2.910824e-02	-2.910824e-02
3.717956021699126e-05	-3.506385e-02	-3.506385e-02	-3.506385e-02	-3.506385e-02
