time	I(L2)	I(L3)	I(L5)	I(L6)
0.000000000000000e+00	0.000000e+00	0.000000e+00	0.000000e+00	0.000000e+00
3.906249976259879e-11	-6.848145e-10	-6.848145e-10	-6.848145e-10	-6.848145e-10
4.008439995977193e-11	-7.031196e-10	-7.031196e-10	-7.031196e-10	-7.031196e-10
6.046966069619435e-11	-1.221521e-09	-1.221521e-09	-1.221521e-09	-1.221521e-09
8.085492143261677e-11	-1.893855e-09	-1.893855e-09	-1.893855e-09	-1.893855e-09
1.012401821690392e-10	-2.720122e-09	-2.720122e-09	-2.720122e-09	-2.720122e-09
1.216254429054616e-10	-3.700321e-09	-3.700321e-09	-3.700321e-09	-3.700321e-09
1.420107036418840e-10	-4.834453e-09	-4.834453e-09	-4.834453e-09	-4.834453e-09
1.623959643783065e-10	-6.122518e-09	-6.122518e-09	-6.122518e-09	-6.122518e-09
1.827812251147288e-10	-7.564516e-09	-7.564516e-09	-7.564516e-09	-7.564516e-09
2.339812044861960e-10	-1.156059e-08	-1.156059e-08	-1.156059e-08	-1.156059e-08
2.997372162849149e-10	-1.724701e-08	-1.724701e-08	-1.724701e-08	-1.724701e-08
3.815209268146242e-10	-2.422919e-08	-2.422919e-08	-2.422919e-08	-2.422919e-08
4.905841440745867e-10	-3.146046e-08	-3.146046e-08	-3.146046e-08	-3.146046e-08
6.392111140411208e-10	-3.454025e-08	-3.454025e-08	-3.454025e-08	-3.454025e-08
8.725380770912371e-10	-2.751029e-08	-2.751030e-08	-2.751029e-08	-2.751029e-08
1.339192003191470e-09	-1.120599e-08	-1.120601e-08	-1.120599e-08	-1.120599e-08
1.760823595795987e-09	-1.347473e-08	-1.347475e-08	-1.347473e-08	-1.347473e-08
2.508968291373700e-09	-2.284627e-08	-2.284630e-08	-2.284627e-08	-2.284627e-08
3.680172287181659e-09	-1.765246e-08	-1.765251e-08	-1.765246e-08	-1.765246e-08
4.946337418852644e-09	-1.814346e-08	-1.814353e-08	-1.814346e-08	-1.814346e-08
6.885153859436649e-09	-1.979129e-08	-1.979138e-08	-1.979129e-08	-1.979129e-08
9.300471692257722e-09	-1.814201e-08	-1.814212e-08	-1.814201e-08	-1.814201e-08
1.283304390575468e-08	-2.000118e-08	-2.000134e-08	-2.000118e-08	-2.000118e-08
1.742562105850629e-08	-2.130828e-08	-2.130842e-08	-2.130828e-08	-2.130828e-08
2.393145272717896e-08	-7.599596e-08	-7.599606e-08	-7.599596e-08	-7.599596e-08
3.071900778298173e-08	-5.828820e-07	-5.828822e-07	-5.828820e-07	-5.828820e-07
3.506249526992337e-08	-2.100622e-06	-2.100623e-06	-2.100622e-06	-2.100622e-06
3.879481165301891e-08	-5.539259e-06	-5.539259e-06	-5.539259e-06	-5.539259e-06
4.224997184019839e-08	-1.166868e-05	-1.166868e-05	-1.166868e-05	-1.166868e-05
4.605835070566032e-08	-2.273552e-05	-2.273553e-05	-2.273552e-05	-2.273552e-05
5.072226196286919e-08	-4.325023e-05	-4.325023e-05	-4.325023e-05	-4.325023e-05
5.672158832452484e-08	-8.184624e-05	-8.184624e-05	-8.184624e-05	-8.184624e-05
6.453456367990305e-08	-1.540074e-04	-1.540074e-04	-1.540074e-04	-1.540074e-04
7.485954717154889e-08	-2.891604e-04	-2.891604e-04	-2.891604e-04	-2.891604e-04
8.859604238576940e-08	-5.415498e-04	-5.415498e-04	-5.415498e-04	-5.415498e-04
1.070246341611332e-07	-1.013291e-03	-1.013291e-03	-1.013291e-03	-1.013291e-03
1.318479910224824e-07	-1.893169e-03	-1.893169e-03	-1.893169e-03	-1.893169e-03
1.654616681373146e-07	-3.533736e-03	-3.533736e-03	-3.533736e-03	-3.533736e-03
2.111358097648647e-07	-6.585059e-03	-6.585059e-03	-6.585059e-03	-6.585059e-03
2.735025330119064e-07	-1.224394e-02	-1.224394e-02	-1.224394e-02	-1.224394e-02
3.591212523542164e-07	-2.266671e-02	-2.266671e-02	-2.266671e-02	-2.266671e-02
4.778252625793118e-07	-4.162804e-02	-4.162804e-02	-4.162804e-02	-4.162804e-02
6.452621827919901e-07	-7.512490e-02	-7.512490e-02	-7.512490e-02	-7.512490e-02
8.906023315931074e-07	-1.303238e-01	-1.303238e-01	-1.303238e-01	-1.303238e-01
1.205242998935499e-06	-2.002037e-01	-2.002037e-01	-2.002037e-01	-2.002037e-01
1.337685351371048e-06	-2.252361e-01	-2.252361e-01	-2.252361e-01	-2.252361e-01
1.436453068143707e-06	-2.387623e-01	-2.387623e-01	-2.387623e-01	-2.387623e-01
1.552348324692264e-06	-2.479338e-01	-2.479338e-01	-2.479338e-01	-2.479338e-01
1.680040936491770e-06	-2.488899e-01	-2.488899e-01	-2.488899e-01	-2.488899e-01
1.824828136582933e-06	-2.346344e-01	-2.346344e-01	-2.346344e-01	-2.346344e-01
2.059532510668180e-06	-1.732112e-01	-1.732112e-01	-1.732112e-01	-1.732112e-01
2.433303372229594e-06	-2.131278e-03	-2.131278e-03	-2.131278e-03	-2.131278e-03
2.796768585857815e-06	2.216102e-01	2.216102e-01	2.216102e-01	2.216102e-01
2.846644598105616e-06	2.575721e-01	2.575721e-01	2.575721e-01	2.575721e-01
2.946396622601218e-06	3.351349e-01	3.351349e-01	3.351349e-01	3.351349e-01
3.145900671592423e-06	4.909990e-01	4.909990e-01	4.909990e-01	4.909990e-01
3.483801268286125e-06	7.219325e-01	7.219325e-01	7.219325e-01	7.219325e-01
3.989120071468154e-06	9.566452e-01	9.566452e-01	9.566452e-01	9.566452e-01
4.256636497710169e-06	9.921166e-01	9.921166e-01	9.921166e-01	9.921166e-01
4.431292784893772e-06	9.529971e-01	9.529971e-01	9.529971e-01	9.529971e-01
4.558269894397782e-06	8.906194e-01	8.906194e-01	8.906194e-01	8.906194e-01
4.655612310098085e-06	8.213838e-01	8.213838e-01	8.213838e-01	8.213838e-01
4.776437299405924e-06	7.117214e-01	7.117214e-01	7.117214e-01	7.117214e-01
4.892226174763448e-06	5.833997e-01	5.833997e-01	5.833997e-01	5.833997e-01
5.041433461259789e-06	3.821614e-01	3.821614e-01	3.821614e-01	3.821614e-01
5.283169751015077e-06	-3.428648e-03	-3.428648e-03	-3.428648e-03	-3.428648e-03
5.601039391605624e-06	-5.643076e-01	-5.643076e-01	-5.643076e-01	-5.643076e-01
5.637270880622824e-06	-6.316676e-01	-6.316676e-01	-6.316676e-01	-6.316676e-01
5.709733858657224e-06	-7.698300e-01	-7.698300e-01	-7.698300e-01	-7.698300e-01
5.854659814726024e-06	-1.043545e+00	-1.043545e+00	-1.043545e+00	-1.043545e+00
6.144511726863625e-06	-1.536147e+00	-1.536147e+00	-1.536147e+00	-1.536147e+00
6.646761882700174e-06	-2.125949e+00	-2.125949e+00	-2.125949e+00	-2.125949e+00
7.160971900380154e-06	-2.306774e+00	-2.306774e+00	-2.306774e+00	-2.306774e+00
7.441640017184036e-06	-2.135431e+00	-2.135431e+00	-2.135431e+00	-2.135431e+00
7.622120308083368e-06	-1.878015e+00	-1.878015e+00	-1.878015e+00	-1.878015e+00
7.752826589813625e-06	-1.623180e+00	-1.623180e+00	-1.623180e+00	-1.623180e+00
7.850390084515285e-06	-1.395948e+00	-1.395948e+00	-1.395948e+00	-1.395948e+00
7.967084269309889e-06	-1.087606e+00	-1.087606e+00	-1.087606e+00	-1.087606e+00
8.091965420348741e-06	-7.217307e-01	-7.217307e-01	-7.217307e-01	-7.217307e-01
8.237797615813706e-06	-2.575923e-01	-2.575923e-01	-2.575923e-01	-2.575923e-01
8.440166999414059e-06	4.141100e-01	4.141100e-01	4.141100e-01	4.141100e-01
8.443087863384090e-06	4.239070e-01	4.239070e-01	4.239070e-01	4.239070e-01
8.468958372832934e-06	5.113876e-01	5.113876e-01	5.113876e-01	5.113876e-01
8.494828882281776e-06	5.992222e-01	5.992222e-01	5.992222e-01	5.992222e-01
8.520699391730621e-06	6.874106e-01	6.874106e-01	6.874106e-01	6.874106e-01
8.546569901179465e-06	7.759530e-01	7.759530e-01	7.759530e-01	7.759530e-01
8.572440410628309e-06	8.648493e-01	8.648493e-01	8.648493e-01	8.648493e-01
8.598310920077151e-06	9.540995e-01	9.540995e-01	9.540995e-01	9.540995e-01
8.624181429525995e-06	1.043704e+00	1.043704e+00	1.043704e+00	1.043704e+00
8.811116723607961e-06	1.673330e+00	1.673330e+00	1.673330e+00	1.673330e+00
9.184987311771895e-06	2.774217e+00	2.774217e+00	2.774217e+00	2.774217e+00
9.702174633453153e-06	3.749271e+00	3.749271e+00	3.749271e+00	3.749271e+00
1.024752006863541e-05	3.890811e+00	3.890811e+00	3.890811e+00	3.890811e+00
1.062708281620091e-05	3.332150e+00	3.332150e+00	3.332150e+00	3.332150e+00
1.081333284723723e-05	2.797711e+00	2.797711e+00	2.797711e+00	2.797711e+00
1.094769510388582e-05	2.296879e+00	2.296879e+00	2.296879e+00	2.296879e+00
1.104779057731069e-05	1.873331e+00	1.873331e+00	1.873331e+00	1.873331e+00
1.116281186688602e-05	1.341924e+00	1.341924e+00	1.341924e+00	1.341924e+00
1.129359235664049e-05	7.037156e-01	7.037156e-01	7.037156e-01	7.037156e-01
1.143723096802977e-05	-9.606875e-03	-9.606875e-03	-9.606875e-03	-9.606875e-03
1.152996199935917e-05	-4.700620e-01	-4.700620e-01	-4.700620e-01	-4.700620e-01
1.163203675483760e-05	-9.803321e-01	-9.803321e-01	-9.803321e-01	-9.803321e-01
1.175984446052773e-05	-1.618522e+00	-1.618522e+00	-1.618522e+00	-1.618522e+00
1.201545987190801e-05	-2.800828e+00	-2.800828e+00	-2.800828e+00	-2.800828e+00
1.252669069466856e-05	-4.648065e+00	-4.648065e+00	-4.648065e+00	-4.648065e+00
1.303184015630248e-05	-5.477823e+00	-5.477823e+00	-5.477823e+00	-5.477823e+00
1.356644583887871e-05	-5.025267e+00	-5.025267e+00	-5.025267e+00	-5.025267e+00
1.389213839543175e-05	-4.027288e+00	-4.027288e+00	-4.027288e+00	-4.027288e+00
1.406104626486591e-05	-3.240149e+00	-3.240149e+00	-3.240149e+00	-3.240149e+00
1.418430408435328e-05	-2.559220e+00	-2.559220e+00	-2.559220e+00	-2.559220e+00
1.428425330235384e-05	-1.958184e+00	-1.958184e+00	-1.958184e+00	-1.958184e+00
1.438973880828696e-05	-1.286570e+00	-1.286570e+00	-1.286570e+00	-1.286570e+00
1.450683588207238e-05	-5.218329e-01	-5.218329e-01	-5.218329e-01	-5.218329e-01
1.462569496357570e-05	2.494098e-01	2.494098e-01	2.494098e-01	2.494098e-01
1.462737267052159e-05	2.599304e-01	2.599304e-01	2.599304e-01	2.599304e-01
1.464223236061376e-05	3.508665e-01	3.508665e-01	3.508665e-01	3.508665e-01
1.465709205070593e-05	4.419192e-01	4.419192e-01	4.419192e-01	4.419192e-01
1.467195174079811e-05	5.330885e-01	5.330885e-01	5.330885e-01	5.330885e-01
1.468681143089028e-05	6.243743e-01	6.243743e-01	6.243743e-01	6.243743e-01
1.470167112098246e-05	7.157768e-01	7.157768e-01	7.157768e-01	7.157768e-01
1.471653081107463e-05	8.072958e-01	8.072958e-01	8.072958e-01	8.072958e-01
1.473139050116680e-05	8.989314e-01	8.989314e-01	8.989314e-01	8.989314e-01
1.483876374570380e-05	1.555892e+00	1.555892e+00	1.555892e+00	1.555892e+00
1.505351023477779e-05	2.797905e+00	2.797905e+00	2.797905e+00	2.797905e+00
1.548300321292578e-05	4.823953e+00	4.823953e+00	4.823953e+00	4.823953e+00
1.604129928125103e-05	6.325047e+00	6.325047e+00	6.325047e+00	6.325047e+00
1.653082920754570e-05	6.197102e+00	6.197102e+00	6.197102e+00	6.197102e+00
1.702772553230566e-05	4.679916e+00	4.679916e+00	4.679916e+00	4.679916e+00
1.721682000145266e-05	3.723587e+00	3.723587e+00	3.723587e+00	3.723587e+00
1.735297064459574e-05	2.867823e+00	2.867823e+00	2.867823e+00	2.867823e+00
1.745429914267914e-05	2.176553e+00	2.176553e+00	2.176553e+00	2.176553e+00
1.756851539059506e-05	1.355940e+00	1.355940e+00	1.355940e+00	1.355940e+00
1.770215201244902e-05	3.807676e-01	3.807676e-01	3.807676e-01	3.807676e-01
1.780149245319068e-05	-3.280579e-01	-3.280579e-01	-3.280579e-01	-3.280579e-01
1.780167905681018e-05	-3.293137e-01	-3.293137e-01	-3.293137e-01	-3.293137e-01
1.782519111286700e-05	-4.811481e-01	-4.811481e-01	-4.811481e-01	-4.811481e-01
1.784907637616281e-05	-6.355438e-01	-6.355438e-01	-6.355438e-01	-6.355438e-01
1.789684690275444e-05	-9.440584e-01	-9.440584e-01	-9.440584e-01	-9.440584e-01
1.799238795593770e-05	-1.554793e+00	-1.554793e+00	-1.554793e+00	-1.554793e+00
1.818347006230422e-05	-2.711102e+00	-2.711102e+00	-2.711102e+00	-2.711102e+00
1.856563427503726e-05	-4.594242e+00	-4.594242e+00	-4.594242e+00	-4.594242e+00
1.917134082516990e-05	-6.341226e+00	-6.341226e+00	-6.341226e+00	-6.341226e+00
1.965752133808754e-05	-6.299159e+00	-6.299159e+00	-6.299159e+00	-6.299159e+00
2.016615755682799e-05	-4.785807e+00	-4.785807e+00	-4.785807e+00	-4.785807e+00
2.039154928923997e-05	-3.661781e+00	-3.661781e+00	-3.661781e+00	-3.661781e+00
2.053581412537169e-05	-2.765226e+00	-2.765226e+00	-2.765226e+00	-2.765226e+00
2.064269092105983e-05	-2.044803e+00	-2.044803e+00	-2.044803e+00	-2.044803e+00
2.075336470739328e-05	-1.264115e+00	-1.264115e+00	-1.264115e+00	-1.264115e+00
2.089971288759283e-05	-2.258181e-01	-2.258181e-01	-2.258181e-01	-2.258181e-01
2.098715529584340e-05	3.688677e-01	3.688677e-01	3.688677e-01	3.688677e-01
2.098731915913429e-05	3.698857e-01	3.698857e-01	3.698857e-01	3.698857e-01
2.101124319960483e-05	5.097223e-01	5.097223e-01	5.097223e-01	5.097223e-01
2.103516724007537e-05	6.490576e-01	6.490576e-01	6.490576e-01	6.490576e-01
2.105909128054591e-05	7.878917e-01	7.878917e-01	7.878917e-01	7.878917e-01
2.108301532101645e-05	9.262246e-01	9.262246e-01	9.262246e-01	9.262246e-01
2.110693936148699e-05	1.064056e+00	1.064056e+00	1.064056e+00	1.064056e+00
2.113086340195753e-05	1.201387e+00	1.201387e+00	1.201387e+00	1.201387e+00
2.115478744242807e-05	1.338216e+00	1.338216e+00	1.338216e+00	1.338216e+00
2.132258345230365e-05	2.254158e+00	2.254158e+00	2.254158e+00	2.254158e+00
2.165817547205480e-05	3.786995e+00	3.786995e+00	3.786995e+00	3.786995e+00
2.221794857903883e-05	5.398882e+00	5.398882e+00	5.398882e+00	5.398882e+00
2.273373775272129e-05	5.641865e+00	5.641865e+00	5.641865e+00	5.641865e+00
2.317973574522136e-05	4.708482e+00	4.708482e+00	4.708482e+00	4.708482e+00
2.352475389755374e-05	3.330038e+00	3.330038e+00	3.330038e+00	3.330038e+00
2.368879505177742e-05	2.486286e+00	2.486286e+00	2.486286e+00	2.486286e+00
2.380887399034741e-05	1.797808e+00	1.797808e+00	1.797808e+00	1.797808e+00
2.391106334375829e-05	1.185447e+00	1.185447e+00	1.185447e+00	1.185447e+00
2.400767153443372e-05	5.928681e-01	5.928681e-01	5.928681e-01	5.928681e-01
2.407774392129990e-05	1.700585e-01	1.700585e-01	1.700585e-01	1.700585e-01
2.412072561683260e-05	-7.112853e-02	-7.112853e-02	-7.112853e-02	-7.112853e-02
2.412080684862927e-05	-7.152565e-02	-7.152565e-02	-7.152565e-02	-7.152565e-02
2.414454974234031e-05	-1.771264e-01	-1.771264e-01	-1.771264e-01	-1.771264e-01
2.416829263605135e-05	-2.824006e-01	-2.824006e-01	-2.824006e-01	-2.824006e-01
2.419203552976239e-05	-3.873482e-01	-3.873482e-01	-3.873482e-01	-3.873482e-01
2.421577842347343e-05	-4.919693e-01	-4.919693e-01	-4.919693e-01	-4.919693e-01
2.423952131718448e-05	-5.962638e-01	-5.962638e-01	-5.962638e-01	-5.962638e-01
2.426326421089551e-05	-7.002318e-01	-7.002318e-01	-7.002318e-01	-7.002318e-01
2.428700710460656e-05	-8.038732e-01	-8.038732e-01	-8.038732e-01	-8.038732e-01
2.445336982417717e-05	-1.499647e+00	-1.499647e+00	-1.499647e+00	-1.499647e+00
2.478609526331840e-05	-2.689200e+00	-2.689200e+00	-2.689200e+00	-2.689200e+00
2.531107180293002e-05	-3.941557e+00	-3.941557e+00	-3.941557e+00	-3.941557e+00
2.582935096227132e-05	-4.271717e+00	-4.271717e+00	-4.271717e+00	-4.271717e+00
2.629593586289234e-05	-3.668837e+00	-3.668837e+00	-3.668837e+00	-3.668837e+00
2.668128998325713e-05	-2.592530e+00	-2.592530e+00	-2.592530e+00	-2.592530e+00
2.685919104615558e-05	-1.928576e+00	-1.928576e+00	-1.928576e+00	-1.928576e+00
2.698825064963826e-05	-1.383430e+00	-1.383430e+00	-1.383430e+00	-1.383430e+00
2.708466878409920e-05	-9.557900e-01	-9.557900e-01	-9.557900e-01	-9.557900e-01
2.720212832299403e-05	-4.213111e-01	-4.213111e-01	-4.213111e-01	-4.213111e-01
2.727953410824560e-05	-8.008390e-02	-8.008390e-02	-8.008390e-02	-8.008390e-02
2.733226482387882e-05	1.278461e-01	1.278461e-01	1.278461e-01	1.278461e-01
2.733235943373074e-05	1.281459e-01	1.281459e-01	1.281459e-01	1.281459e-01
2.736001254187608e-05	2.024599e-01	2.024599e-01	2.024599e-01	2.024599e-01
2.738766565002141e-05	2.764405e-01	2.764405e-01	2.764405e-01	2.764405e-01
2.741531875816675e-05	3.500876e-01	3.500876e-01	3.500876e-01	3.500876e-01
2.744297186631209e-05	4.234013e-01	4.234013e-01	4.234013e-01	4.234013e-01
2.747062497445742e-05	4.963816e-01	4.963816e-01	4.963816e-01	4.963816e-01
2.749827808260276e-05	5.690284e-01	5.690284e-01	5.690284e-01	5.690284e-01
2.752593119074809e-05	6.413419e-01	6.413419e-01	6.413419e-01	6.413419e-01
2.771969216746928e-05	1.120019e+00	1.120019e+00	1.120019e+00	1.120019e+00
2.810424988309847e-05	1.904045e+00	1.904045e+00	1.904045e+00	1.904045e+00
2.864663104514640e-05	2.567854e+00	2.567854e+00	2.567854e+00	2.567854e+00
2.919080700452343e-05	2.604731e+00	2.604731e+00	2.604731e+00	2.604731e+00
2.968047412353545e-05	2.070723e+00	2.070723e+00	2.070723e+00	2.070723e+00
2.994729364975457e-05	1.546594e+00	1.546594e+00	1.546594e+00	1.546594e+00
3.010789681708593e-05	1.145740e+00	1.145740e+00	1.145740e+00	1.145740e+00
3.022571344181309e-05	8.214588e-01	8.214588e-01	8.214588e-01	8.214588e-01
3.032950374487525e-05	5.209593e-01	5.209593e-01	5.209593e-01	5.209593e-01
3.043155953201125e-05	2.166719e-01	2.166719e-01	2.166719e-01	2.166719e-01
3.050116050213704e-05	1.894558e-02	1.894558e-02	1.894558e-02	1.894558e-02
3.054470158792874e-05	-8.418363e-02	-8.418363e-02	-8.418363e-02	-8.418363e-02
3.054478373042294e-05	-8.431312e-02	-8.431312e-02	-8.431312e-02	-8.431312e-02
3.056879280801375e-05	-1.104905e-01	-1.104905e-01	-1.104905e-01	-1.104905e-01
3.059280188560455e-05	-1.368199e-01	-1.368199e-01	-1.368199e-01	-1.368199e-01
3.061681096319535e-05	-1.633012e-01	-1.633012e-01	-1.633012e-01	-1.633012e-01
3.064082004078615e-05	-1.899347e-01	-1.899347e-01	-1.899347e-01	-1.899347e-01
3.066482911837695e-05	-2.167201e-01	-2.167201e-01	-2.167201e-01	-2.167201e-01
3.068883819596775e-05	-2.436576e-01	-2.436576e-01	-2.436576e-01	-2.436576e-01
3.071284727355856e-05	-2.707470e-01	-2.707470e-01	-2.707470e-01	-2.707470e-01
3.088107510168257e-05	-4.599994e-01	-4.599994e-01	-4.599994e-01	-4.599994e-01
3.121753075793061e-05	-8.161862e-01	-8.161862e-01	-8.161862e-01	-8.161862e-01
3.175230537872929e-05	-1.255182e+00	-1.255182e+00	-1.255182e+00	-1.255182e+00
3.233137968456471e-05	-1.439303e+00	-1.439303e+00	-1.439303e+00	-1.439303e+00
3.290613175583291e-05	-1.261607e+00	-1.261607e+00	-1.261607e+00	-1.261607e+00
3.314110368030375e-05	-1.048949e+00	-1.048949e+00	-1.048949e+00	-1.048949e+00
3.330487375765199e-05	-8.293012e-01	-8.293012e-01	-8.293012e-01	-8.293012e-01
3.342477481962565e-05	-6.403781e-01	-6.403781e-01	-6.403781e-01	-6.403781e-01
3.352708984797336e-05	-4.622516e-01	-4.622516e-01	-4.622516e-01	-4.622516e-01
3.362328797188630e-05	-2.821748e-01	-2.821748e-01	-2.821748e-01	-2.821748e-01
3.373863921924597e-05	-7.471621e-02	-7.471621e-02	-7.471621e-02	-7.471621e-02
3.380398865483735e-05	1.552771e-02	1.552771e-02	1.552771e-02	1.552771e-02
3.380410628327240e-05	1.560174e-02	1.560174e-02	1.560174e-02	1.560174e-02
3.383848739443004e-05	2.178232e-02	2.178232e-02	2.178232e-02	2.178232e-02
3.387286850558769e-05	2.924355e-02	2.924355e-02	2.924355e-02	2.924355e-02
3.390724961674534e-05	3.798542e-02	3.798542e-02	3.798542e-02	3.798542e-02
3.394163072790298e-05	4.800793e-02	4.800793e-02	4.800793e-02	4.800793e-02
3.397601183906063e-05	5.931108e-02	5.931108e-02	5.931108e-02	5.931108e-02
3.401039295021828e-05	7.189487e-02	7.189487e-02	7.189487e-02	7.189487e-02
3.404477406137592e-05	8.575930e-02	8.575930e-02	8.575930e-02	8.575930e-02
3.428567709634954e-05	2.106927e-01	2.106927e-01	2.106927e-01	2.106927e-01
3.475392726947305e-05	5.246868e-01	5.246868e-01	5.246868e-01	5.246868e-01
3.534498304950540e-05	8.969443e-01	8.969443e-01	8.969443e-01	8.969443e-01
3.595414613137663e-05	1.093622e+00	1.093622e+00	1.093622e+00	1.093622e+00
3.626638263401893e-05	1.035009e+00	1.035009e+00	1.035009e+00	1.035009e+00
3.645314199042322e-05	9.048842e-01	9.048842e-01	9.048842e-01	9.048842e-01
3.658782515198352e-05	7.637392e-01	7.637392e-01	7.637392e-01	7.637392e-01
3.668814214587611e-05	6.325669e-01	6.325669e-01	6.325669e-01	6.325669e-01
3.680301833647201e-05	4.566182e-01	4.566182e-01	4.566182e-01	4.566182e-01
3.693431276413440e-05	2.302120e-01	2.302120e-01	2.302120e-01	2.302120e-01
3.702675718019537e-05	7.220971e-02	7.220971e-02	7.220971e-02	7.220971e-02
3.708449642384404e-05	-5.993584e-03	-5.993584e-03	-5.993584e-03	-5.993584e-03
3.708460482083839e-05	-6.065300e-03	-6.065300e-03	-6.065300e-03	-6.065300e-03
3.710043078201308e-05	-9.775372e-03	-9.775372e-03	-9.775372e-03	-9.775372e-03
3.711625674318777e-05	-1.393456e-02	-1.393456e-02	-1.393456e-02	-1.393456e-02
3.713208270436246e-05	-1.854285e-02	-1.854285e-02	-1.854285e-02	-1.854285e-02
3.714790866553714e-05	-2.360026e-02	-2.360026e-02	-2.360026e-02	-2.360026e-02
3.716373462671184e-05	-2.910678e-02	-2.910678e-02	-2.910678e-02	-2.910678e-02
3.717956058788652e-05	-3.506242e-02	-3.506242e-02	-3.506242e-02	-3.506242e-02
