time	V(n003)	V(n011)	I(L1)	I(L4)
0.000000000000000e+00	0.000000e+00	0.000000e+00	0.000000e+00	0.000000e+00
3.906249976259879e-11	4.862596e-03	4.862596e-03	3.152064e-09	3.152064e-09
4.008439995983500e-11	4.989805e-03	4.989805e-03	3.236280e-09	3.236280e-09
6.046966069896986e-11	7.527413e-03	7.527413e-03	5.527544e-09	5.527544e-09
8.085492143810474e-11	1.006502e-02	1.006502e-02	8.638691e-09	8.638691e-09
1.012401821772396e-10	1.260263e-02	1.260263e-02	1.256972e-08	1.256972e-08
1.216254429163745e-10	1.514024e-02	1.514024e-02	1.732064e-08	1.732064e-08
1.420107036555093e-10	1.767784e-02	1.767784e-02	2.289143e-08	2.289143e-08
1.623959643946442e-10	2.021545e-02	2.021545e-02	2.928211e-08	2.928211e-08
1.827812251337790e-10	2.275306e-02	2.275306e-02	3.649268e-08	3.649268e-08
2.339812045556960e-10	2.912656e-02	2.912656e-02	5.826512e-08	5.826512e-08
2.997372164159951e-10	3.731203e-02	3.731203e-02	9.371862e-08	9.371862e-08
3.815209269910526e-10	4.749266e-02	4.749266e-02	1.491809e-07	1.491809e-07
4.905841442293893e-10	6.106912e-02	6.106912e-02	2.422138e-07	2.422138e-07
6.392111143005794e-10	7.957057e-02	7.957057e-02	4.044482e-07	4.044482e-07
8.725380781068076e-10	1.086157e-01	1.086157e-01	7.548840e-07	7.548840e-07
1.339192005719264e-09	1.667059e-01	1.667059e-01	1.723187e-06	1.723187e-06
1.760823598783668e-09	2.191916e-01	2.191916e-01	2.963003e-06	2.963003e-06
2.508968301728144e-09	3.123223e-01	3.123223e-01	6.116951e-06	6.116951e-06
3.680172291273020e-09	4.581159e-01	4.581159e-01	1.295898e-05	1.295898e-05
4.946337429709217e-09	6.157299e-01	6.157299e-01	2.329764e-05	2.329764e-05
6.885153866514721e-09	8.570744e-01	8.570744e-01	4.509373e-05	4.509373e-05
9.300471707520770e-09	1.157730e+00	1.157730e+00	8.225864e-05	8.225864e-05
1.283304392067784e-08	1.597447e+00	1.597447e+00	1.565843e-04	1.565843e-04
1.742562108532987e-08	2.169079e+00	2.169079e+00	2.886676e-04	2.886676e-04
2.393145275723327e-08	2.978773e+00	2.978773e+00	5.388997e-04	5.388997e-04
3.071900776833083e-08	3.823400e+00	3.823400e+00	8.684857e-04	8.684857e-04
3.506249523823738e-08	4.363807e+00	4.363807e+00	1.121956e-03	1.121956e-03
3.879481161536013e-08	4.828110e+00	4.828110e+00	1.371681e-03	1.371681e-03
4.224997179204195e-08	5.257877e+00	5.257877e+00	1.628193e-03	1.628193e-03
4.605835062838287e-08	5.731510e+00	5.731510e+00	1.939883e-03	1.939883e-03
5.072226185910142e-08	6.311431e+00	6.311431e+00	2.362591e-03	2.362591e-03
5.672158821410523e-08	7.057206e+00	7.057206e+00	2.972357e-03	2.972357e-03
6.453456352636839e-08	8.028066e+00	8.028066e+00	3.878132e-03	3.878132e-03
7.485954697462563e-08	9.310342e+00	9.310342e+00	5.269799e-03	5.269799e-03
8.859604211286260e-08	1.101480e+01	1.101480e+01	7.465785e-03	7.465785e-03
1.070246338011881e-07	1.329827e+01	1.329827e+01	1.103009e-02	1.103009e-02
1.318479905296073e-07	1.636712e+01	1.636712e+01	1.694890e-02	1.694890e-02
1.654616674759595e-07	2.050690e+01	2.050690e+01	2.699719e-02	2.699719e-02
2.111358088571929e-07	2.609550e+01	2.609550e+01	4.435696e-02	4.435696e-02
2.735025317765545e-07	3.363993e+01	3.363993e+01	7.480632e-02	7.480632e-02
3.591212506448571e-07	4.378682e+01	4.378682e+01	1.287725e-01	1.287725e-01
4.778252602017216e-07	5.733002e+01	5.733002e+01	2.250500e-01	2.250500e-01
6.452621793882225e-07	7.507474e+01	7.507474e+01	3.964542e-01	3.964542e-01
8.906023264596888e-07	9.731076e+01	9.731076e+01	6.947935e-01	6.947935e-01
1.205242996944249e-06	1.174902e+02	1.174902e+02	1.109509e+00	1.109509e+00
1.337685349902847e-06	1.227437e+02	1.227437e+02	1.282899e+00	1.282899e+00
1.436453067037805e-06	1.253203e+02	1.253203e+02	1.403078e+00	1.403078e+00
1.552348323346893e-06	1.268462e+02	1.268462e+02	1.527779e+00	1.527779e+00
1.680040935990697e-06	1.266340e+02	1.266340e+02	1.640433e+00	1.640433e+00
1.824828135767934e-06	1.239981e+02	1.239981e+02	1.722704e+00	1.722704e+00
2.059532509353206e-06	1.144720e+02	1.144720e+02	1.728966e+00	1.728966e+00
2.433303370169901e-06	8.717260e+01	8.717260e+01	1.454073e+00	1.454073e+00
2.796768584719728e-06	4.948709e+01	4.948709e+01	9.233299e-01	9.233299e-01
2.846644571404580e-06	4.371230e+01	4.371230e+01	8.192541e-01	8.192541e-01
2.946396544774286e-06	3.186343e+01	3.186343e+01	5.658348e-01	5.658348e-01
3.145900491513696e-06	7.368671e+00	7.368671e+00	-4.328050e-03	-4.328050e-03
3.483801310090769e-06	-3.426015e+01	-3.426015e+01	-1.065376e+00	-1.065376e+00
3.989120052980485e-06	-8.826781e+01	-8.826781e+01	-2.669444e+00	-2.669444e+00
4.256636423209917e-06	-1.089204e+02	-1.089204e+02	-3.432603e+00	-3.432603e+00
4.431292731816418e-06	-1.184543e+02	-1.184543e+02	-3.835704e+00	-3.835704e+00
4.558269855109830e-06	-1.232235e+02	-1.232235e+02	-4.061335e+00	-4.061335e+00
4.655612261173847e-06	-1.255916e+02	-1.255916e+02	-4.185793e+00	-4.185793e+00
4.776437238850627e-06	-1.269404e+02	-1.269404e+02	-4.281344e+00	-4.281344e+00
4.892226152238313e-06	-1.265643e+02	-1.265643e+02	-4.309480e+00	-4.309480e+00
5.041433424630250e-06	-1.236814e+02	-1.236814e+02	-4.234780e+00	-4.234780e+00
5.283169691971914e-06	-1.134554e+02	-1.134554e+02	-3.877381e+00	-3.877381e+00
5.601040973545698e-06	-9.049815e+01	-9.049815e+01	-3.130969e+00	-3.130969e+00
5.637272711423371e-06	-8.727745e+01	-8.727745e+01	-3.018582e+00	-3.018582e+00
5.709736187178715e-06	-8.051005e+01	-8.051005e+01	-2.750757e+00	-2.750757e+00
5.854663138689404e-06	-6.579345e+01	-6.579345e+01	-2.149419e+00	-2.149419e+00
6.144517041710783e-06	-3.270711e+01	-3.270711e+01	-7.791873e-01	-7.791873e-01
6.646766257648193e-06	2.917834e+01	2.917834e+01	1.735522e+00	1.735522e+00
7.160976126922342e-06	8.524350e+01	8.524350e+01	4.139813e+00	4.139813e+00
7.441640859559631e-06	1.076110e+02	1.076110e+02	5.188672e+00	5.188672e+00
7.622120905114988e-06	1.178007e+02	1.178007e+02	5.657067e+00	5.657067e+00
7.752827030572416e-06	1.228984e+02	1.228984e+02	5.874829e+00	5.874829e+00
7.850390416722313e-06	1.253938e+02	1.253938e+02	5.960995e+00	5.960995e+00
7.967084673801440e-06	1.268724e+02	1.268724e+02	5.978735e+00	5.978735e+00
8.091965570946091e-06	1.266180e+02	1.266180e+02	5.901837e+00	5.901837e+00
8.237797860749583e-06	1.239246e+02	1.239246e+02	5.679457e+00	5.679457e+00
8.440167115561653e-06	1.160205e+02	1.160205e+02	5.227487e+00	5.227487e+00
8.443087975641714e-06	1.158721e+02	1.158721e+02	5.219497e+00	5.219497e+00
8.468958450636542e-06	1.145152e+02	1.145152e+02	5.138770e+00	5.138770e+00
8.494828925631373e-06	1.130867e+02	1.130867e+02	5.053571e+00	5.053571e+00
8.520699400626201e-06	1.115867e+02	1.115867e+02	4.963900e+00	4.963900e+00
8.546569875621030e-06	1.100153e+02	1.100153e+02	4.869758e+00	4.869758e+00
8.572440350615859e-06	1.083724e+02	1.083724e+02	4.771144e+00	4.771144e+00
8.598310825610689e-06	1.066579e+02	1.066579e+02	4.668058e+00	4.668058e+00
8.624181300605517e-06	1.048720e+02	1.048720e+02	4.560501e+00	4.560501e+00
8.811116345729445e-06	9.006503e+01	9.006503e+01	3.682365e+00	3.682365e+00
9.184986435977298e-06	5.200191e+01	5.200191e+01	1.604519e+00	1.604519e+00
9.702173798984300e-06	-1.079071e+01	-1.079071e+01	-1.455058e+00	-1.455058e+00
1.024751957439001e-05	-7.375053e+01	-7.375053e+01	-4.357685e+00	-4.357685e+00
1.062708257326197e-05	-1.062896e+02	-1.062896e+02	-5.848467e+00	-5.848467e+00
1.081333267595459e-05	-1.171424e+02	-1.171424e+02	-6.278434e+00	-6.278434e+00
1.094769497777164e-05	-1.225702e+02	-1.225702e+02	-6.417759e+00	-6.417759e+00
1.104779048238454e-05	-1.252377e+02	-1.252377e+02	-6.429892e+00	-6.429892e+00
1.116281175151690e-05	-1.268146e+02	-1.268146e+02	-6.348801e+00	-6.348801e+00
1.129359231365409e-05	-1.266511e+02	-1.266511e+02	-6.152324e+00	-6.152324e+00
1.143723089810842e-05	-1.240778e+02	-1.240778e+02	-5.834162e+00	-5.834162e+00
1.152996229192620e-05	-1.211069e+02	-1.211069e+02	-5.568249e+00	-5.568249e+00
1.163203736730503e-05	-1.166819e+02	-1.166819e+02	-5.208898e+00	-5.208898e+00
1.175984548273695e-05	-1.095023e+02	-1.095023e+02	-4.664079e+00	-4.664079e+00
1.201546171360080e-05	-9.013371e+01	-9.013371e+01	-3.341829e+00	-3.341829e+00
1.252669417532850e-05	-3.607177e+01	-3.607177e+01	-3.617692e-01	-3.617692e-01
1.303184377917628e-05	2.611927e+01	2.611927e+01	2.463627e+00	2.463627e+00
1.356644933901205e-05	8.480119e+01	8.480119e+01	4.790587e+00	4.790587e+00
1.389213994212170e-05	1.101870e+02	1.101870e+02	5.623706e+00	5.623706e+00
1.406104737237080e-05	1.190876e+02	1.190876e+02	5.770966e+00	5.770966e+00
1.418430490623310e-05	1.235377e+02	1.235377e+02	5.735999e+00	5.735999e+00
1.428425432501301e-05	1.258261e+02	1.258261e+02	5.627790e+00	5.627790e+00
1.438973903621459e-05	1.269322e+02	1.269322e+02	5.440768e+00	5.440768e+00
1.450683596686531e-05	1.265722e+02	1.265722e+02	5.162837e+00	5.162837e+00
1.462569401804048e-05	1.245036e+02	1.245036e+02	4.834641e+00	4.834641e+00
1.462737170624134e-05	1.244623e+02	1.244623e+02	4.829699e+00	4.829699e+00
1.464223123030609e-05	1.240810e+02	1.240810e+02	4.784183e+00	4.784183e+00
1.465709075437084e-05	1.236736e+02	1.236736e+02	4.737356e+00	4.737356e+00
1.467195027843560e-05	1.232401e+02	1.232401e+02	4.689220e+00	4.689220e+00
1.468680980250035e-05	1.227805e+02	1.227805e+02	4.639773e+00	4.639773e+00
1.470166932656510e-05	1.222947e+02	1.222947e+02	4.589015e+00	4.589015e+00
1.471652885062986e-05	1.217829e+02	1.217829e+02	4.536947e+00	4.536947e+00
1.473138837469461e-05	1.212449e+02	1.212449e+02	4.483568e+00	4.483568e+00
1.483876041954960e-05	1.166034e+02	1.166034e+02	4.065184e+00	4.065184e+00
1.505350450925959e-05	1.035151e+02	1.035151e+02	3.095836e+00	3.095836e+00
1.548299268867955e-05	6.440987e+01	6.440987e+01	9.532925e-01	9.532925e-01
1.604129353401086e-05	-1.948386e+00	-1.948386e+00	-1.727955e+00	-1.727955e+00
1.653082456582225e-05	-6.034793e+01	-6.034793e+01	-3.472894e+00	-3.472894e+00
1.702772225705602e-05	-1.056297e+02	-1.056297e+02	-4.377162e+00	-4.377162e+00
1.721681769827963e-05	-1.168143e+02	-1.168143e+02	-4.407394e+00	-4.407394e+00
1.735296895102692e-05	-1.224063e+02	-1.224063e+02	-4.262440e+00	-4.262440e+00
1.745429786878637e-05	-1.251594e+02	-1.251594e+02	-4.084850e+00	-4.084850e+00
1.756851384378075e-05	-1.267827e+02	-1.267827e+02	-3.819824e+00	-3.819824e+00
1.770215143586383e-05	-1.266666e+02	-1.266666e+02	-3.453728e+00	-3.453728e+00
1.780149271465925e-05	-1.251724e+02	-1.251724e+02	-3.161075e+00	-3.161075e+00
1.780167932002645e-05	-1.251685e+02	-1.251685e+02	-3.160525e+00	-3.160525e+00
1.782519159629502e-05	-1.246400e+02	-1.246400e+02	-3.091292e+00	-3.091292e+00
1.784907708329800e-05	-1.240354e+02	-1.240354e+02	-3.018711e+00	-3.018711e+00
1.789684805730397e-05	-1.226225e+02	-1.226225e+02	-2.867208e+00	-2.867208e+00
1.799239000531591e-05	-1.189941e+02	-1.189941e+02	-2.542260e+00	-2.542260e+00
1.818347390133979e-05	-1.086497e+02	-1.086497e+02	-1.833780e+00	-1.833780e+00
1.856564169338755e-05	-7.705494e+01	-7.705494e+01	-3.752469e-01	-3.752469e-01
1.917135107156323e-05	-7.392338e+00	-7.392338e+00	1.680480e+00	1.680480e+00
1.965753155919939e-05	5.158867e+01	5.158867e+01	2.731013e+00	2.731013e+00
2.016616282298140e-05	1.007986e+02	1.007986e+02	3.033505e+00	3.033505e+00
2.039155153089415e-05	1.152780e+02	1.152780e+02	2.861218e+00	2.861218e+00
2.053581576354713e-05	1.216380e+02	1.216380e+02	2.612333e+00	2.612333e+00
2.064269214941709e-05	1.247892e+02	1.247892e+02	2.374058e+00	2.374058e+00
2.075336619249155e-05	1.266101e+02	1.266101e+02	2.086613e+00	2.086613e+00
2.089971344244133e-05	1.267313e+02	1.267313e+02	1.675649e+00	1.675649e+00
2.098715579513995e-05	1.255592e+02	1.255592e+02	1.429484e+00	1.429484e+00
2.098731965828771e-05	1.255562e+02	1.255562e+02	1.429051e+00	1.429051e+00
2.101124367786112e-05	1.250733e+02	1.250733e+02	1.368572e+00	1.368572e+00
2.103516769743453e-05	1.245225e+02	1.245225e+02	1.307274e+00	1.307274e+00
2.105909171700793e-05	1.239036e+02	1.239036e+02	1.245157e+00	1.245157e+00
2.108301573658133e-05	1.232167e+02	1.232167e+02	1.182220e+00	1.182220e+00
2.110693975615474e-05	1.224618e+02	1.224618e+02	1.118464e+00	1.118464e+00
2.113086377572815e-05	1.216389e+02	1.216389e+02	1.053889e+00	1.053889e+00
2.115478779530155e-05	1.207479e+02	1.207479e+02	9.884953e-01	9.884953e-01
2.132258365861091e-05	1.126746e+02	1.126746e+02	5.247310e-01	5.247310e-01
2.165817538522963e-05	8.770499e+01	8.770499e+01	-3.648014e-01	-3.648014e-01
2.221794845453928e-05	2.692493e+01	2.692493e+01	-1.568194e+00	-1.568194e+00
2.273373762837773e-05	-3.655148e+01	-3.655148e+01	-2.172623e+00	-2.172623e+00
2.317973567952605e-05	-8.460658e+01	-8.460658e+01	-2.143423e+00	-2.143423e+00
2.352475399825379e-05	-1.112377e+02	-1.112377e+02	-1.760738e+00	-1.760738e+00
2.368879512418649e-05	-1.196136e+02	-1.196136e+02	-1.464068e+00	-1.464068e+00
2.380887404419683e-05	-1.237978e+02	-1.237978e+02	-1.199192e+00	-1.199192e+00
2.391106341071884e-05	-1.260111e+02	-1.260111e+02	-9.533659e-01	-9.533659e-01
2.400767154937830e-05	-1.269422e+02	-1.269422e+02	-7.087735e-01	-7.087735e-01
2.407774389955709e-05	-1.269059e+02	-1.269059e+02	-5.313617e-01	-5.313617e-01
2.412072561158843e-05	-1.265874e+02	-1.265874e+02	-4.296287e-01	-4.296287e-01
2.412080684339963e-05	-1.265865e+02	-1.265865e+02	-4.294622e-01	-4.294622e-01
2.414454974136070e-05	-1.263136e+02	-1.263136e+02	-3.852996e-01	-3.852996e-01
2.416829263932177e-05	-1.259728e+02	-1.259728e+02	-3.409093e-01	-3.409093e-01
2.419203553728284e-05	-1.255640e+02	-1.255640e+02	-2.962914e-01	-2.962914e-01
2.421577843524390e-05	-1.250874e+02	-1.250874e+02	-2.514458e-01	-2.514458e-01
2.423952133320498e-05	-1.245428e+02	-1.245428e+02	-2.063727e-01	-2.063727e-01
2.426326423116604e-05	-1.239303e+02	-1.239303e+02	-1.610719e-01	-1.610719e-01
2.428700712912711e-05	-1.232499e+02	-1.232499e+02	-1.155435e-01	-1.155435e-01
2.445336987847701e-05	-1.166416e+02	-1.166416e+02	1.999399e-01	1.999399e-01
2.478609537717679e-05	-9.439850e+01	-9.439850e+01	7.835137e-01	7.835137e-01
2.531107196996327e-05	-4.036116e+01	-4.036116e+01	1.501205e+00	1.501205e+00
2.582934738393929e-05	2.330985e+01	2.330985e+01	1.859131e+00	1.859131e+00
2.629593120949701e-05	7.603960e+01	7.603960e+01	1.787647e+00	1.787647e+00
2.668128857696688e-05	1.081939e+02	1.081939e+02	1.447815e+00	1.447815e+00
2.685919004714051e-05	1.180915e+02	1.180915e+02	1.200732e+00	1.200732e+00
2.698824991124854e-05	1.230431e+02	1.230431e+02	9.831836e-01	9.831836e-01
2.708466822723105e-05	1.254623e+02	1.254623e+02	8.060421e-01	8.060421e-01
2.720212764440931e-05	1.268951e+02	1.268951e+02	5.786791e-01	5.786791e-01
2.727953353171173e-05	1.269212e+02	1.269212e+02	4.309801e-01	4.309801e-01
2.733226422931420e-05	1.265206e+02	1.265206e+02	3.402068e-01	3.402068e-01
2.733235883918280e-05	1.265196e+02	1.265196e+02	3.400763e-01	3.400763e-01
2.736001195220523e-05	1.261733e+02	1.261733e+02	3.077094e-01	3.077094e-01
2.738766506522766e-05	1.257353e+02	1.257353e+02	2.749663e-01	2.749663e-01
2.741531817825009e-05	1.252054e+02	1.252054e+02	2.418471e-01	2.418471e-01
2.744297129127253e-05	1.245837e+02	1.245837e+02	2.083517e-01	2.083517e-01
2.747062440429495e-05	1.238702e+02	1.238702e+02	1.744802e-01	1.744802e-01
2.749827751731738e-05	1.230649e+02	1.230649e+02	1.402325e-01	1.402325e-01
2.752593063033981e-05	1.221677e+02	1.221677e+02	1.056086e-01	1.056086e-01
2.771969164123403e-05	1.134204e+02	1.134204e+02	-1.427604e-01	-1.427604e-01
2.810424906157423e-05	8.442693e+01	8.442693e+01	-6.427800e-01	-6.427800e-01
2.864663025904651e-05	2.467917e+01	2.467917e+01	-1.295357e+00	-1.295357e+00
2.919080687794988e-05	-4.209186e+01	-4.209186e+01	-1.784662e+00	-1.784662e+00
2.968047407529582e-05	-9.266307e+01	-9.266307e+01	-1.997062e+00	-1.997062e+00
2.994729358469691e-05	-1.119674e+02	-1.119674e+02	-1.978721e+00	-1.978721e+00
3.010789677016918e-05	-1.199791e+02	-1.199791e+02	-1.900761e+00	-1.900761e+00
3.022571340687011e-05	-1.239781e+02	-1.239781e+02	-1.810544e+00	-1.810544e+00
3.032950370144424e-05	-1.261339e+02	-1.261339e+02	-1.709357e+00	-1.709357e+00
3.043155945485517e-05	-1.269820e+02	-1.269820e+02	-1.592868e+00	-1.592868e+00
3.050116042552937e-05	-1.268323e+02	-1.268323e+02	-1.510392e+00	-1.510392e+00
3.054470149945985e-05	-1.264384e+02	-1.264384e+02	-1.464981e+00	-1.464981e+00
3.054478364193557e-05	-1.264374e+02	-1.264374e+02	-1.464922e+00	-1.464922e+00
3.056879271412271e-05	-1.261210e+02	-1.261210e+02	-1.452162e+00	-1.452162e+00
3.059280178630985e-05	-1.257353e+02	-1.257353e+02	-1.438170e+00	-1.438170e+00
3.061681085849699e-05	-1.252803e+02	-1.252803e+02	-1.422946e+00	-1.422946e+00
3.064081993068414e-05	-1.247561e+02	-1.247561e+02	-1.406490e+00	-1.406490e+00
3.066482900287128e-05	-1.241625e+02	-1.241625e+02	-1.388802e+00	-1.388802e+00
3.068883807505842e-05	-1.234997e+02	-1.234997e+02	-1.369881e+00	-1.369881e+00
3.071284714724556e-05	-1.227676e+02	-1.227676e+02	-1.349729e+00	-1.349729e+00
3.088107493750699e-05	-1.157654e+02	-1.157654e+02	-1.172256e+00	-1.172256e+00
3.121753051802984e-05	-9.261465e+01	-9.261465e+01	-6.597287e-01	-6.597287e-01
3.175230502890582e-05	-3.668699e+01	-3.668699e+01	4.359624e-01	4.359624e-01
3.233137969608222e-05	3.443087e+01	3.443087e+01	1.778055e+00	1.778055e+00
3.290613177109171e-05	9.439179e+01	9.439179e+01	3.017804e+00	3.017804e+00
3.314110369057367e-05	1.112956e+02	1.112956e+02	3.395474e+00	3.395474e+00
3.330487376503836e-05	1.196426e+02	1.196426e+02	3.556423e+00	3.556423e+00
3.342477482511941e-05	1.238121e+02	1.238121e+02	3.616998e+00	3.616998e+00
3.352708985480448e-05	1.260210e+02	1.260210e+02	3.627181e+00	3.627181e+00
3.362328798402381e-05	1.269430e+02	1.269430e+02	3.599858e+00	3.599858e+00
3.373863922376068e-05	1.265616e+02	1.265616e+02	3.536764e+00	3.536764e+00
3.380398864391062e-05	1.256272e+02	1.256272e+02	3.498986e+00	3.498986e+00
3.380410627232502e-05	1.256251e+02	1.256251e+02	3.498941e+00	3.498941e+00
3.383848737744830e-05	1.249240e+02	1.249240e+02	3.488670e+00	3.488670e+00
3.387286848257158e-05	1.240835e+02	1.240835e+02	3.472555e+00	3.472555e+00
3.390724958769486e-05	1.231036e+02	1.231036e+02	3.450598e+00	3.450598e+00
3.394163069281815e-05	1.219843e+02	1.219843e+02	3.422798e+00	3.422798e+00
3.397601179794144e-05	1.207256e+02	1.207256e+02	3.389154e+00	3.389154e+00
3.401039290306472e-05	1.193276e+02	1.193276e+02	3.349668e+00	3.349668e+00
3.404477400818800e-05	1.177901e+02	1.177901e+02	3.304338e+00	3.304338e+00
3.428567700087979e-05	1.034137e+02	1.034137e+02	2.830701e+00	2.830701e+00
3.475392712515828e-05	6.005194e+01	6.005194e+01	1.361825e+00	1.361825e+00
3.534498309807526e-05	-1.101192e+01	-1.101192e+01	-1.071497e+00	-1.071497e+00
3.595414620328974e-05	-8.024170e+01	-8.024170e+01	-3.747696e+00	-3.747696e+00
3.626638265633482e-05	-1.061719e+02	-1.061719e+02	-4.942850e+00	-4.942850e+00
3.645314200614957e-05	-1.170839e+02	-1.170839e+02	-5.479667e+00	-5.479667e+00
3.658782516355999e-05	-1.225410e+02	-1.225410e+02	-5.752595e+00	-5.752595e+00
3.668814215458868e-05	-1.252237e+02	-1.252237e+02	-5.883590e+00	-5.883590e+00
3.680301834705915e-05	-1.268090e+02	-1.268090e+02	-5.953849e+00	-5.953849e+00
3.693431276807945e-05	-1.266539e+02	-1.266539e+02	-5.947803e+00	-5.947803e+00
3.702675701663934e-05	-1.252864e+02	-1.252864e+02	-5.895153e+00	-5.895153e+00
3.708449617952860e-05	-1.239098e+02	-1.239098e+02	-5.849521e+00	-5.849521e+00
3.708460457637862e-05	-1.239068e+02	-1.239068e+02	-5.849447e+00	-5.849447e+00
3.710043051648072e-05	-1.234596e+02	-1.234596e+02	-5.839660e+00	-5.839660e+00
3.711625645658283e-05	-1.229829e+02	-1.229829e+02	-5.827893e+00	-5.827893e+00
3.713208239668494e-05	-1.224768e+02	-1.224768e+02	-5.814146e+00	-5.814146e+00
3.714790833678705e-05	-1.219412e+02	-1.219412e+02	-5.798419e+00	-5.798419e+00
3.716373427688915e-05	-1.213762e+02	-1.213762e+02	-5.780713e+00	-5.780713e+00
3.717956021699126e-05	-1.207818e+02	-1.207818e+02	-5.761028e+00	-5.761028e+00
3.719538615709337e-05	-1.201579e+02	-1.201579e+02	-5.739362e+00	-5.739362e+00
3.730638453150814e-05	-1.149823e+02	-1.149823e+02	-5.531954e+00	-5.531954e+00
